Time Stamp,ID,Extended,Dir,Bus,LEN,D1,D2,D3,D4,D5,D6,D7,D8
5663869,00000102,false,Rx,0,8,01,90,01,00,00,01,00,00,
5678005,00000521,false,Rx,0,6,00,00,0F,00,00,00,00,00,
5763368,00000100,false,Rx,0,8,00,00,00,00,9A,01,C8,00,
5763622,00000101,false,Rx,0,8,00,FF,FE,00,00,00,00,00,
5763864,00000102,false,Rx,0,8,01,90,01,00,00,01,00,00,
5863368,00000100,false,Rx,0,8,00,00,00,00,9A,01,C8,00,
5863615,00000101,false,Rx,0,8,00,FF,FE,00,00,00,00,00,
5863861,00000102,false,Rx,0,8,01,90,01,00,00,01,00,00,
5888435,00000524,false,Rx,0,6,03,03,F9,FF,FF,FF,00,00,
5954928,00000527,false,Rx,0,6,06,03,BC,86,00,00,00,00,
5963364,00000100,false,Rx,0,8,00,00,00,00,9A,01,C8,00,
5963619,00000101,false,Rx,0,8,00,FF,FE,00,00,00,00,00,
5963865,00000102,false,Rx,0,8,01,90,01,00,00,01,00,00,
6047571,00000528,false,Rx,0,6,07,00,6E,0D,00,00,00,00,
6063361,00000100,false,Rx,0,8,00,00,00,00,9A,01,C8,00,
6063621,00000101,false,Rx,0,8,00,FF,FE,00,00,00,00,00,
6063861,00000102,false,Rx,0,8,01,90,01,00,00,01,00,00,
6091789,00000523,false,Rx,0,6,02,0B,ED,FF,FF,FF,00,00,
6163359,00000100,false,Rx,0,8,00,00,00,00,9A,01,C8,00,
6163613,00000101,false,Rx,0,8,00,FF,FE,00,00,00,00,00,
6163859,00000102,false,Rx,0,8,01,90,01,00,00,01,00,00,
6202513,00000522,false,Rx,0,6,01,05,CA,C1,05,00,00,00,
6239099,00000526,false,Rx,0,6,05,0B,05,00,00,00,00,00,
6256910,00000525,false,Rx,0,6,04,0A,BD,00,00,00,00,00,
6263359,00000100,false,Rx,0,8,00,00,00,00,9A,01,C8,00,
6263613,00000101,false,Rx,0,8,00,FF,FE,00,00,00,00,00,
6263853,00000102,false,Rx,0,8,01,90,01,00,00,01,00,00,
6290110,00000521,false,Rx,0,6,00,01,0C,00,00,00,00,00,
6363353,00000100,false,Rx,0,8,00,00,00,00,9A,01,C8,00,
6363614,00000101,false,Rx,0,8,00,FF,FE,00,00,00,00,00,
6363854,00000102,false,Rx,0,8,01,90,01,00,00,01,00,00,
6463357,00000100,false,Rx,0,8,00,00,00,00,9A,01,C8,00,
6463612,00000101,false,Rx,0,8,00,FF,FE,00,00,00,00,00,
6463852,00000102,false,Rx,0,8,01,90,01,00,00,01,00,00,
6554884,00000524,false,Rx,0,6,03,04,FA,FF,FF,FF,00,00,
6563352,00000100,false,Rx,0,8,00,00,00,00,9A,01,C8,00,
6563601,00000101,false,Rx,0,8,00,FF,FE,00,00,00,00,00,
6563855,00000102,false,Rx,0,8,01,90,01,00,00,01,00,00,
6663352,00000100,false,Rx,0,8,00,00,00,00,9A,01,C8,00,
6663600,00000101,false,Rx,0,8,00,FF,FE,00,00,00,00,00,
6663854,00000102,false,Rx,0,8,01,90,01,00,00,01,00,00,
6676066,00000527,false,Rx,0,6,06,04,BC,86,00,00,00,00,
6740122,00000523,false,Rx,0,6,02,0C,F4,FF,FF,FF,00,00,
6763347,00000100,false,Rx,0,8,00,00,00,00,9A,01,C8,00,
6763604,00000101,false,Rx,0,8,00,FF,FE,00,00,00,00,00,
6763843,00000102,false,Rx,0,8,01,90,01,00,00,01,00,00,
6786487,00000528,false,Rx,0,6,07,01,6E,0D,00,00,00,00,
6832713,00000522,false,Rx,0,6,01,06,CB,C1,05,00,00,00,
6863342,00000100,false,Rx,0,8,00,00,00,00,9A,01,C8,00,
6863598,00000101,false,Rx,0,8,00,FF,FE,00,00,00,00,00,
6863845,00000102,false,Rx,0,8,01,90,01,00,00,01,00,00,
6902186,00000521,false,Rx,0,6,00,02,09,00,00,00,00,00,
6941817,00000525,false,Rx,0,6,04,0B,BD,00,00,00,00,00,
6942038,00000526,false,Rx,0,6,05,0C,06,00,00,00,00,00,
6963345,00000100,false,Rx,0,8,00,00,00,00,9A,01,C8,00,
6963597,00000101,false,Rx,0,8,00,FF,FE,00,00,00,00,00,
6963843,00000102,false,Rx,0,8,01,90,01,00,00,01,00,00,
7063343,00000100,false,Rx,0,8,00,00,00,00,9A,01,C8,00,
7063597,00000101,false,Rx,0,8,00,FF,FE,00,00,00,00,00,
7063840,00000102,false,Rx,0,8,01,90,01,00,00,01,00,00,
7163341,00000100,false,Rx,0,8,00,00,00,00,9A,01,C8,00,
7163594,00000101,false,Rx,0,8,00,FF,FE,00,00,00,00,00,
7163837,00000102,false,Rx,0,8,01,90,01,00,00,01,00,00,
7221322,00000524,false,Rx,0,6,03,05,E6,FF,FF,FF,00,00,
7263335,00000100,false,Rx,0,8,00,00,00,00,9A,01,C8,00,
7263595,00000101,false,Rx,0,8,00,FF,FE,00,00,00,00,00,
7263834,00000102,false,Rx,0,8,01,90,01,00,00,01,00,00,
7363338,00000100,false,Rx,0,8,00,00,00,00,9A,01,C8,00,
7363593,00000101,false,Rx,0,8,00,FF,FE,00,00,00,00,00,
7363836,00000102,false,Rx,0,8,01,90,01,00,00,01,00,00,
7388442,00000523,false,Rx,0,6,02,0D,F1,FF,FF,FF,00,00,
7396540,00000527,false,Rx,0,6,06,05,BC,86,00,00,00,00,
7462934,00000522,false,Rx,0,6,01,07,C7,C1,05,00,00,00,
7463333,00000100,false,Rx,0,8,00,00,00,00,9A,01,C8,00,
7463580,00000101,false,Rx,0,8,00,FF,FE,00,00,00,00,00,
7463833,00000102,false,Rx,0,8,01,90,01,00,00,01,00,00,
7514264,00000521,false,Rx,0,6,00,03,15,00,00,00,00,00,
7525426,00000528,false,Rx,0,6,07,02,6E,0D,00,00,00,00,
7563328,00000100,false,Rx,0,8,00,00,00,00,9A,01,C8,00,
7563581,00000101,false,Rx,0,8,00,FF,FE,00,00,00,00,00,
7563830,00000102,false,Rx,0,8,01,90,01,00,00,01,00,00,
7626049,00000525,false,Rx,0,6,04,0C,BD,00,00,00,00,00,
7644688,00000526,false,Rx,0,6,05,0D,01,00,00,00,00,00,
7663326,00000100,false,Rx,0,8,00,00,00,00,9A,01,C8,00,
7663579,00000101,false,Rx,0,8,00,FF,FE,00,00,00,00,00,
7663845,00000102,false,Rx,0,8,01,90,01,00,00,01,00,00,
7763329,00000100,false,Rx,0,8,00,00,00,00,9A,01,C8,00,
7763576,00000101,false,Rx,0,8,00,FF,FE,00,00,00,00,00,
7763824,00000102,false,Rx,0,8,01,90,01,00,00,01,00,00,
7863325,00000100,false,Rx,0,8,00,00,00,00,9A,01,C8,00,
7863571,00000101,false,Rx,0,8,00,FF,FE,00,00,00,00,00,
7863825,00000102,false,Rx,0,8,01,90,01,00,00,01,00,00,
7887773,00000524,false,Rx,0,6,03,06,F6,FF,FF,FF,00,00,
7963323,00000100,false,Rx,0,8,00,00,00,00,9A,01,C8,00,
7963576,00000101,false,Rx,0,8,00,FF,FE,00,00,00,00,00,
7963824,00000102,false,Rx,0,8,01,90,01,00,00,01,00,00,
8036760,00000523,false,Rx,0,6,02,0E,F1,FF,FF,FF,00,00,
8063322,00000100,false,Rx,0,8,00,00,00,00,9A,01,C8,00,
8063569,00000101,false,Rx,0,8,00,FF,FE,00,00,00,00,00,
8063816,00000102,false,Rx,0,8,01,90,01,00,00,01,00,00,
8093127,00000522,false,Rx,0,6,01,08,D2,C1,05,00,00,00,
8117365,00000527,false,Rx,0,6,06,06,BC,86,00,00,00,00,
8126351,00000521,false,Rx,0,6,00,04,0E,00,00,00,00,00,
8163318,00000100,false,Rx,0,8,00,00,00,00,9A,01,C8,00,
8163571,00000101,false,Rx,0,8,00,FF,FE,00,00,00,00,00,
8163819,00000102,false,Rx,0,8,01,90,01,00,00,01,00,00,
8263320,00000100,false,Rx,0,8,00,00,00,00,9A,01,C8,00,
8263567,00000101,false,Rx,0,8,00,FF,FE,00,00,00,00,00,
8263815,00000102,false,Rx,0,8,01,90,01,00,00,01,00,00,
8264344,00000528,false,Rx,0,6,07,03,6E,0D,00,00,00,00,
8310622,00000525,false,Rx,0,6,04,0D,BD,00,00,00,00,00,
8346970,00000526,false,Rx,0,6,05,0E,07,00,00,00,00,00,
8363315,00000100,false,Rx,0,8,00,00,00,00,9A,01,C8,00,
8363564,00000101,false,Rx,0,8,00,FF,FE,00,00,00,00,00,
8363811,00000102,false,Rx,0,8,01,90,01,00,00,01,00,00,
8463314,00000100,false,Rx,0,8,00,00,00,00,9A,01,C8,00,
8463561,00000101,false,Rx,0,8,00,FF,FE,00,00,00,00,00,
8463808,00000102,false,Rx,0,8,01,90,01,00,00,01,00,00,
8554235,00000524,false,Rx,0,6,03,07,EB,FF,FF,FF,00,00,
8563311,00000100,false,Rx,0,8,00,00,00,00,9A,01,C8,00,
8563561,00000101,false,Rx,0,8,00,FF,FE,00,00,00,00,00,
8563808,00000102,false,Rx,0,8,01,90,01,00,00,01,00,00,
8663310,00000100,false,Rx,0,8,00,00,00,00,9A,01,C8,00,
8663556,00000101,false,Rx,0,8,00,FF,FE,00,00,00,00,00,
8663804,00000102,false,Rx,0,8,01,90,01,00,00,01,00,00,
8685106,00000523,false,Rx,0,6,02,0F,FD,FF,FF,FF,00,00,
8723342,00000522,false,Rx,0,6,01,09,CC,C1,05,00,00,00,
8738442,00000521,false,Rx,0,6,00,05,0F,00,00,00,00,00,
8763310,00000100,false,Rx,0,8,00,00,00,00,9A,01,C8,00,
8763556,00000101,false,Rx,0,8,00,FF,FE,00,00,00,00,00,
8763803,00000102,false,Rx,0,8,01,90,01,00,00,01,00,00,
8838182,00000527,false,Rx,0,6,06,07,BC,86,00,00,00,00,
8863303,00000100,false,Rx,0,8,00,00,00,00,9A,01,C8,00,
8863569,00000101,false,Rx,0,8,00,FF,FE,00,00,00,00,00,
8863806,00000102,false,Rx,0,8,01,90,01,00,00,01,00,00,
8963304,00000100,false,Rx,0,8,00,00,00,00,9A,01,C8,00,
8963551,00000101,false,Rx,0,8,00,FF,FE,00,00,00,00,00,
8963801,00000102,false,Rx,0,8,01,90,01,00,00,01,00,00,
8995185,00000525,false,Rx,0,6,04,0E,BD,00,00,00,00,00,
9003295,00000528,false,Rx,0,6,07,04,6E,0D,00,00,00,00,
9049857,00000526,false,Rx,0,6,05,0F,12,00,00,00,00,00,
9063301,00000100,false,Rx,0,8,00,00,00,00,9A,01,C8,00,
9063554,00000101,false,Rx,0,8,00,FF,FE,00,00,00,00,00,
9063801,00000102,false,Rx,0,8,01,90,01,00,00,01,00,00,
9163297,00000100,false,Rx,0,8,00,00,00,00,9A,01,C8,00,
9163550,00000101,false,Rx,0,8,00,FF,FE,00,00,00,00,00,
9163794,00000102,false,Rx,0,8,01,90,01,00,00,01,00,00,
9220688,00000524,false,Rx,0,6,03,08,FA,FF,FF,FF,00,00,
9263297,00000100,false,Rx,0,8,00,00,00,00,9A,01,C8,00,
9263550,00000101,false,Rx,0,8,00,FF,FE,00,00,00,00,00,
9263797,00000102,false,Rx,0,8,01,90,01,00,00,01,00,00,
9333440,00000523,false,Rx,0,6,02,00,F0,FF,FF,FF,00,00,
9350559,00000521,false,Rx,0,6,00,06,0F,00,00,00,00,00,
9353573,00000522,false,Rx,0,6,01,0A,CB,C1,05,00,00,00,
9363292,00000100,false,Rx,0,8,00,00,00,00,9A,01,C8,00,
9363545,00000101,false,Rx,0,8,00,FF,FE,00,00,00,00,00,
9363790,00000102,false,Rx,0,8,01,90,01,00,00,01,00,00,
9463292,00000100,false,Rx,0,8,00,00,00,00,9A,01,C8,00,
9463545,00000101,false,Rx,0,8,00,FF,FE,00,00,00,00,00,
9463807,00000102,false,Rx,0,8,01,90,01,00,00,01,00,00,
9559094,00000527,false,Rx,0,6,06,08,BC,86,00,00,00,00,
9563292,00000100,false,Rx,0,8,00,00,00,00,9A,01,C8,00,
9563538,00000101,false,Rx,0,8,00,FF,FE,00,00,00,00,00,
9563786,00000102,false,Rx,0,8,01,90,01,00,00,01,00,00,
9663288,00000100,false,Rx,0,8,00,00,00,00,9A,01,C8,00,
9663541,00000101,false,Rx,0,8,00,FF,FE,00,00,00,00,00,
9663788,00000102,false,Rx,0,8,01,90,01,00,00,01,00,00,
9679799,00000525,false,Rx,0,6,04,0F,BD,00,00,00,00,00,
9742265,00000528,false,Rx,0,6,07,05,6E,0D,00,00,00,00,
9752632,00000526,false,Rx,0,6,05,00,06,00,00,00,00,00,
9763287,00000100,false,Rx,0,8,00,00,00,00,9A,01,C8,00,
9763539,00000101,false,Rx,0,8,00,FF,FE,00,00,00,00,00,
9763786,00000102,false,Rx,0,8,01,90,01,00,00,01,00,00,
9863281,00000100,false,Rx,0,8,00,00,00,00,9A,01,C8,00,
9863535,00000101,false,Rx,0,8,00,FF,FE,00,00,00,00,00,
9863781,00000102,false,Rx,0,8,01,90,01,00,00,01,00,00,
9887171,00000524,false,Rx,0,6,03,09,F3,FF,FF,FF,00,00,
9962657,00000521,false,Rx,0,6,00,07,0D,00,00,00,00,00,
9963285,00000100,false,Rx,0,8,00,00,00,00,9A,01,C8,00,
9963533,00000101,false,Rx,0,8,00,FF,FE,00,00,00,00,00,
9963781,00000102,false,Rx,0,8,01,90,01,00,00,01,00,00,
9981808,00000523,false,Rx,0,6,02,01,F0,FF,FF,FF,00,00,
9983803,00000522,false,Rx,0,6,01,0B,C7,C1,05,00,00,00,
10063282,00000100,false,Rx,0,8,00,00,00,00,9A,01,C8,00,
10063529,00000101,false,Rx,0,8,00,FF,FE,00,00,00,00,00,
10063777,00000102,false,Rx,0,8,01,90,01,00,00,01,00,00,
10163280,00000100,false,Rx,0,8,00,00,00,00,9A,01,C8,00,
10163526,00000101,false,Rx,0,8,00,FF,FE,00,00,00,00,00,
10163774,00000102,false,Rx,0,8,01,90,01,00,00,01,00,00,
10263279,00000100,false,Rx,0,8,00,00,00,00,9A,01,C8,00,
10263537,00000101,false,Rx,0,8,00,FF,FE,00,00,00,00,00,
10263774,00000102,false,Rx,0,8,01,90,01,00,00,01,00,00,
10279847,00000527,false,Rx,0,6,06,09,BC,86,00,00,00,00,
10363275,00000100,false,Rx,0,8,00,00,00,00,9A,01,C8,00,
10363528,00000101,false,Rx,0,8,00,FF,FE,00,00,00,00,00,
10363771,00000102,false,Rx,0,8,01,90,01,00,00,01,00,00,
10364367,00000525,false,Rx,0,6,04,00,BD,00,00,00,00,00,
10455297,00000526,false,Rx,0,6,05,01,04,00,00,00,00,00,
10463272,00000100,false,Rx,0,8,00,00,00,00,9A,01,C8,00,
10463526,00000101,false,Rx,0,8,00,FF,FE,00,00,00,00,00,
10463771,00000102,false,Rx,0,8,01,90,01,00,00,01,00,00,
10481205,00000528,false,Rx,0,6,07,06,6E,0D,00,00,00,00,
10553621,00000524,false,Rx,0,6,03,0A,FA,FF,FF,FF,00,00,
10563268,00000100,false,Rx,0,8,00,00,00,00,9A,01,C8,00,
10563521,00000101,false,Rx,0,8,00,FF,FE,00,00,00,00,00,
10563768,00000102,false,Rx,0,8,01,90,01,00,00,01,00,00,
10575061,00000521,false,Rx,0,6,00,08,0C,00,00,00,00,00,
10614017,00000522,false,Rx,0,6,01,0C,CF,C1,05,00,00,00,
10630128,00000523,false,Rx,0,6,02,02,F0,FF,FF,FF,00,00,
10663267,00000100,false,Rx,0,8,00,00,00,00,9A,01,C8,00,
10663520,00000101,false,Rx,0,8,00,FF,FE,00,00,00,00,00,
10663763,00000102,false,Rx,0,8,01,90,01,00,00,01,00,00,
10763264,00000100,false,Rx,0,8,00,00,00,00,9A,01,C8,00,
10763517,00000101,false,Rx,0,8,00,FF,FE,00,00,00,00,00,
10763766,00000102,false,Rx,0,8,01,90,01,00,00,01,00,00,
10863267,00000100,false,Rx,0,8,00,00,00,00,9A,01,C8,00,
10863513,00000101,false,Rx,0,8,00,FF,FE,00,00,00,00,00,
10863775,00000102,false,Rx,0,8,01,90,01,00,00,01,00,00,
10963260,00000100,false,Rx,0,8,00,00,00,00,9A,01,C8,00,
10963513,00000101,false,Rx,0,8,00,FF,FE,00,00,00,00,00,
10963760,00000102,false,Rx,0,8,01,90,01,00,00,01,00,00,
11000675,00000527,false,Rx,0,6,06,0A,BC,86,00,00,00,00,
11048950,00000525,false,Rx,0,6,04,01,BD,00,00,00,00,00,
11063263,00000100,false,Rx,0,8,00,00,00,00,9A,01,C8,00,
11063510,00000101,false,Rx,0,8,00,FF,FE,00,00,00,00,00,
11063756,00000102,false,Rx,0,8,01,90,01,00,00,01,00,00,
11157994,00000526,false,Rx,0,6,05,02,00,00,00,00,00,00,
11163261,00000100,false,Rx,0,8,00,00,00,00,9A,01,C8,00,
11163508,00000101,false,Rx,0,8,00,FF,FE,00,00,00,00,00,
11163756,00000102,false,Rx,0,8,01,90,01,00,00,01,00,00,
11186855,00000521,false,Rx,0,6,00,09,08,00,00,00,00,00,
11220379,00000524,false,Rx,0,6,03,0B,EC,FF,FF,FF,00,00,
11220601,00000528,false,Rx,0,6,07,07,6E,0D,00,00,00,00,
11244238,00000522,false,Rx,0,6,01,0D,D1,C1,05,00,00,00,
11263258,00000100,false,Rx,0,8,00,00,00,00,9A,01,C8,00,
11263504,00000101,false,Rx,0,8,00,FF,FE,00,00,00,00,00,
11263751,00000102,false,Rx,0,8,01,90,01,00,00,01,00,00,
11278477,00000523,false,Rx,0,6,02,03,EF,FF,FF,FF,00,00,
11363257,00000100,false,Rx,0,8,00,00,00,00,9A,01,C8,00,
11363503,00000101,false,Rx,0,8,00,FF,FE,00,00,00,00,00,
11363751,00000102,false,Rx,0,8,01,90,01,00,00,01,00,00,
11463254,00000100,false,Rx,0,8,00,00,00,00,9A,01,C8,00,
11463501,00000101,false,Rx,0,8,00,FF,FE,00,00,00,00,00,
11463748,00000102,false,Rx,0,8,01,90,01,00,00,01,00,00,
11563252,00000100,false,Rx,0,8,00,00,00,00,9A,01,C8,00,
11563499,00000101,false,Rx,0,8,00,FF,FE,00,00,00,00,00,
11563746,00000102,false,Rx,0,8,01,90,01,00,00,01,00,00,
11663249,00000100,false,Rx,0,8,00,00,00,00,9A,01,C8,00,
11663495,00000101,false,Rx,0,8,00,FF,FE,00,00,00,00,00,
11663743,00000102,false,Rx,0,8,01,90,01,00,00,01,00,00,
11721488,00000527,false,Rx,0,6,06,0B,BC,86,00,00,00,00,
11733533,00000525,false,Rx,0,6,04,02,BD,00,00,00,00,00,
11763248,00000100,false,Rx,0,8,00,00,00,00,9A,01,C8,00,
11763493,00000101,false,Rx,0,8,00,FF,FE,00,00,00,00,00,
11763747,00000102,false,Rx,0,8,01,90,01,00,00,01,00,00,
11798943,00000521,false,Rx,0,6,00,0A,0D,00,00,00,00,00,
11860643,00000526,false,Rx,0,6,05,03,08,00,00,00,00,00,
11863242,00000100,false,Rx,0,8,00,00,00,00,9A,01,C8,00,
11863498,00000101,false,Rx,0,8,00,FF,FE,00,00,00,00,00,
11863744,00000102,false,Rx,0,8,01,90,01,00,00,01,00,00,
11874439,00000522,false,Rx,0,6,01,0E,D6,C1,05,00,00,00,
11886545,00000524,false,Rx,0,6,03,0C,F5,FF,FF,FF,00,00,
11926811,00000523,false,Rx,0,6,02,04,EF,FF,FF,FF,00,00,
11959088,00000528,false,Rx,0,6,07,08,6E,0D,00,00,00,00,
11963244,00000100,false,Rx,0,8,00,00,00,00,9A,01,C8,00,
11963491,00000101,false,Rx,0,8,00,FF,FE,00,00,00,00,00,
11963741,00000102,false,Rx,0,8,01,90,01,00,00,01,00,00,
12063237,00000100,false,Rx,0,8,00,00,00,00,9A,01,C8,00,
12063491,00000101,false,Rx,0,8,00,FF,FE,00,00,00,00,00,
12063735,00000102,false,Rx,0,8,01,90,01,00,00,01,00,00,
12163239,00000100,false,Rx,0,8,00,00,00,00,9A,01,C8,00,
12163485,00000101,false,Rx,0,8,00,FF,FE,00,00,00,00,00,
12163736,00000102,false,Rx,0,8,01,90,01,00,00,01,00,00,
12263237,00000100,false,Rx,0,8,00,00,00,00,9A,01,C8,00,
12263483,00000101,false,Rx,0,8,00,FF,FE,00,00,00,00,00,
12263733,00000102,false,Rx,0,8,01,90,01,00,00,01,00,00,
12363236,00000100,false,Rx,0,8,00,00,00,00,9A,01,C8,00,
12363483,00000101,false,Rx,0,8,00,FF,FE,00,00,00,00,00,
12363734,00000102,false,Rx,0,8,01,90,01,00,00,01,00,00,
12411073,00000521,false,Rx,0,6,00,0B,0E,00,00,00,00,00,
12418113,00000525,false,Rx,0,6,04,03,BD,00,00,00,00,00,
12442330,00000527,false,Rx,0,6,06,0C,BC,86,00,00,00,00,
12463229,00000100,false,Rx,0,8,00,00,00,00,9A,01,C8,00,
12463482,00000101,false,Rx,0,8,00,FF,FE,00,00,00,00,00,
12463731,00000102,false,Rx,0,8,01,90,01,00,00,01,00,00,
12504673,00000522,false,Rx,0,6,01,0F,CC,C1,05,00,00,00,
12553009,00000524,false,Rx,0,6,03,0D,F8,FF,FF,FF,00,00,
12563231,00000100,false,Rx,0,8,00,00,00,00,9A,01,C8,00,
12563484,00000101,false,Rx,0,8,00,FF,FE,00,00,00,00,00,
12563748,00000102,false,Rx,0,8,01,90,01,00,00,01,00,00,
12563940,00000526,false,Rx,0,6,05,04,12,00,00,00,00,00,
12575157,00000523,false,Rx,0,6,02,05,FA,FF,FF,FF,00,00,
12663229,00000100,false,Rx,0,8,00,00,00,00,9A,01,C8,00,
12663475,00000101,false,Rx,0,8,00,FF,FE,00,00,00,00,00,
12663729,00000102,false,Rx,0,8,01,90,01,00,00,01,00,00,
12698048,00000528,false,Rx,0,6,07,09,6E,0D,00,00,00,00,
12763223,00000100,false,Rx,0,8,00,00,00,00,9A,01,C8,00,
12763476,00000101,false,Rx,0,8,00,FF,FE,00,00,00,00,00,
12763724,00000102,false,Rx,0,8,01,90,01,00,00,01,00,00,
12863224,00000100,false,Rx,0,8,00,00,00,00,9A,01,C8,00,
12863470,00000101,false,Rx,0,8,00,FF,FE,00,00,00,00,00,
12863723,00000102,false,Rx,0,8,01,90,01,00,00,01,00,00,
12963222,00000100,false,Rx,0,8,00,00,00,00,9A,01,C8,00,
12963475,00000101,false,Rx,0,8,00,FF,FE,00,00,00,00,00,
12963723,00000102,false,Rx,0,8,01,90,01,00,00,01,00,00,
13023153,00000521,false,Rx,0,6,00,0C,0D,00,00,00,00,00,
13063217,00000100,false,Rx,0,8,00,00,00,00,9A,01,C8,00,
13063473,00000101,false,Rx,0,8,00,FF,FE,00,00,00,00,00,
13063720,00000102,false,Rx,0,8,01,90,01,00,00,01,00,00,
13102731,00000525,false,Rx,0,6,04,04,BD,00,00,00,00,00,
13134914,00000522,false,Rx,0,6,01,00,D8,C1,05,00,00,00,
13163218,00000100,false,Rx,0,8,00,00,00,00,9A,01,C8,00,
13163467,00000101,false,Rx,0,8,00,FF,FE,00,00,00,00,00,
13163714,00000102,false,Rx,0,8,01,90,01,00,00,01,00,00,
13163916,00000527,false,Rx,0,6,06,0D,BC,86,00,00,00,00,
13219493,00000524,false,Rx,0,6,03,0E,E6,FF,FF,FF,00,00,
13223527,00000523,false,Rx,0,6,02,06,E3,FF,FF,FF,00,00,
13263214,00000100,false,Rx,0,8,00,00,00,00,9A,01,C8,00,
13263466,00000101,false,Rx,0,8,00,FF,FE,00,00,00,00,00,
13263714,00000102,false,Rx,0,8,01,90,01,00,00,01,00,00,
13265838,00000526,false,Rx,0,6,05,05,00,00,00,00,00,00,
13363211,00000100,false,Rx,0,8,00,00,00,00,9A,01,C8,00,
13363464,00000101,false,Rx,0,8,00,FF,FE,00,00,00,00,00,
13363711,00000102,false,Rx,0,8,01,90,01,00,00,01,00,00,
13437026,00000528,false,Rx,0,6,07,0A,6E,0D,00,00,00,00,
13463214,00000100,false,Rx,0,8,00,00,00,00,9A,01,C8,00,
13463464,00000101,false,Rx,0,8,00,FF,FE,00,00,00,00,00,
13463711,00000102,false,Rx,0,8,01,90,01,00,00,01,00,00,
13563212,00000100,false,Rx,0,8,00,00,00,00,9A,01,C8,00,
13563458,00000101,false,Rx,0,8,00,FF,FE,00,00,00,00,00,
13563710,00000102,false,Rx,0,8,01,90,01,00,00,01,00,00,
13635269,00000521,false,Rx,0,6,00,0D,0F,00,00,00,00,00,
13663204,00000100,false,Rx,0,8,00,00,00,00,9A,01,C8,00,
13663458,00000101,false,Rx,0,8,00,FF,FE,00,00,00,00,00,
13663705,00000102,false,Rx,0,8,01,90,01,00,00,01,00,00,
13763207,00000100,false,Rx,0,8,00,00,00,00,9A,01,C8,00,
13763453,00000101,false,Rx,0,8,00,FF,FE,00,00,00,00,00,
13763703,00000102,false,Rx,0,8,01,90,01,00,00,01,00,00,
13765153,00000522,false,Rx,0,6,01,01,DC,C1,05,00,00,00,
13787329,00000525,false,Rx,0,6,04,05,BD,00,00,00,00,00,
13863205,00000100,false,Rx,0,8,00,00,00,00,9A,01,C8,00,
13863451,00000101,false,Rx,0,8,00,FF,FE,00,00,00,00,00,
13863701,00000102,false,Rx,0,8,01,90,01,00,00,01,00,00,
13871878,00000523,false,Rx,0,6,02,07,E3,FF,FF,FF,00,00,
13884024,00000527,false,Rx,0,6,06,0E,BC,86,00,00,00,00,
13885989,00000524,false,Rx,0,6,03,0F,EB,FF,FF,FF,00,00,
13963199,00000100,false,Rx,0,8,00,00,00,00,9A,01,C8,00,
13963452,00000101,false,Rx,0,8,00,FF,FE,00,00,00,00,00,
13963702,00000102,false,Rx,0,8,01,90,01,00,00,01,00,00,
13968672,00000526,false,Rx,0,6,05,06,00,00,00,00,00,00,
14063198,00000100,false,Rx,0,8,00,00,00,00,9A,01,C8,00,
14063451,00000101,false,Rx,0,8,00,FF,FE,00,00,00,00,00,
14063695,00000102,false,Rx,0,8,01,90,01,00,00,01,00,00,
14163200,00000100,false,Rx,0,8,00,00,00,00,9A,01,C8,00,
14163448,00000101,false,Rx,0,8,00,FF,FE,00,00,00,00,00,
14163696,00000102,false,Rx,0,8,01,90,01,00,00,01,00,00,
14175996,00000528,false,Rx,0,6,07,0B,6E,0D,00,00,00,00,
14247385,00000521,false,Rx,0,6,00,0E,0A,00,00,00,00,00,
14263195,00000100,false,Rx,0,8,00,00,00,00,9A,01,C8,00,
14263449,00000101,false,Rx,0,8,00,FF,FE,00,00,00,00,00,
14263696,00000102,false,Rx,0,8,01,90,01,00,00,01,00,00,
14363193,00000100,false,Rx,0,8,00,00,00,00,9A,01,C8,00,
14363446,00000101,false,Rx,0,8,00,FF,FE,00,00,00,00,00,
14363694,00000102,false,Rx,0,8,01,90,01,00,00,01,00,00,
14395398,00000522,false,Rx,0,6,01,02,EC,C1,05,00,00,00,
14463193,00000100,false,Rx,0,8,00,00,00,00,9A,01,C8,00,
14463439,00000101,false,Rx,0,8,00,FF,FE,00,00,00,00,00,
14463687,00000102,false,Rx,0,8,01,90,01,00,00,01,00,00,
14471927,00000525,false,Rx,0,6,04,06,BD,00,00,00,00,00,
14520233,00000523,false,Rx,0,6,02,08,FB,FF,FF,FF,00,00,
14552461,00000524,false,Rx,0,6,03,00,F1,FF,FF,FF,00,00,
14563186,00000100,false,Rx,0,8,00,00,00,00,9A,01,C8,00,
14563438,00000101,false,Rx,0,8,00,FF,FE,00,00,00,00,00,
14563685,00000102,false,Rx,0,8,01,90,01,00,00,01,00,00,
14604866,00000527,false,Rx,0,6,06,0F,BC,86,00,00,00,00,
14663184,00000100,false,Rx,0,8,00,00,00,00,9A,01,C8,00,
14663437,00000101,false,Rx,0,8,00,FF,FE,00,00,00,00,00,
14663684,00000102,false,Rx,0,8,01,90,01,00,00,01,00,00,
14671575,00000526,false,Rx,0,6,05,07,07,00,00,00,00,00,
14763187,00000100,false,Rx,0,8,00,00,00,00,9A,01,C8,00,
14763433,00000101,false,Rx,0,8,00,FF,FE,00,00,00,00,00,
14763681,00000102,false,Rx,0,8,01,90,01,00,00,01,00,00,
14859504,00000521,false,Rx,0,6,00,0F,10,00,00,00,00,00,
14863180,00000100,false,Rx,0,8,00,00,00,00,9A,01,C8,00,
14863433,00000101,false,Rx,0,8,00,FF,FE,00,00,00,00,00,
14863681,00000102,false,Rx,0,8,01,90,01,00,00,01,00,00,
14914941,00000528,false,Rx,0,6,07,0C,6E,0D,00,00,00,00,
14963178,00000100,false,Rx,0,8,00,00,00,00,9A,01,C8,00,
14963431,00000101,false,Rx,0,8,00,FF,FE,00,00,00,00,00,
14963678,00000102,false,Rx,0,8,01,90,01,00,00,01,00,00,
15025616,00000522,false,Rx,0,6,01,03,D5,C1,05,00,00,00,
15063181,00000100,false,Rx,0,8,00,00,00,00,9A,01,C8,00,
15063427,00000101,false,Rx,0,8,00,FF,FE,00,00,00,00,00,
15063681,00000102,false,Rx,0,8,01,90,01,00,00,01,00,00,
15156522,00000525,false,Rx,0,6,04,07,BD,00,00,00,00,00,
15163181,00000100,false,Rx,0,8,00,00,00,00,9A,01,C8,00,
15163428,00000101,false,Rx,0,8,00,FF,FE,00,00,00,00,00,
15163676,00000102,false,Rx,0,8,01,90,01,00,00,01,00,00,
15168592,00000523,false,Rx,0,6,02,09,F3,FF,FF,FF,00,00,
15218935,00000524,false,Rx,0,6,03,01,F8,FF,FF,FF,00,00,
15263174,00000100,false,Rx,0,8,00,00,00,00,9A,01,C8,00,
15263428,00000101,false,Rx,0,8,00,FF,FE,00,00,00,00,00,
15263675,00000102,false,Rx,0,8,01,90,01,00,00,01,00,00,
15325696,00000527,false,Rx,0,6,06,00,BC,86,00,00,00,00,
15330873,00000108,false,Rx,0,8,01,F4,01,7D,00,00,00,00,
15331132,00000109,false,Rx,0,8,02,00,00,00,00,24,00,00,
15363170,00000100,false,Rx,0,8,00,00,00,00,9A,01,C8,00,
15363424,00000101,false,Rx,0,8,00,FF,FE,00,00,00,00,00,
15363671,00000102,false,Rx,0,8,01,90,01,00,00,01,00,00,
15374295,00000526,false,Rx,0,6,05,08,00,00,00,00,00,00,
15430872,00000108,false,Rx,0,8,01,F4,01,7D,9A,01,00,00,
15431427,00000109,false,Rx,0,8,02,00,00,00,00,24,00,00,
15463172,00000100,false,Rx,0,8,00,00,00,00,9A,01,C8,00,
15463419,00000101,false,Rx,0,8,00,FF,FE,00,00,00,00,00,
15463667,00000102,false,Rx,0,8,01,90,01,00,00,01,00,00,
15471612,00000521,false,Rx,0,6,00,00,0F,00,00,00,00,00,
15530872,00000108,false,Rx,0,8,01,F4,01,7D,9A,01,00,00,
15531421,00000109,false,Rx,0,8,02,00,00,00,00,24,00,00,
15563171,00000100,false,Rx,0,8,00,00,00,00,9A,01,C8,00,
15563420,00000101,false,Rx,0,8,00,FF,FE,00,00,00,00,00,
15563667,00000102,false,Rx,0,8,01,90,01,00,00,01,00,00,
15630873,00000108,false,Rx,0,8,01,F4,01,7D,9A,01,00,00,
15631418,00000109,false,Rx,0,8,02,00,00,00,00,24,00,00,
15654137,00000528,false,Rx,0,6,07,0D,6E,0D,00,00,00,00,
15655847,00000522,false,Rx,0,6,01,04,E4,C1,05,00,00,00,
15663169,00000100,false,Rx,0,8,00,00,00,00,9A,01,C8,00,
15663417,00000101,false,Rx,0,8,00,FF,FE,00,00,00,00,00,
15663664,00000102,false,Rx,0,8,01,90,01,00,00,01,00,00,
15730868,00000108,false,Rx,0,8,01,F4,01,7D,9A,01,00,00,
15731435,00000109,false,Rx,0,8,02,00,00,00,00,24,00,00,
15763164,00000100,false,Rx,0,8,00,00,00,00,9A,01,C8,00,
15763421,00000101,false,Rx,0,8,00,FF,FE,00,00,00,00,00,
15763663,00000102,false,Rx,0,8,01,90,01,00,00,01,00,00,
15816947,00000523,false,Rx,0,6,02,0A,F3,FF,FF,FF,00,00,
15830867,00000108,false,Rx,0,8,01,F4,01,7D,9A,01,00,00,
15831452,00000109,false,Rx,0,8,02,01,00,00,00,24,00,00,
15841124,00000525,false,Rx,0,6,04,08,BD,00,00,00,00,00,
15863165,00000100,false,Rx,0,8,00,00,00,00,9A,01,C8,00,
15863421,00000101,false,Rx,0,8,00,FF,FE,00,00,00,00,00,
15863663,00000102,false,Rx,0,8,01,90,01,00,00,01,00,00,
15885414,00000524,false,Rx,0,6,03,02,EF,FF,FF,FF,00,00,
15930872,00000108,false,Rx,0,8,01,F4,01,7D,9A,01,00,00,
15931433,00000109,false,Rx,0,8,02,00,00,00,00,24,00,00,
15963160,00000100,false,Rx,0,8,00,00,00,00,9A,01,C8,00,
15963413,00000101,false,Rx,0,8,00,FF,FE,00,00,00,00,00,
15963659,00000102,false,Rx,0,8,01,90,01,00,00,01,00,00,
16030872,00000108,false,Rx,0,8,01,F4,01,7D,9A,01,00,00,
16031418,00000109,false,Rx,0,8,02,00,00,00,00,24,00,00,
16046545,00000527,false,Rx,0,6,06,01,BC,86,00,00,00,00,
16063158,00000100,false,Rx,0,8,00,00,00,00,9A,01,C8,00,
16063411,00000101,false,Rx,0,8,00,FF,FE,00,00,00,00,00,
16063658,00000102,false,Rx,0,8,01,90,01,00,00,01,00,00,
16076977,00000526,false,Rx,0,6,05,09,02,00,00,00,00,00,
16083724,00000521,false,Rx,0,6,00,01,10,00,00,00,00,00,
16130866,00000108,false,Rx,0,8,01,F4,01,7D,9A,01,00,00,
16131418,00000109,false,Rx,0,8,02,00,00,00,00,24,00,00,
16163157,00000100,false,Rx,0,8,00,00,00,00,9A,01,C8,00,
16163413,00000101,false,Rx,0,8,00,FF,FE,00,00,00,00,00,
16163654,00000102,false,Rx,0,8,01,90,01,00,00,01,00,00,
16230868,00000108,false,Rx,0,8,01,F4,01,7D,9A,01,00,00,
16231430,00000109,false,Rx,0,8,02,00,00,00,00,24,00,00,
16263158,00000100,false,Rx,0,8,00,00,00,00,9A,01,C8,00,
16263410,00000101,false,Rx,0,8,00,FF,FE,00,00,00,00,00,
16263651,00000102,false,Rx,0,8,01,90,01,00,00,01,00,00,
16286086,00000522,false,Rx,0,6,01,05,D6,C1,05,00,00,00,
16330868,00000108,false,Rx,0,8,01,F4,01,7D,9A,01,00,00,
16331422,00000109,false,Rx,0,8,02,00,00,00,00,24,00,00,
16363151,00000100,false,Rx,0,8,00,00,00,00,9A,01,C8,00,
16363410,00000101,false,Rx,0,8,00,FF,FE,00,00,00,00,00,
16363652,00000102,false,Rx,0,8,01,90,01,00,00,01,00,00,
16392894,00000528,false,Rx,0,6,07,0E,6E,0D,00,00,00,00,
16430870,00000108,false,Rx,0,8,01,F4,01,7D,9A,01,00,00,
16431393,00000109,false,Rx,0,8,02,00,00,00,00,24,00,00,
16463152,00000100,false,Rx,0,8,00,00,00,00,9A,01,C8,00,
16463403,00000101,false,Rx,0,8,00,FF,FE,00,00,00,00,00,
16463651,00000102,false,Rx,0,8,01,90,01,00,00,01,00,00,
16465311,00000523,false,Rx,0,6,02,0B,E7,FF,FF,FF,00,00,
16525727,00000525,false,Rx,0,6,04,09,BD,00,00,00,00,00,
16530870,00000108,false,Rx,0,8,01,F4,01,7D,9A,01,00,00,
16531473,00000109,false,Rx,0,8,02,00,00,00,00,24,00,00,
16551902,00000524,false,Rx,0,6,03,03,F2,FF,FF,FF,00,00,
16563152,00000100,false,Rx,0,8,00,00,00,00,9A,01,C8,00,
16563398,00000101,false,Rx,0,8,00,FF,FE,00,00,00,00,00,
16563645,00000102,false,Rx,0,8,01,90,01,00,00,01,00,00,
16630870,00000108,false,Rx,0,8,01,F4,01,7D,9A,01,00,00,
16631473,00000109,false,Rx,0,8,02,00,00,00,00,24,00,00,
16663146,00000100,false,Rx,0,8,00,00,00,00,9A,01,C8,00,
16663400,00000101,false,Rx,0,8,00,FF,FE,00,00,00,00,00,
16663648,00000102,false,Rx,0,8,01,90,01,00,00,01,00,00,
16695854,00000521,false,Rx,0,6,00,02,11,00,00,00,00,00,
16730867,00000108,false,Rx,0,8,01,F4,01,7D,9A,01,00,00,
16731490,00000109,false,Rx,0,8,02,3E,00,00,00,24,00,00,
16763143,00000100,false,Rx,0,8,00,00,00,00,9A,01,C8,00,
16763396,00000101,false,Rx,0,8,00,FF,FE,00,00,00,00,00,
16763644,00000102,false,Rx,0,8,01,90,01,00,00,01,00,00,
16767391,00000527,false,Rx,0,6,06,02,BC,86,00,00,00,00,
16779558,00000526,false,Rx,0,6,05,0A,02,00,00,00,00,00,
16830866,00000108,false,Rx,0,8,01,F4,01,7D,9A,01,00,00,
16831391,00000109,false,Rx,0,8,02,6D,00,00,00,24,00,00,
16863144,00000100,false,Rx,0,8,00,00,00,00,9A,01,C8,00,
16863397,00000101,false,Rx,0,8,00,FF,FE,00,00,00,00,00,
16863639,00000102,false,Rx,0,8,01,90,01,00,00,01,00,00,
16916339,00000522,false,Rx,0,6,01,06,E0,C1,05,00,00,00,
16930866,00000108,false,Rx,0,8,01,F4,01,7D,9A,01,00,00,
16931383,00000109,false,Rx,0,8,02,A0,00,00,00,24,00,00,
16963144,00000100,false,Rx,0,8,00,00,00,00,9A,01,C8,00,
16963391,00000101,false,Rx,0,8,00,FF,FE,00,00,00,00,00,
16963638,00000102,false,Rx,0,8,01,90,01,00,00,01,00,00,
17030866,00000108,false,Rx,0,8,01,F4,01,7D,9A,01,00,00,
17031414,00000109,false,Rx,0,8,02,D3,00,00,00,24,00,00,
17063140,00000100,false,Rx,0,8,00,00,00,00,9A,01,C8,00,
17063394,00000101,false,Rx,0,8,00,FF,FE,00,00,00,00,00,
17063635,00000102,false,Rx,0,8,01,90,01,00,00,01,00,00,
17113675,00000523,false,Rx,0,6,02,0C,ED,FF,FF,FF,00,00,
17130867,00000108,false,Rx,0,8,01,F4,01,7D,9A,01,00,00,
17131401,00000109,false,Rx,0,8,02,02,01,00,00,24,00,00,
17131857,00000528,false,Rx,0,6,07,0F,6E,0D,00,00,00,00,
17163133,00000100,false,Rx,0,8,00,00,00,00,9A,01,C8,00,
17163386,00000101,false,Rx,0,8,00,FF,FE,00,00,00,00,00,
17163634,00000102,false,Rx,0,8,01,90,01,00,00,01,00,00,
17210340,00000525,false,Rx,0,6,04,0A,BD,00,00,00,00,00,
17218377,00000524,false,Rx,0,6,03,04,EB,FF,FF,FF,00,00,
17230864,00000108,false,Rx,0,8,01,F4,01,7D,9A,01,00,00,
17231399,00000109,false,Rx,0,8,02,36,01,00,00,24,00,00,
17263133,00000100,false,Rx,0,8,00,00,00,00,9A,01,C8,00,
17263385,00000101,false,Rx,0,8,00,FF,FE,00,00,00,00,00,
17263633,00000102,false,Rx,0,8,01,90,01,00,00,01,00,00,
17307956,00000521,false,Rx,0,6,00,03,0F,00,00,00,00,00,
17330863,00000108,false,Rx,0,8,01,F4,01,7D,9A,01,00,00,
17331492,00000109,false,Rx,0,8,02,65,01,00,00,24,00,00,
17363129,00000100,false,Rx,0,8,00,00,00,00,9A,01,C8,00,
17363382,00000101,false,Rx,0,8,00,FF,FE,00,00,00,00,00,
17363629,00000102,false,Rx,0,8,01,90,01,00,00,01,00,00,
17430861,00000108,false,Rx,0,8,01,F4,01,7D,9A,01,00,00,
17431490,00000109,false,Rx,0,8,02,98,01,00,00,24,00,00,
17463133,00000100,false,Rx,0,8,00,00,00,00,9A,01,C8,00,
17463379,00000101,false,Rx,0,8,00,FF,FE,00,00,00,00,00,
17463626,00000102,false,Rx,0,8,01,90,01,00,00,01,00,00,
17482454,00000526,false,Rx,0,6,05,0B,07,00,00,00,00,00,
17488242,00000527,false,Rx,0,6,06,03,BC,86,00,00,00,00,
17530863,00000108,false,Rx,0,8,01,F4,01,7D,9A,01,00,00,
17531226,00000109,false,Rx,0,8,02,CC,01,00,00,24,00,00,
17546567,00000522,false,Rx,0,6,01,07,D9,C1,05,00,00,00,
17563125,00000100,false,Rx,0,8,00,00,00,00,9A,01,C8,00,
17563377,00000101,false,Rx,0,8,00,FF,FE,00,00,00,00,00,
17563631,00000102,false,Rx,0,8,01,90,01,00,00,01,00,00,
17630867,00000108,false,Rx,0,8,01,F4,01,7D,9A,01,00,00,
17631489,00000109,false,Rx,0,8,02,F1,01,00,00,24,00,00,
17663128,00000100,false,Rx,0,8,00,00,00,00,9A,01,C8,00,
17663379,00000101,false,Rx,0,8,00,FF,FE,00,00,00,00,00,
17663627,00000102,false,Rx,0,8,01,90,01,00,00,01,00,00,
17730863,00000108,false,Rx,0,8,01,F4,01,7D,9A,01,00,00,
17731479,00000109,false,Rx,0,8,02,F2,01,00,00,24,00,00,
17762027,00000523,false,Rx,0,6,02,0D,ED,FF,FF,FF,00,00,
17763126,00000100,false,Rx,0,8,00,00,00,00,9A,01,C8,00,
17763371,00000101,false,Rx,0,8,00,FF,FE,00,00,00,00,00,
17763626,00000102,false,Rx,0,8,01,90,01,00,00,01,00,00,
17830860,00000108,false,Rx,0,8,01,F4,01,7D,9A,01,00,00,
17831538,00000109,false,Rx,0,8,02,F2,01,00,00,24,00,00,
17863123,00000100,false,Rx,0,8,00,00,00,00,9A,01,C8,00,
17863369,00000101,false,Rx,0,8,00,FF,FE,00,00,00,00,00,
17863623,00000102,false,Rx,0,8,01,90,01,00,00,01,00,00,
17870831,00000528,false,Rx,0,6,07,00,6E,0D,00,00,00,00,
17884861,00000524,false,Rx,0,6,03,05,F8,FF,FF,FF,00,00,
17894931,00000525,false,Rx,0,6,04,0B,BD,00,00,00,00,00,
17920088,00000521,false,Rx,0,6,00,04,0C,00,00,00,00,00,
17930862,00000108,false,Rx,0,8,01,F4,01,7D,9A,01,00,00,
17931472,00000109,false,Rx,0,8,02,F6,01,00,00,24,00,00,
17963123,00000100,false,Rx,0,8,00,00,00,00,9A,01,C8,00,
17963368,00000101,false,Rx,0,8,00,FF,FE,00,00,00,00,00,
17963622,00000102,false,Rx,0,8,01,90,01,00,00,01,00,00,
18030859,00000108,false,Rx,0,8,01,F4,01,7D,9A,01,00,00,
18031390,00000109,false,Rx,0,8,02,F4,01,00,00,24,00,00,
18063121,00000100,false,Rx,0,8,00,00,00,00,9A,01,C8,00,
18063367,00000101,false,Rx,0,8,00,FF,FE,00,00,00,00,00,
18063615,00000102,false,Rx,0,8,01,90,01,00,00,01,00,00,
18130861,00000108,false,Rx,0,8,01,F4,01,7D,9A,01,00,00,
18131483,00000109,false,Rx,0,8,02,F3,01,00,00,24,00,00,
18163114,00000100,false,Rx,0,8,00,00,00,00,9A,01,C8,00,
18163366,00000101,false,Rx,0,8,00,FF,FE,00,00,00,00,00,
18163620,00000102,false,Rx,0,8,01,90,01,00,00,01,00,00,
18176792,00000522,false,Rx,0,6,01,08,D9,C1,05,00,00,00,
18185249,00000526,false,Rx,0,6,05,0C,08,00,00,00,00,00,
18209082,00000527,false,Rx,0,6,06,04,BC,86,00,00,00,00,
18230860,00000108,false,Rx,0,8,01,F4,01,7D,9A,01,00,00,
18231409,00000109,false,Rx,0,8,02,F2,01,00,00,24,00,00,
18263113,00000100,false,Rx,0,8,00,00,00,00,9A,01,C8,00,
18263364,00000101,false,Rx,0,8,00,FF,FE,00,00,00,00,00,
18263618,00000102,false,Rx,0,8,01,90,01,00,00,01,00,00,
18330861,00000108,false,Rx,0,8,01,F4,01,7D,9A,01,00,00,
18331419,00000109,false,Rx,0,8,02,F1,01,00,00,24,00,00,
18363114,00000100,false,Rx,0,8,00,00,00,00,9A,01,C8,00,
18363359,00000101,false,Rx,0,8,00,FF,FE,00,00,00,00,00,
18363619,00000102,false,Rx,0,8,01,90,01,00,00,01,00,00,
18410367,00000523,false,Rx,0,6,02,0E,F2,FF,FF,FF,00,00,
18430859,00000108,false,Rx,0,8,01,F4,01,7D,9A,01,00,00,
18431469,00000109,false,Rx,0,8,02,F1,01,00,00,24,00,00,
18463113,00000100,false,Rx,0,8,00,00,00,00,9A,01,C8,00,
18463359,00000101,false,Rx,0,8,00,FF,FE,00,00,00,00,00,
18463619,00000102,false,Rx,0,8,01,90,01,00,00,01,00,00,
18530864,00000108,false,Rx,0,8,01,F4,01,7D,9A,01,00,00,
18531413,00000109,false,Rx,0,8,02,F3,01,00,00,24,00,00,
18532184,00000521,false,Rx,0,6,00,05,0E,00,00,00,00,00,
18551328,00000524,false,Rx,0,6,03,06,F5,FF,FF,FF,00,00,
18563107,00000100,false,Rx,0,8,00,00,00,00,9A,01,C8,00,
18563360,00000101,false,Rx,0,8,00,FF,FE,00,00,00,00,00,
18563613,00000102,false,Rx,0,8,01,90,01,00,00,01,00,00,
18579532,00000525,false,Rx,0,6,04,0C,BD,00,00,00,00,00,
18609789,00000528,false,Rx,0,6,07,01,6E,0D,00,00,00,00,
18630860,00000108,false,Rx,0,8,01,F4,01,7D,9A,01,00,00,
18631410,00000109,false,Rx,0,8,02,F4,01,00,00,24,00,00,
18663106,00000100,false,Rx,0,8,00,00,00,00,9A,01,C8,00,
18663358,00000101,false,Rx,0,8,00,FF,FE,00,00,00,00,00,
18663604,00000102,false,Rx,0,8,01,90,01,00,00,01,00,00,
18730870,00000108,false,Rx,0,8,01,F4,01,7D,9A,01,00,00,
18731381,00000109,false,Rx,0,8,02,F5,01,00,00,24,00,00,
18763108,00000100,false,Rx,0,8,00,00,00,00,9A,01,C8,00,
18763353,00000101,false,Rx,0,8,00,FF,FE,00,00,00,00,00,
18763599,00000102,false,Rx,0,8,01,90,01,00,00,01,00,00,
18807049,00000522,false,Rx,0,6,01,09,D4,C1,05,00,00,00,
18830860,00000108,false,Rx,0,8,01,F4,01,7D,9A,01,00,00,
18831410,00000109,false,Rx,0,8,02,F4,01,00,00,24,00,00,
18863101,00000100,false,Rx,0,8,00,00,00,00,9A,01,C8,00,
18863354,00000101,false,Rx,0,8,00,FF,FE,00,00,00,00,00,
18863601,00000102,false,Rx,0,8,01,90,01,00,00,01,00,00,
18887916,00000526,false,Rx,0,6,05,0D,03,00,00,00,00,00,
18929931,00000527,false,Rx,0,6,06,05,BC,86,00,00,00,00,
18930994,00000108,false,Rx,0,8,01,F4,01,7D,9A,01,00,00,
18931617,00000109,false,Rx,0,8,02,F3,01,00,00,24,00,00,
18963098,00000100,false,Rx,0,8,00,00,00,00,9A,01,C8,00,
18963349,00000101,false,Rx,0,8,00,FF,FE,00,00,00,00,00,
18963603,00000102,false,Rx,0,8,01,90,01,00,00,01,00,00,
19030865,00000108,false,Rx,0,8,01,F4,01,7D,9A,01,00,00,
19031399,00000109,false,Rx,0,8,02,F2,01,00,00,24,00,00,
19058749,00000523,false,Rx,0,6,02,0F,EB,FF,FF,FF,00,00,
19063096,00000100,false,Rx,0,8,00,00,00,00,9A,01,C8,00,
19063348,00000101,false,Rx,0,8,00,FF,FE,00,00,00,00,00,
19063603,00000102,false,Rx,0,8,01,90,01,00,00,01,00,00,
19130857,00000108,false,Rx,0,8,01,F4,01,7D,9A,01,00,00,
19131388,00000109,false,Rx,0,8,02,F1,01,00,00,24,00,00,
19144311,00000521,false,Rx,0,6,00,06,0C,00,00,00,00,00,
19163094,00000100,false,Rx,0,8,00,00,00,00,9A,01,C8,00,
19163345,00000101,false,Rx,0,8,00,FF,FE,00,00,00,00,00,
19163599,00000102,false,Rx,0,8,01,90,01,00,00,01,00,00,
19217825,00000524,false,Rx,0,6,03,07,E0,FF,FF,FF,00,00,
19230855,00000108,false,Rx,0,8,01,F4,01,7D,9A,01,00,00,
19231466,00000109,false,Rx,0,8,02,F1,01,00,00,24,00,00,
19263097,00000100,false,Rx,0,8,00,00,00,00,9A,01,C8,00,
19263343,00000101,false,Rx,0,8,00,FF,FE,00,00,00,00,00,
19263597,00000102,false,Rx,0,8,01,90,01,00,00,01,00,00,
19264145,00000525,false,Rx,0,6,04,0D,BD,00,00,00,00,00,
19330854,00000108,false,Rx,0,8,01,F4,01,7D,9A,01,00,00,
19331397,00000109,false,Rx,0,8,02,F0,01,00,00,24,00,00,
19348758,00000528,false,Rx,0,6,07,02,6E,0D,00,00,00,00,
19363095,00000100,false,Rx,0,8,00,00,00,00,9A,01,C8,00,
19363341,00000101,false,Rx,0,8,00,FF,FE,00,00,00,00,00,
19363601,00000102,false,Rx,0,8,01,90,01,00,00,01,00,00,
19430855,00000108,false,Rx,0,8,01,F4,01,7D,9A,01,00,00,
19431402,00000109,false,Rx,0,8,02,F0,01,00,00,24,00,00,
19437282,00000522,false,Rx,0,6,01,0A,CC,C1,05,00,00,00,
19463094,00000100,false,Rx,0,8,00,00,00,00,9A,01,C8,00,
19463340,00000101,false,Rx,0,8,00,FF,FE,00,00,00,00,00,
19463594,00000102,false,Rx,0,8,01,90,01,00,00,01,00,00,
19530859,00000108,false,Rx,0,8,01,F4,01,7D,9A,01,00,00,
19531470,00000109,false,Rx,0,8,02,EF,01,00,00,24,00,00,
19563088,00000100,false,Rx,0,8,00,00,00,00,9A,01,C8,00,
19563340,00000101,false,Rx,0,8,00,FF,FE,00,00,00,00,00,
19563594,00000102,false,Rx,0,8,01,90,01,00,00,01,00,00,
19590388,00000526,false,Rx,0,6,05,0E,08,00,00,00,00,00,
19630854,00000108,false,Rx,0,8,01,F4,01,7D,9A,01,00,00,
19631401,00000109,false,Rx,0,8,02,F0,01,00,00,24,00,00,
19650789,00000527,false,Rx,0,6,06,06,BC,86,00,00,00,00,
19663082,00000100,false,Rx,0,8,00,00,00,00,9A,01,C8,00,
19663333,00000101,false,Rx,0,8,00,FF,FE,00,00,00,00,00,
19663580,00000102,false,Rx,0,8,01,90,01,00,00,01,00,00,
19707094,00000523,false,Rx,0,6,02,00,EB,FF,FF,FF,00,00,
19730857,00000108,false,Rx,0,8,01,F4,01,7D,9A,01,00,00,
19731387,00000109,false,Rx,0,8,02,F1,01,00,00,24,00,00,
19756731,00000521,false,Rx,0,6,00,07,10,00,00,00,00,00,
19763086,00000100,false,Rx,0,8,00,00,00,00,9A,01,C8,00,
19763338,00000101,false,Rx,0,8,00,FF,FE,00,00,00,00,00,
19763593,00000102,false,Rx,0,8,01,90,01,00,00,01,00,00,
19830871,00000108,false,Rx,0,8,01,F4,01,7D,9A,01,00,00,
19831500,00000109,false,Rx,0,8,02,F0,01,00,00,24,00,00,
19863079,00000100,false,Rx,0,8,00,00,00,00,9A,01,C8,00,
19863331,00000101,false,Rx,0,8,00,FF,FE,00,00,00,00,00,
19863577,00000102,false,Rx,0,8,01,90,01,00,00,01,00,00,
19884291,00000524,false,Rx,0,6,03,08,F8,FF,FF,FF,00,00,
19930855,00000108,false,Rx,0,8,01,F4,01,7D,9A,01,00,00,
19931465,00000109,false,Rx,0,8,02,F0,01,00,00,24,00,00,
19948726,00000525,false,Rx,0,6,04,0E,BD,00,00,00,00,00,
19963082,00000100,false,Rx,0,8,00,00,00,00,9A,01,C8,00,
19963327,00000101,false,Rx,0,8,00,FF,FE,00,00,00,00,00,
19963574,00000102,false,Rx,0,8,01,90,01,00,00,01,00,00,
20030855,00000108,false,Rx,0,8,01,F4,01,7D,9A,01,00,00,
20031459,00000109,false,Rx,0,8,02,F2,01,00,00,24,00,00,
20063078,00000100,false,Rx,0,8,00,00,00,00,9A,01,C8,00,
20063330,00000101,false,Rx,0,8,00,FF,FE,00,00,00,00,00,
20063577,00000102,false,Rx,0,8,01,90,01,00,00,01,00,00,
20067500,00000522,false,Rx,0,6,01,0B,E5,C1,05,00,00,00,
20087716,00000528,false,Rx,0,6,07,03,6E,0D,00,00,00,00,
20130853,00000108,false,Rx,0,8,01,F4,01,7D,9A,01,00,00,
20131376,00000109,false,Rx,0,8,02,F3,01,00,00,24,00,00,
20163076,00000100,false,Rx,0,8,00,00,00,00,9A,01,C8,00,
20163329,00000101,false,Rx,0,8,00,FF,FE,00,00,00,00,00,
20163575,00000102,false,Rx,0,8,01,90,01,00,00,01,00,00,
20230855,00000108,false,Rx,0,8,01,F4,01,7D,9A,01,00,00,
20231378,00000109,false,Rx,0,8,02,F4,01,00,00,24,00,00,
20263076,00000100,false,Rx,0,8,00,00,00,00,9A,01,C8,00,
20263322,00000101,false,Rx,0,8,00,FF,FE,00,00,00,00,00,
20263575,00000102,false,Rx,0,8,01,90,01,00,00,01,00,00,
20293553,00000526,false,Rx,0,6,05,0F,FD,FF,FF,FF,00,00,
20330854,00000108,false,Rx,0,8,01,F4,01,7D,9A,01,00,00,
20331391,00000109,false,Rx,0,8,02,F4,01,00,00,24,00,00,
20355423,00000523,false,Rx,0,6,02,01,FC,FF,FF,FF,00,00,
20363071,00000100,false,Rx,0,8,00,00,00,00,9A,01,C8,00,
20363323,00000101,false,Rx,0,8,00,FF,FE,00,00,00,00,00,
20363569,00000102,false,Rx,0,8,01,90,01,00,00,01,00,00,
20368511,00000521,false,Rx,0,6,00,08,0C,00,00,00,00,00,
20371605,00000527,false,Rx,0,6,06,07,BC,86,00,00,00,00,
20430865,00000108,false,Rx,0,8,01,F4,01,7D,9A,01,00,00,
20431457,00000109,false,Rx,0,8,02,F3,01,00,00,24,00,00,
20463072,00000100,false,Rx,0,8,00,00,00,00,9A,01,C8,00,
20463318,00000101,false,Rx,0,8,00,FF,FE,00,00,00,00,00,
20463571,00000102,false,Rx,0,8,01,90,01,00,00,01,00,00,
20530857,00000108,false,Rx,0,8,01,F4,01,7D,9A,01,00,00,
20531374,00000109,false,Rx,0,8,02,F2,01,00,00,24,00,00,
20550738,00000524,false,Rx,0,6,03,09,F9,FF,FF,FF,00,00,
20563067,00000100,false,Rx,0,8,00,00,00,00,9A,01,C8,00,
20563319,00000101,false,Rx,0,8,00,FF,FE,00,00,00,00,00,
20563566,00000102,false,Rx,0,8,01,90,01,00,00,01,00,00,
20630853,00000108,false,Rx,0,8,01,F4,01,7D,9A,01,00,00,
20631266,00000109,false,Rx,0,8,02,F2,01,00,00,24,00,00,
20633304,00000525,false,Rx,0,6,04,0F,BD,00,00,00,00,00,
20663063,00000100,false,Rx,0,8,00,00,00,00,9A,01,C8,00,
20663315,00000101,false,Rx,0,8,00,FF,FE,00,00,00,00,00,
20663562,00000102,false,Rx,0,8,01,90,01,00,00,01,00,00,
20697709,00000522,false,Rx,0,6,01,0C,DF,C1,05,00,00,00,
20730851,00000108,false,Rx,0,8,01,F4,01,7D,9A,01,00,00,
20731159,00000109,false,Rx,0,8,02,69,00,00,00,24,00,00,
20763067,00000100,false,Rx,0,8,00,00,00,00,9A,01,C8,00,
20763312,00000101,false,Rx,0,8,00,FF,FE,00,00,00,00,00,
20763565,00000102,false,Rx,0,8,01,90,01,00,00,01,00,00,
20826652,00000528,false,Rx,0,6,07,04,6E,0D,00,00,00,00,
20830852,00000108,false,Rx,0,8,01,F4,01,7D,9A,01,00,00,
20831259,00000109,false,Rx,0,8,02,00,00,00,00,24,00,00,
20863059,00000100,false,Rx,0,8,00,00,00,00,9A,01,C8,00,
20863311,00000101,false,Rx,0,8,00,FF,FE,00,00,00,00,00,
20863557,00000102,false,Rx,0,8,01,90,01,00,00,01,00,00,
20930851,00000108,false,Rx,0,8,01,F4,01,7D,9A,01,00,00,
20931275,00000109,false,Rx,0,8,02,00,00,00,00,24,00,00,
20963058,00000100,false,Rx,0,8,00,00,00,00,9A,01,C8,00,
20963310,00000101,false,Rx,0,8,00,FF,FE,00,00,00,00,00,
20963556,00000102,false,Rx,0,8,01,90,01,00,00,01,00,00,
20980601,00000521,false,Rx,0,6,00,09,0E,00,00,00,00,00,
20995854,00000526,false,Rx,0,6,05,00,01,00,00,00,00,00,
21003765,00000523,false,Rx,0,6,02,02,ED,FF,FF,FF,00,00,
21030854,00000108,false,Rx,0,8,01,F4,01,7D,9A,01,00,00,
21031272,00000109,false,Rx,0,8,02,00,00,00,00,24,00,00,
21063059,00000100,false,Rx,0,8,00,00,00,00,9A,01,C8,00,
21063312,00000101,false,Rx,0,8,00,FF,FE,00,00,00,00,00,
21063559,00000102,false,Rx,0,8,01,90,01,00,00,01,00,00,
21092419,00000527,false,Rx,0,6,06,08,BC,86,00,00,00,00,
21130852,00000108,false,Rx,0,8,01,F4,01,7D,9A,01,00,00,
21131258,00000109,false,Rx,0,8,02,00,00,00,00,24,00,00,
21163054,00000100,false,Rx,0,8,00,00,00,00,9A,01,C8,00,
21163307,00000101,false,Rx,0,8,00,FF,FE,00,00,00,00,00,
21163553,00000102,false,Rx,0,8,01,90,01,00,00,01,00,00,
21217193,00000524,false,Rx,0,6,03,0A,EE,FF,FF,FF,00,00,
21230854,00000108,false,Rx,0,8,01,F4,01,7D,9A,01,00,00,
21231398,00000109,false,Rx,0,8,02,00,00,00,00,24,00,00,
21263053,00000100,false,Rx,0,8,00,00,00,00,9A,01,C8,00,
21263305,00000101,false,Rx,0,8,00,FF,FE,00,00,00,00,00,
21263552,00000102,false,Rx,0,8,01,90,01,00,00,01,00,00,
21317881,00000525,false,Rx,0,6,04,00,BD,00,00,00,00,00,
21327927,00000522,false,Rx,0,6,01,0D,EF,C1,05,00,00,00,
21330854,00000108,false,Rx,0,8,01,F4,01,7D,9A,01,00,00,
21331411,00000109,false,Rx,0,8,02,00,00,00,00,24,00,00,
21363050,00000100,false,Rx,0,8,00,00,00,00,9A,01,C8,00,
21363302,00000101,false,Rx,0,8,00,FF,FE,00,00,00,00,00,
21363550,00000102,false,Rx,0,8,01,90,01,00,00,01,00,00,
21430850,00000108,false,Rx,0,8,01,F4,01,7D,9A,01,00,00,
21431413,00000109,false,Rx,0,8,02,00,00,00,00,24,00,00,
21463047,00000100,false,Rx,0,8,00,00,00,00,9A,01,C8,00,
21463298,00000101,false,Rx,0,8,00,FF,FE,00,00,00,00,00,
21463545,00000102,false,Rx,0,8,01,90,01,00,00,01,00,00,
21530846,00000108,false,Rx,0,8,01,F4,01,7D,9A,01,00,00,
21531415,00000109,false,Rx,0,8,02,00,00,00,00,24,00,00,
21563044,00000100,false,Rx,0,8,00,00,00,00,9A,01,C8,00,
21563295,00000101,false,Rx,0,8,00,FF,FE,00,00,00,00,00,
21563548,00000102,false,Rx,0,8,01,90,01,00,00,01,00,00,
21565845,00000528,false,Rx,0,6,07,05,6E,0D,00,00,00,00,
21592738,00000521,false,Rx,0,6,00,0A,10,00,00,00,00,00,
21630846,00000108,false,Rx,0,8,01,F4,01,7D,9A,01,00,00,
21631433,00000109,false,Rx,0,8,02,00,00,00,00,24,00,00,
21652105,00000523,false,Rx,0,6,02,03,ED,FF,FF,FF,00,00,
21663047,00000100,false,Rx,0,8,00,00,00,00,9A,01,C8,00,
21663293,00000101,false,Rx,0,8,00,FF,FE,00,00,00,00,00,
21663540,00000102,false,Rx,0,8,01,90,01,00,00,01,00,00,
21698731,00000526,false,Rx,0,6,05,01,03,00,00,00,00,00,
21730847,00000108,false,Rx,0,8,01,F4,01,7D,9A,01,00,00,
21731416,00000109,false,Rx,0,8,02,00,00,00,00,24,00,00,
21763045,00000100,false,Rx,0,8,00,00,00,00,9A,01,C8,00,
21763291,00000101,false,Rx,0,8,00,FF,FE,00,00,00,00,00,
21763538,00000102,false,Rx,0,8,01,90,01,00,00,01,00,00,
21813261,00000527,false,Rx,0,6,06,09,BC,86,00,00,00,00,
21830899,00000108,false,Rx,0,8,01,F4,01,7D,9A,01,00,00,
21831447,00000109,false,Rx,0,8,02,00,00,00,00,24,00,00,
21863040,00000100,false,Rx,0,8,00,00,00,00,9A,01,C8,00,
21863292,00000101,false,Rx,0,8,00,FF,FE,00,00,00,00,00,
21863538,00000102,false,Rx,0,8,01,90,01,00,00,01,00,00,
21883669,00000524,false,Rx,0,6,03,0B,F0,FF,FF,FF,00,00,
21930850,00000108,false,Rx,0,8,01,F4,01,7D,9A,01,00,00,
21931373,00000109,false,Rx,0,8,02,1D,00,00,00,24,00,00,
21958162,00000522,false,Rx,0,6,01,0E,E6,C1,05,00,00,00,
21963041,00000100,false,Rx,0,8,00,00,00,00,9A,01,C8,00,
21963287,00000101,false,Rx,0,8,00,FF,FE,00,00,00,00,00,
21963540,00000102,false,Rx,0,8,01,90,01,00,00,01,00,00,
22002488,00000525,false,Rx,0,6,04,01,BD,00,00,00,00,00,
22030848,00000108,false,Rx,0,8,01,F4,01,7D,9A,01,00,00,
22031365,00000109,false,Rx,0,8,02,77,01,00,00,24,00,00,
22063034,00000100,false,Rx,0,8,00,00,00,00,9A,01,C8,00,
22063286,00000101,false,Rx,0,8,00,FF,FE,00,00,00,00,00,
22063539,00000102,false,Rx,0,8,01,90,01,00,00,01,00,00,
22130848,00000108,false,Rx,0,8,01,F4,01,7D,9A,01,00,00,
22131266,00000109,false,Rx,0,8,02,77,01,00,00,24,00,00,
22163033,00000100,false,Rx,0,8,00,00,00,00,9A,01,C8,00,
22163285,00000101,false,Rx,0,8,00,FF,FE,00,00,00,00,00,
22163533,00000102,false,Rx,0,8,01,90,01,00,00,01,00,00,
22204810,00000521,false,Rx,0,6,00,0B,0D,00,00,00,00,00,
22230845,00000108,false,Rx,0,8,01,F4,01,7D,9A,01,00,00,
22231262,00000109,false,Rx,0,8,02,77,01,00,00,24,00,00,
22263033,00000100,false,Rx,0,8,00,00,00,00,9A,01,C8,00,
22263284,00000101,false,Rx,0,8,00,FF,FE,00,00,00,00,00,
22263531,00000102,false,Rx,0,8,01,90,01,00,00,01,00,00,
22300471,00000523,false,Rx,0,6,02,04,F4,FF,FF,FF,00,00,
22304565,00000528,false,Rx,0,6,07,06,6E,0D,00,00,00,00,
22330847,00000108,false,Rx,0,8,01,F4,01,7D,9A,01,00,00,
22331291,00000109,false,Rx,0,8,02,77,01,00,00,24,00,00,
22363033,00000100,false,Rx,0,8,00,00,00,00,9A,01,C8,00,
22363285,00000101,false,Rx,0,8,00,FF,FE,00,00,00,00,00,
22363532,00000102,false,Rx,0,8,01,90,01,00,00,01,00,00,
22401291,00000526,false,Rx,0,6,05,02,03,00,00,00,00,00,
22430848,00000108,false,Rx,0,8,01,F4,01,7D,9A,01,00,00,
22431260,00000109,false,Rx,0,8,02,77,01,00,00,24,00,00,
22463031,00000100,false,Rx,0,8,00,00,00,00,9A,01,C8,00,
22463277,00000101,false,Rx,0,8,00,FF,FE,00,00,00,00,00,
22463530,00000102,false,Rx,0,8,01,90,01,00,00,01,00,00,
22530847,00000108,false,Rx,0,8,01,F4,01,7D,9A,01,00,00,
22531278,00000109,false,Rx,0,8,02,77,01,00,00,24,00,00,
22534111,00000527,false,Rx,0,6,06,0A,BC,86,00,00,00,00,
22550162,00000524,false,Rx,0,6,03,0C,ED,FF,FF,FF,00,00,
22563030,00000100,false,Rx,0,8,00,00,00,00,9A,01,C8,00,
22563275,00000101,false,Rx,0,8,00,FF,FE,00,00,00,00,00,
22563529,00000102,false,Rx,0,8,01,90,01,00,00,01,00,00,
22588415,00000522,false,Rx,0,6,01,0F,E2,C1,05,00,00,00,
22630849,00000108,false,Rx,0,8,01,F4,01,7D,9A,01,00,00,
22631261,00000109,false,Rx,0,8,02,77,01,00,00,24,00,00,
22663022,00000100,false,Rx,0,8,00,00,00,00,9A,01,C8,00,
22663275,00000101,false,Rx,0,8,00,FF,FE,00,00,00,00,00,
22663522,00000102,false,Rx,0,8,01,90,01,00,00,01,00,00,
22687094,00000525,false,Rx,0,6,04,02,BD,00,00,00,00,00,
22730848,00000108,false,Rx,0,8,01,F4,01,7D,9A,01,00,00,
22731156,00000109,false,Rx,0,8,02,77,01,00,00,24,00,00,
22763021,00000100,false,Rx,0,8,00,00,00,00,9A,01,C8,00,
22763273,00000101,false,Rx,0,8,00,FF,FE,00,00,00,00,00,
22763519,00000102,false,Rx,0,8,01,90,01,00,00,01,00,00,
22816943,00000521,false,Rx,0,6,00,0C,10,00,00,00,00,00,
22830841,00000108,false,Rx,0,8,01,F4,01,7D,9A,01,00,00,
22831204,00000109,false,Rx,0,8,02,77,01,00,00,24,00,00,
22863020,00000100,false,Rx,0,8,00,00,00,00,9A,01,C8,00,
22863272,00000101,false,Rx,0,8,00,FF,FE,00,00,00,00,00,
22863520,00000102,false,Rx,0,8,01,90,01,00,00,01,00,00,
22930845,00000108,false,Rx,0,8,01,F4,01,7D,9A,01,00,00,
22931172,00000109,false,Rx,0,8,02,77,01,00,00,24,00,00,
22948841,00000523,false,Rx,0,6,02,05,E9,FF,FF,FF,00,00,
22963020,00000100,false,Rx,0,8,00,00,00,00,9A,01,C8,00,
22963273,00000101,false,Rx,0,8,00,FF,FE,00,00,00,00,00,
22963520,00000102,false,Rx,0,8,01,90,01,00,00,01,00,00,
23030843,00000108,false,Rx,0,8,01,F4,01,7D,9A,01,00,00,
23031218,00000109,false,Rx,0,8,02,77,01,00,00,24,00,00,
23043553,00000528,false,Rx,0,6,07,07,6E,0D,00,00,00,00,
23063020,00000100,false,Rx,0,8,00,00,00,00,9A,01,C8,00,
23063266,00000101,false,Rx,0,8,00,FF,FE,00,00,00,00,00,
23063519,00000102,false,Rx,0,8,01,90,01,00,00,01,00,00,
23104230,00000526,false,Rx,0,6,05,03,01,00,00,00,00,00,
23130848,00000108,false,Rx,0,8,01,F4,01,7D,9A,01,00,00,
23131167,00000109,false,Rx,0,8,02,77,01,00,00,24,00,00,
23163012,00000100,false,Rx,0,8,00,00,00,00,9A,01,C8,00,
23163265,00000101,false,Rx,0,8,00,FF,FE,00,00,00,00,00,
23163511,00000102,false,Rx,0,8,01,90,01,00,00,01,00,00,
23216669,00000524,false,Rx,0,6,03,0D,E8,FF,FF,FF,00,00,
23218657,00000522,false,Rx,0,6,01,00,E3,C1,05,00,00,00,
23230845,00000108,false,Rx,0,8,01,F4,01,7D,9A,01,00,00,
23231202,00000109,false,Rx,0,8,02,77,01,00,00,24,00,00,
23254977,00000527,false,Rx,0,6,06,0B,BC,86,00,00,00,00,
23263017,00000100,false,Rx,0,8,00,00,00,00,9A,01,C8,00,
23263262,00000101,false,Rx,0,8,00,FF,FE,00,00,00,00,00,
23263509,00000102,false,Rx,0,8,01,90,01,00,00,01,00,00,
23330845,00000108,false,Rx,0,8,01,F4,01,7D,9A,01,00,00,
23331276,00000109,false,Rx,0,8,02,77,01,00,00,24,00,00,
23363009,00000100,false,Rx,0,8,00,00,00,00,9A,01,C8,00,
23363262,00000101,false,Rx,0,8,00,FF,FE,00,00,00,00,00,
23363508,00000102,false,Rx,0,8,01,90,01,00,00,01,00,00,
23371712,00000525,false,Rx,0,6,04,03,BD,00,00,00,00,00,
23429077,00000521,false,Rx,0,6,00,0D,10,00,00,00,00,00,
23430843,00000108,false,Rx,0,8,01,F4,01,7D,9A,01,00,00,
23431280,00000109,false,Rx,0,8,02,77,01,00,00,24,00,00,
23463007,00000100,false,Rx,0,8,00,00,00,00,9A,01,C8,00,
23463259,00000101,false,Rx,0,8,00,FF,FE,00,00,00,00,00,
23463505,00000102,false,Rx,0,8,01,90,01,00,00,01,00,00,
23530845,00000108,false,Rx,0,8,01,F4,01,7D,9A,01,00,00,
23531282,00000109,false,Rx,0,8,02,77,01,00,00,24,00,00,
23563009,00000100,false,Rx,0,8,00,00,00,00,9A,01,C8,00,
23563254,00000101,false,Rx,0,8,00,FF,FE,00,00,00,00,00,
23563507,00000102,false,Rx,0,8,01,90,01,00,00,01,00,00,
23597221,00000523,false,Rx,0,6,02,06,E9,FF,FF,FF,00,00,
23630845,00000108,false,Rx,0,8,01,F4,01,7D,9A,01,00,00,
23631275,00000109,false,Rx,0,8,02,77,01,00,00,24,00,00,
23663004,00000100,false,Rx,0,8,00,00,00,00,9A,01,C8,00,
23663256,00000101,false,Rx,0,8,00,FF,FE,00,00,00,00,00,
23663503,00000102,false,Rx,0,8,01,90,01,00,00,01,00,00,
23730841,00000108,false,Rx,0,8,01,F4,01,7D,9A,01,00,00,
23731277,00000109,false,Rx,0,8,02,77,01,00,00,24,00,00,
23763005,00000100,false,Rx,0,8,00,00,00,00,9A,01,C8,00,
23763257,00000101,false,Rx,0,8,00,FF,FE,00,00,00,00,00,
23763504,00000102,false,Rx,0,8,01,90,01,00,00,01,00,00,
23782535,00000528,false,Rx,0,6,07,08,6E,0D,00,00,00,00,
23806956,00000526,false,Rx,0,6,05,04,03,00,00,00,00,00,
23830839,00000108,false,Rx,0,8,01,F4,01,7D,9A,01,00,00,
23831276,00000109,false,Rx,0,8,02,77,01,00,00,24,00,00,
23848909,00000522,false,Rx,0,6,01,01,F1,C1,05,00,00,00,
23863002,00000100,false,Rx,0,8,00,00,00,00,9A,01,C8,00,
23863254,00000101,false,Rx,0,8,00,FF,FE,00,00,00,00,00,
23863501,00000102,false,Rx,0,8,01,90,01,00,00,01,00,00,
23883147,00000524,false,Rx,0,6,03,0E,F1,FF,FF,FF,00,00,
23930842,00000108,false,Rx,0,8,01,F4,01,7D,9A,01,00,00,
23931279,00000109,false,Rx,0,8,02,77,01,00,00,24,00,00,
23963002,00000100,false,Rx,0,8,00,00,00,00,9A,01,C8,00,
23963248,00000101,false,Rx,0,8,00,FF,FE,00,00,00,00,00,
23963494,00000102,false,Rx,0,8,01,90,01,00,00,01,00,00,
23975821,00000527,false,Rx,0,6,06,0C,BC,86,00,00,00,00,
24030838,00000108,false,Rx,0,8,01,F4,01,7D,9A,01,00,00,
24031263,00000109,false,Rx,0,8,02,77,01,00,00,24,00,00,
24041194,00000521,false,Rx,0,6,00,0E,0C,00,00,00,00,00,
24056327,00000525,false,Rx,0,6,04,04,BD,00,00,00,00,00,
24062996,00000100,false,Rx,0,8,00,00,00,00,9A,01,C8,00,
24063248,00000101,false,Rx,0,8,00,FF,FE,00,00,00,00,00,
24063495,00000102,false,Rx,0,8,01,90,01,00,00,01,00,00,
24130841,00000108,false,Rx,0,8,01,F4,01,7D,9A,01,00,00,
24131260,00000109,false,Rx,0,8,02,77,01,00,00,24,00,00,
24162995,00000100,false,Rx,0,8,00,00,00,00,9A,01,C8,00,
24163248,00000101,false,Rx,0,8,00,FF,FE,00,00,00,00,00,
24163494,00000102,false,Rx,0,8,01,90,01,00,00,01,00,00,
24230839,00000108,false,Rx,0,8,01,F4,01,7D,9A,01,00,00,
24231276,00000109,false,Rx,0,8,02,77,01,00,00,24,00,00,
24245578,00000523,false,Rx,0,6,02,07,F1,FF,FF,FF,00,00,
24262996,00000100,false,Rx,0,8,00,00,00,00,9A,01,C8,00,
24263242,00000101,false,Rx,0,8,00,FF,FE,00,00,00,00,00,
24263495,00000102,false,Rx,0,8,01,90,01,00,00,01,00,00,
24330841,00000108,false,Rx,0,8,01,F4,01,7D,9A,01,00,00,
24331284,00000109,false,Rx,0,8,02,77,01,00,00,24,00,00,
24362989,00000100,false,Rx,0,8,00,00,00,00,9A,01,C8,00,
24363241,00000101,false,Rx,0,8,00,FF,FE,00,00,00,00,00,
24363488,00000102,false,Rx,0,8,01,90,01,00,00,01,00,00,
24430839,00000108,false,Rx,0,8,01,F4,01,7D,9A,01,00,00,
24431276,00000109,false,Rx,0,8,02,77,01,00,00,24,00,00,
24462985,00000100,false,Rx,0,8,00,00,00,00,9A,01,C8,00,
24463236,00000101,false,Rx,0,8,00,FF,FE,00,00,00,00,00,
24463489,00000102,false,Rx,0,8,01,90,01,00,00,01,00,00,
24479138,00000522,false,Rx,0,6,01,02,E4,C1,05,00,00,00,
24509634,00000526,false,Rx,0,6,05,05,0F,00,00,00,00,00,
24521505,00000528,false,Rx,0,6,07,09,6E,0D,00,00,00,00,
24530839,00000108,false,Rx,0,8,01,F4,01,7D,9A,01,00,00,
24531276,00000109,false,Rx,0,8,02,77,01,00,00,24,00,00,
24549626,00000524,false,Rx,0,6,03,0F,F1,FF,FF,FF,00,00,
24562989,00000100,false,Rx,0,8,00,00,00,00,9A,01,C8,00,
24563235,00000101,false,Rx,0,8,00,FF,FE,00,00,00,00,00,
24563482,00000102,false,Rx,0,8,01,90,01,00,00,01,00,00,
24630835,00000108,false,Rx,0,8,01,F4,01,7D,9A,01,00,00,
24631253,00000109,false,Rx,0,8,02,77,01,00,00,24,00,00,
24653291,00000521,false,Rx,0,6,00,0F,15,00,00,00,00,00,
24662983,00000100,false,Rx,0,8,00,00,00,00,9A,01,C8,00,
24663236,00000101,false,Rx,0,8,00,FF,FE,00,00,00,00,00,
24663483,00000102,false,Rx,0,8,01,90,01,00,00,01,00,00,
24696672,00000527,false,Rx,0,6,06,0D,BC,86,00,00,00,00,
24730835,00000108,false,Rx,0,8,01,F4,01,7D,9A,01,00,00,
24731272,00000109,false,Rx,0,8,02,77,01,00,00,24,00,00,
24740915,00000525,false,Rx,0,6,04,05,BD,00,00,00,00,00,
24762981,00000100,false,Rx,0,8,00,00,00,00,9A,01,C8,00,
24763234,00000101,false,Rx,0,8,00,FF,FE,00,00,00,00,00,
24763480,00000102,false,Rx,0,8,01,90,01,00,00,01,00,00,
24830842,00000108,false,Rx,0,8,01,F4,01,7D,9A,01,00,00,
24831272,00000109,false,Rx,0,8,02,77,01,00,00,24,00,00,
24862979,00000100,false,Rx,0,8,00,00,00,00,9A,01,C8,00,
24863231,00000101,false,Rx,0,8,00,FF,FE,00,00,00,00,00,
24863478,00000102,false,Rx,0,8,01,90,01,00,00,01,00,00,
24893935,00000523,false,Rx,0,6,02,08,F7,FF,FF,FF,00,00,
24930841,00000108,false,Rx,0,8,01,F4,01,7D,9A,01,00,00,
24931272,00000109,false,Rx,0,8,02,77,01,00,00,24,00,00,
24962976,00000100,false,Rx,0,8,00,00,00,00,9A,01,C8,00,
24963229,00000101,false,Rx,0,8,00,FF,FE,00,00,00,00,00,
24963475,00000102,false,Rx,0,8,01,90,01,00,00,01,00,00,
25030835,00000108,false,Rx,0,8,01,F4,01,7D,9A,01,00,00,
25031260,00000109,false,Rx,0,8,02,77,01,00,00,24,00,00,
25062977,00000100,false,Rx,0,8,00,00,00,00,9A,01,C8,00,
25063229,00000101,false,Rx,0,8,00,FF,FE,00,00,00,00,00,
25063476,00000102,false,Rx,0,8,01,90,01,00,00,01,00,00,
25109380,00000522,false,Rx,0,6,01,03,E7,C1,05,00,00,00,
25130833,00000108,false,Rx,0,8,01,F4,01,7D,9A,01,00,00,
25131257,00000109,false,Rx,0,8,02,77,01,00,00,24,00,00,
25162973,00000100,false,Rx,0,8,00,00,00,00,9A,01,C8,00,
25163225,00000101,false,Rx,0,8,00,FF,FE,00,00,00,00,00,
25163471,00000102,false,Rx,0,8,01,90,01,00,00,01,00,00,
25212224,00000526,false,Rx,0,6,05,06,06,00,00,00,00,00,
25216110,00000524,false,Rx,0,6,03,00,EA,FF,FF,FF,00,00,
25230836,00000108,false,Rx,0,8,01,F4,01,7D,9A,01,00,00,
25231273,00000109,false,Rx,0,8,02,77,01,00,00,24,00,00,
25260470,00000528,false,Rx,0,6,07,0A,6E,0D,00,00,00,00,
25262974,00000100,false,Rx,0,8,00,00,00,00,9A,01,C8,00,
25263226,00000101,false,Rx,0,8,00,FF,FE,00,00,00,00,00,
25263473,00000102,false,Rx,0,8,01,90,01,00,00,01,00,00,
25265430,00000521,false,Rx,0,6,00,00,13,00,00,00,00,00,
25330833,00000108,false,Rx,0,8,01,F4,01,7D,9A,01,00,00,
25331263,00000109,false,Rx,0,8,02,77,01,00,00,24,00,00,
25362971,00000100,false,Rx,0,8,00,00,00,00,9A,01,C8,00,
25363223,00000101,false,Rx,0,8,00,FF,FE,00,00,00,00,00,
25363470,00000102,false,Rx,0,8,01,90,01,00,00,01,00,00,
25417520,00000527,false,Rx,0,6,06,0E,BC,86,00,00,00,00,
25425538,00000525,false,Rx,0,6,04,06,BD,00,00,00,00,00,
25430833,00000108,false,Rx,0,8,01,F4,01,7D,9A,01,00,00,
25431270,00000109,false,Rx,0,8,02,77,01,00,00,24,00,00,
25462966,00000100,false,Rx,0,8,00,00,00,00,9A,01,C8,00,
25463219,00000101,false,Rx,0,8,00,FF,FE,00,00,00,00,00,
25463465,00000102,false,Rx,0,8,01,90,01,00,00,01,00,00,
25530836,00000108,false,Rx,0,8,01,F4,01,7D,9A,01,00,00,
25531273,00000109,false,Rx,0,8,02,77,01,00,00,24,00,00,
25542313,00000523,false,Rx,0,6,02,09,F7,FF,FF,FF,00,00,
25562967,00000100,false,Rx,0,8,00,00,00,00,9A,01,C8,00,
25563219,00000101,false,Rx,0,8,00,FF,FE,00,00,00,00,00,
25563466,00000102,false,Rx,0,8,01,90,01,00,00,01,00,00,
25630833,00000108,false,Rx,0,8,01,F4,01,7D,9A,01,00,00,
25631271,00000109,false,Rx,0,8,02,77,01,00,00,24,00,00,
25662965,00000100,false,Rx,0,8,00,00,00,00,9A,01,C8,00,
25663211,00000101,false,Rx,0,8,00,FF,FE,00,00,00,00,00,
25663464,00000102,false,Rx,0,8,01,90,01,00,00,01,00,00,
25730836,00000108,false,Rx,0,8,01,F4,01,7D,9A,01,00,00,
25731254,00000109,false,Rx,0,8,02,77,01,00,00,24,00,00,
25739619,00000522,false,Rx,0,6,01,04,F6,C1,05,00,00,00,
25762965,00000100,false,Rx,0,8,00,00,00,00,9A,01,C8,00,
25763210,00000101,false,Rx,0,8,00,FF,FE,00,00,00,00,00,
25763458,00000102,false,Rx,0,8,01,90,01,00,00,01,00,00,
25830836,00000108,false,Rx,0,8,01,F4,01,7D,9A,01,00,00,
25831273,00000109,false,Rx,0,8,02,77,01,00,00,24,00,00,
25862964,00000100,false,Rx,0,8,00,00,00,00,9A,01,C8,00,
25863209,00000101,false,Rx,0,8,00,FF,FE,00,00,00,00,00,
25863462,00000102,false,Rx,0,8,01,90,01,00,00,01,00,00,
25877538,00000521,false,Rx,0,6,00,01,13,00,00,00,00,00,
25882602,00000524,false,Rx,0,6,03,01,F6,FF,FF,FF,00,00,
25915134,00000526,false,Rx,0,6,05,07,0A,00,00,00,00,00,
25930835,00000108,false,Rx,0,8,01,F4,01,7D,9A,01,00,00,
25931253,00000109,false,Rx,0,8,02,77,01,00,00,24,00,00,
25962959,00000100,false,Rx,0,8,00,00,00,00,9A,01,C8,00,
25963211,00000101,false,Rx,0,8,00,FF,FE,00,00,00,00,00,
25963458,00000102,false,Rx,0,8,01,90,01,00,00,01,00,00,
25999445,00000528,false,Rx,0,6,07,0B,6E,0D,00,00,00,00,
26030836,00000108,false,Rx,0,8,01,F4,01,7D,9A,01,00,00,
26031273,00000109,false,Rx,0,8,02,77,01,00,00,24,00,00,
26062956,00000100,false,Rx,0,8,00,00,00,00,9A,01,C8,00,
26063208,00000101,false,Rx,0,8,00,FF,FE,00,00,00,00,00,
26063455,00000102,false,Rx,0,8,01,90,01,00,00,01,00,00,
26110144,00000525,false,Rx,0,6,04,07,BD,00,00,00,00,00,
26130835,00000108,false,Rx,0,8,01,F4,01,7D,9A,01,00,00,
26131272,00000109,false,Rx,0,8,02,77,01,00,00,24,00,00,
26138632,00000527,false,Rx,0,6,06,0F,BC,86,00,00,00,00,
26162952,00000100,false,Rx,0,8,00,00,00,00,9A,01,C8,00,
26163204,00000101,false,Rx,0,8,00,FF,FE,00,00,00,00,00,
26163451,00000102,false,Rx,0,8,01,90,01,00,00,01,00,00,
26190668,00000523,false,Rx,0,6,02,0A,E9,FF,FF,FF,00,00,
26230834,00000108,false,Rx,0,8,01,F4,01,7D,9A,01,00,00,
26231271,00000109,false,Rx,0,8,02,77,01,00,00,24,00,00,
26262955,00000100,false,Rx,0,8,00,00,00,00,9A,01,C8,00,
26263200,00000101,false,Rx,0,8,00,FF,FE,00,00,00,00,00,
26263447,00000102,false,Rx,0,8,01,90,01,00,00,01,00,00,
26330829,00000108,false,Rx,0,8,01,F4,01,7D,9A,01,00,00,
26331266,00000109,false,Rx,0,8,02,77,01,00,00,24,00,00,
26362952,00000100,false,Rx,0,8,00,00,00,00,9A,01,C8,00,
26363204,00000101,false,Rx,0,8,00,FF,FE,00,00,00,00,00,
26363451,00000102,false,Rx,0,8,01,90,01,00,00,01,00,00,
26369873,00000522,false,Rx,0,6,01,05,F4,C1,05,00,00,00,
26430832,00000108,false,Rx,0,8,01,F4,01,7D,9A,01,00,00,
26431268,00000109,false,Rx,0,8,02,77,01,00,00,24,00,00,
26462949,00000100,false,Rx,0,8,00,00,00,00,9A,01,C8,00,
26463201,00000101,false,Rx,0,8,00,FF,FE,00,00,00,00,00,
26463448,00000102,false,Rx,0,8,01,90,01,00,00,01,00,00,
26489663,00000521,false,Rx,0,6,00,02,11,00,00,00,00,00,
26530829,00000108,false,Rx,0,8,01,F4,01,7D,9A,01,00,00,
26531266,00000109,false,Rx,0,8,02,77,01,00,00,24,00,00,
26549088,00000524,false,Rx,0,6,03,02,F4,FF,FF,FF,00,00,
26562943,00000100,false,Rx,0,8,00,00,00,00,9A,01,C8,00,
26563196,00000101,false,Rx,0,8,00,FF,FE,00,00,00,00,00,
26563442,00000102,false,Rx,0,8,01,90,01,00,00,01,00,00,
26617675,00000526,false,Rx,0,6,05,08,00,00,00,00,00,00,
26630831,00000108,false,Rx,0,8,01,F4,01,7D,9A,01,00,00,
26631268,00000109,false,Rx,0,8,02,77,01,00,00,24,00,00,
26662947,00000100,false,Rx,0,8,00,00,00,00,9A,01,C8,00,
26663192,00000101,false,Rx,0,8,00,FF,FE,00,00,00,00,00,
26663446,00000102,false,Rx,0,8,01,90,01,00,00,01,00,00,
26730833,00000108,false,Rx,0,8,01,F4,01,7D,9A,01,00,00,
26731252,00000109,false,Rx,0,8,02,77,01,00,00,24,00,00,
26738421,00000528,false,Rx,0,6,07,0C,6E,0D,00,00,00,00,
26762940,00000100,false,Rx,0,8,00,00,00,00,9A,01,C8,00,
26763192,00000101,false,Rx,0,8,00,FF,FE,00,00,00,00,00,
26763439,00000102,false,Rx,0,8,01,90,01,00,00,01,00,00,
26794753,00000525,false,Rx,0,6,04,08,BD,00,00,00,00,00,
26830829,00000108,false,Rx,0,8,01,F4,01,7D,9A,01,00,00,
26831247,00000109,false,Rx,0,8,02,77,01,00,00,24,00,00,
26839032,00000523,false,Rx,0,6,02,0B,F0,FF,FF,FF,00,00,
26859224,00000527,false,Rx,0,6,06,00,BC,86,00,00,00,00,
26862940,00000100,false,Rx,0,8,00,00,00,00,9A,01,C8,00,
26863192,00000101,false,Rx,0,8,00,FF,FE,00,00,00,00,00,
26863439,00000102,false,Rx,0,8,01,90,01,00,00,01,00,00,
26930830,00000108,false,Rx,0,8,01,F4,01,7D,9A,01,00,00,
26931248,00000109,false,Rx,0,8,02,77,01,00,00,24,00,00,
26962938,00000100,false,Rx,0,8,00,00,00,00,9A,01,C8,00,
26963190,00000101,false,Rx,0,8,00,FF,FE,00,00,00,00,00,
26963437,00000102,false,Rx,0,8,01,90,01,00,00,01,00,00,
27000111,00000522,false,Rx,0,6,01,06,F3,C1,05,00,00,00,
27030833,00000108,false,Rx,0,8,01,F4,01,7D,9A,01,00,00,
27031245,00000109,false,Rx,0,8,02,77,01,00,00,24,00,00,
27062937,00000100,false,Rx,0,8,00,00,00,00,9A,01,C8,00,
27063183,00000101,false,Rx,0,8,00,FF,FE,00,00,00,00,00,
27063435,00000102,false,Rx,0,8,01,90,01,00,00,01,00,00,
27101784,00000521,false,Rx,0,6,00,03,0C,00,00,00,00,00,
27130829,00000108,false,Rx,0,8,01,F4,01,7D,9A,01,00,00,
27131247,00000109,false,Rx,0,8,02,77,01,00,00,24,00,00,
27162932,00000100,false,Rx,0,8,00,00,00,00,9A,01,C8,00,
27163185,00000101,false,Rx,0,8,00,FF,FE,00,00,00,00,00,
27163430,00000102,false,Rx,0,8,01,90,01,00,00,01,00,00,
27215578,00000524,false,Rx,0,6,03,03,F2,FF,FF,FF,00,00,
27230833,00000108,false,Rx,0,8,01,F4,01,7D,9A,01,00,00,
27231264,00000109,false,Rx,0,8,02,77,01,00,00,24,00,00,
27262934,00000100,false,Rx,0,8,00,00,00,00,9A,01,C8,00,
27263186,00000101,false,Rx,0,8,00,FF,FE,00,00,00,00,00,
27263433,00000102,false,Rx,0,8,01,90,01,00,00,01,00,00,
27320601,00000526,false,Rx,0,6,05,09,03,00,00,00,00,00,
27330831,00000108,false,Rx,0,8,01,F4,01,7D,9A,01,00,00,
27331256,00000109,false,Rx,0,8,02,77,01,00,00,24,00,00,
27362928,00000100,false,Rx,0,8,00,00,00,00,9A,01,C8,00,
27363180,00000101,false,Rx,0,8,00,FF,FE,00,00,00,00,00,
27363426,00000102,false,Rx,0,8,01,90,01,00,00,01,00,00,
27430827,00000108,false,Rx,0,8,01,F4,01,7D,9A,01,00,00,
27431245,00000109,false,Rx,0,8,02,77,01,00,00,24,00,00,
27462930,00000100,false,Rx,0,8,00,00,00,00,9A,01,C8,00,
27463176,00000101,false,Rx,0,8,00,FF,FE,00,00,00,00,00,
27463429,00000102,false,Rx,0,8,01,90,01,00,00,01,00,00,
27477391,00000528,false,Rx,0,6,07,0D,6E,0D,00,00,00,00,
27479354,00000525,false,Rx,0,6,04,09,BD,00,00,00,00,00,
27487391,00000523,false,Rx,0,6,02,0C,F0,FF,FF,FF,00,00,
27530829,00000108,false,Rx,0,8,01,F4,01,7D,9A,01,00,00,
27531267,00000109,false,Rx,0,8,02,77,01,00,00,24,00,00,
27562927,00000100,false,Rx,0,8,00,00,00,00,9A,01,C8,00,
27563179,00000101,false,Rx,0,8,00,FF,FE,00,00,00,00,00,
27563427,00000102,false,Rx,0,8,01,90,01,00,00,01,00,00,
27580082,00000527,false,Rx,0,6,06,01,BC,86,00,00,00,00,
27630356,00000522,false,Rx,0,6,01,07,EF,C1,05,00,00,00,
27630944,00000108,false,Rx,0,8,01,F4,01,7D,9A,01,00,00,
27631381,00000109,false,Rx,0,8,02,77,01,00,00,24,00,00,
27662926,00000100,false,Rx,0,8,00,00,00,00,9A,01,C8,00,
27663172,00000101,false,Rx,0,8,00,FF,FE,00,00,00,00,00,
27663425,00000102,false,Rx,0,8,01,90,01,00,00,01,00,00,
27713909,00000521,false,Rx,0,6,00,04,15,00,00,00,00,00,
27730829,00000108,false,Rx,0,8,01,F4,01,7D,9A,01,00,00,
27731248,00000109,false,Rx,0,8,02,77,01,00,00,24,00,00,
27762922,00000100,false,Rx,0,8,00,00,00,00,9A,01,C8,00,
27763174,00000101,false,Rx,0,8,00,FF,FE,00,00,00,00,00,
27763421,00000102,false,Rx,0,8,01,90,01,00,00,01,00,00,
27830830,00000108,false,Rx,0,8,01,F4,01,7D,9A,01,00,00,
27831260,00000109,false,Rx,0,8,02,77,01,00,00,24,00,00,
27862919,00000100,false,Rx,0,8,00,00,00,00,9A,01,C8,00,
27863172,00000101,false,Rx,0,8,00,FF,FE,00,00,00,00,00,
27863420,00000102,false,Rx,0,8,01,90,01,00,00,01,00,00,
27882057,00000524,false,Rx,0,6,03,04,E1,FF,FF,FF,00,00,
27930830,00000108,false,Rx,0,8,01,F4,01,7D,9A,01,00,00,
27931260,00000109,false,Rx,0,8,02,77,01,00,00,24,00,00,
27962918,00000100,false,Rx,0,8,00,00,00,00,9A,01,C8,00,
27963170,00000101,false,Rx,0,8,00,FF,FE,00,00,00,00,00,
27963420,00000102,false,Rx,0,8,01,90,01,00,00,01,00,00,
28023329,00000526,false,Rx,0,6,05,0A,0D,00,00,00,00,00,
28030830,00000108,false,Rx,0,8,01,F4,01,7D,9A,01,00,00,
28031260,00000109,false,Rx,0,8,02,77,01,00,00,24,00,00,
28062917,00000100,false,Rx,0,8,00,00,00,00,9A,01,C8,00,
28063169,00000101,false,Rx,0,8,00,FF,FE,00,00,00,00,00,
28063420,00000102,false,Rx,0,8,01,90,01,00,00,01,00,00,
28130827,00000108,false,Rx,0,8,01,F4,01,7D,9A,01,00,00,
28131264,00000109,false,Rx,0,8,02,77,01,00,00,24,00,00,
28135755,00000523,false,Rx,0,6,02,0D,E6,FF,FF,FF,00,00,
28162916,00000100,false,Rx,0,8,00,00,00,00,9A,01,C8,00,
28163162,00000101,false,Rx,0,8,00,FF,FE,00,00,00,00,00,
28163415,00000102,false,Rx,0,8,01,90,01,00,00,01,00,00,
28163964,00000525,false,Rx,0,6,04,0A,BD,00,00,00,00,00,
28216377,00000528,false,Rx,0,6,07,0E,6E,0D,00,00,00,00,
28230823,00000108,false,Rx,0,8,01,F4,01,7D,9A,01,00,00,
28231248,00000109,false,Rx,0,8,02,77,01,00,00,24,00,00,
28260600,00000522,false,Rx,0,6,01,08,F2,C1,05,00,00,00,
28262912,00000100,false,Rx,0,8,00,00,00,00,9A,01,C8,00,
28263164,00000101,false,Rx,0,8,00,FF,FE,00,00,00,00,00,
28263412,00000102,false,Rx,0,8,01,90,01,00,00,01,00,00,
28301193,00000527,false,Rx,0,6,06,02,BC,86,00,00,00,00,
28326027,00000521,false,Rx,0,6,00,05,11,00,00,00,00,00,
28330826,00000108,false,Rx,0,8,01,F4,01,7D,9A,01,00,00,
28331257,00000109,false,Rx,0,8,02,77,01,00,00,24,00,00,
28362909,00000100,false,Rx,0,8,00,00,00,00,9A,01,C8,00,
28363161,00000101,false,Rx,0,8,00,FF,FE,00,00,00,00,00,
28363411,00000102,false,Rx,0,8,01,90,01,00,00,01,00,00,
28430826,00000108,false,Rx,0,8,01,F4,01,7D,9A,01,00,00,
28431245,00000109,false,Rx,0,8,02,77,01,00,00,24,00,00,
28462910,00000100,false,Rx,0,8,00,00,00,00,9A,01,C8,00,
28463156,00000101,false,Rx,0,8,00,FF,FE,00,00,00,00,00,
28463413,00000102,false,Rx,0,8,01,90,01,00,00,01,00,00,
28530823,00000108,false,Rx,0,8,01,F4,01,7D,9A,01,00,00,
28531260,00000109,false,Rx,0,8,02,77,01,00,00,24,00,00,
28548545,00000524,false,Rx,0,6,03,05,E4,FF,FF,FF,00,00,
28562903,00000100,false,Rx,0,8,00,00,00,00,9A,01,C8,00,
28563155,00000101,false,Rx,0,8,00,FF,FE,00,00,00,00,00,
28563408,00000102,false,Rx,0,8,01,90,01,00,00,01,00,00,
28630827,00000108,false,Rx,0,8,01,F4,01,7D,9A,01,00,00,
28631246,00000109,false,Rx,0,8,02,77,01,00,00,24,00,00,
28662905,00000100,false,Rx,0,8,00,00,00,00,9A,01,C8,00,
28663158,00000101,false,Rx,0,8,00,FF,FE,00,00,00,00,00,
28663411,00000102,false,Rx,0,8,01,90,01,00,00,01,00,00,
28726268,00000526,false,Rx,0,6,05,0B,04,00,00,00,00,00,
28730823,00000108,false,Rx,0,8,01,F4,01,7D,9A,01,00,00,
28731259,00000109,false,Rx,0,8,02,77,01,00,00,24,00,00,
28762904,00000100,false,Rx,0,8,00,00,00,00,9A,01,C8,00,
28763150,00000101,false,Rx,0,8,00,FF,FE,00,00,00,00,00,
28763401,00000102,false,Rx,0,8,01,90,01,00,00,01,00,00,
28784116,00000523,false,Rx,0,6,02,0E,E9,FF,FF,FF,00,00,
28830824,00000108,false,Rx,0,8,01,F4,01,7D,9A,01,00,00,
28831243,00000109,false,Rx,0,8,02,77,01,00,00,24,00,00,
28848577,00000525,false,Rx,0,6,04,0B,BD,00,00,00,00,00,
28862898,00000100,false,Rx,0,8,00,00,00,00,9A,01,C8,00,
28863150,00000101,false,Rx,0,8,00,FF,FE,00,00,00,00,00,
28863397,00000102,false,Rx,0,8,01,90,01,00,00,01,00,00,
28890817,00000522,false,Rx,0,6,01,09,E4,C1,05,00,00,00,
28930824,00000108,false,Rx,0,8,01,F4,01,7D,9A,01,00,00,
28931242,00000109,false,Rx,0,8,02,77,01,00,00,24,00,00,
28938452,00000521,false,Rx,0,6,00,06,12,00,00,00,00,00,
28955557,00000528,false,Rx,0,6,07,0F,6E,0D,00,00,00,00,
28962898,00000100,false,Rx,0,8,00,00,00,00,9A,01,C8,00,
28963150,00000101,false,Rx,0,8,00,FF,FE,00,00,00,00,00,
28963398,00000102,false,Rx,0,8,01,90,01,00,00,01,00,00,
29021776,00000527,false,Rx,0,6,06,03,BC,86,00,00,00,00,
29030825,00000108,false,Rx,0,8,01,F4,01,7D,9A,01,00,00,
29031244,00000109,false,Rx,0,8,02,77,01,00,00,24,00,00,
29062893,00000100,false,Rx,0,8,00,00,00,00,9A,01,C8,00,
29063145,00000101,false,Rx,0,8,00,FF,FE,00,00,00,00,00,
29063391,00000102,false,Rx,0,8,01,90,01,00,00,01,00,00,
29130823,00000108,false,Rx,0,8,01,F4,01,7D,9A,01,00,00,
29131259,00000109,false,Rx,0,8,02,77,01,00,00,24,00,00,
29162895,00000100,false,Rx,0,8,00,00,00,00,9A,01,C8,00,
29163146,00000101,false,Rx,0,8,00,FF,FE,00,00,00,00,00,
29163394,00000102,false,Rx,0,8,01,90,01,00,00,01,00,00,
29215014,00000524,false,Rx,0,6,03,06,F5,FF,FF,FF,00,00,
29230824,00000108,false,Rx,0,8,01,F4,01,7D,9A,01,00,00,
29231254,00000109,false,Rx,0,8,02,77,01,00,00,24,00,00,
29262891,00000100,false,Rx,0,8,00,00,00,00,9A,01,C8,00,
29263143,00000101,false,Rx,0,8,00,FF,FE,00,00,00,00,00,
29263391,00000102,false,Rx,0,8,01,90,01,00,00,01,00,00,
29330824,00000108,false,Rx,0,8,01,F4,01,7D,9A,01,00,00,
29331249,00000109,false,Rx,0,8,02,77,01,00,00,24,00,00,
29362890,00000100,false,Rx,0,8,00,00,00,00,9A,01,C8,00,
29363143,00000101,false,Rx,0,8,00,FF,FE,00,00,00,00,00,
29363390,00000102,false,Rx,0,8,01,90,01,00,00,01,00,00,
29428595,00000526,false,Rx,0,6,05,0C,0A,00,00,00,00,00,
29430824,00000108,false,Rx,0,8,01,F4,01,7D,9A,01,00,00,
29431261,00000109,false,Rx,0,8,02,77,01,00,00,24,00,00,
29432477,00000523,false,Rx,0,6,02,0F,E9,FF,FF,FF,00,00,
29462886,00000100,false,Rx,0,8,00,00,00,00,9A,01,C8,00,
29463138,00000101,false,Rx,0,8,00,FF,FE,00,00,00,00,00,
29463385,00000102,false,Rx,0,8,01,90,01,00,00,01,00,00,
29521065,00000522,false,Rx,0,6,01,0A,EA,C1,05,00,00,00,
29530819,00000108,false,Rx,0,8,01,F4,01,7D,9A,01,00,00,
29531237,00000109,false,Rx,0,8,02,77,01,00,00,24,00,00,
29533157,00000525,false,Rx,0,6,04,0C,BD,00,00,00,00,00,
29550255,00000521,false,Rx,0,6,00,07,17,00,00,00,00,00,
29562888,00000100,false,Rx,0,8,00,00,00,00,9A,01,C8,00,
29563133,00000101,false,Rx,0,8,00,FF,FE,00,00,00,00,00,
29563385,00000102,false,Rx,0,8,01,90,01,00,00,01,00,00,
29630820,00000108,false,Rx,0,8,01,F4,01,7D,9A,01,00,00,
29631258,00000109,false,Rx,0,8,02,77,01,00,00,24,00,00,
29662881,00000100,false,Rx,0,8,00,00,00,00,9A,01,C8,00,
29663133,00000101,false,Rx,0,8,00,FF,FE,00,00,00,00,00,
29663380,00000102,false,Rx,0,8,01,90,01,00,00,01,00,00,
29694306,00000528,false,Rx,0,6,07,00,6E,0D,00,00,00,00,
29730820,00000108,false,Rx,0,8,01,F4,01,7D,9A,01,00,00,
29731257,00000109,false,Rx,0,8,02,77,01,00,00,24,00,00,
29742619,00000527,false,Rx,0,6,06,04,BD,86,00,00,00,00,
29762885,00000100,false,Rx,0,8,00,00,00,00,9A,01,C8,00,
29763130,00000101,false,Rx,0,8,00,FF,FE,00,00,00,00,00,
29763383,00000102,false,Rx,0,8,01,90,01,00,00,01,00,00,
29830823,00000108,false,Rx,0,8,01,F4,01,7D,9A,01,00,00,
29831112,00000109,false,Rx,0,8,02,77,01,00,00,34,00,00,
29862882,00000100,false,Rx,0,8,00,00,00,00,9A,01,C8,00,
29863129,00000101,false,Rx,0,8,00,FF,FE,00,00,00,00,00,
29863374,00000102,false,Rx,0,8,01,90,01,00,00,01,00,00,
29881502,00000524,false,Rx,0,6,03,07,EB,FF,FF,FF,00,00,
29930817,00000108,false,Rx,0,8,01,F4,01,7D,9A,01,00,00,
29931223,00000109,false,Rx,0,8,02,77,01,00,00,34,00,00,
29962873,00000100,false,Rx,0,8,00,00,00,00,9A,01,C8,00,
29963125,00000101,false,Rx,0,8,00,FF,FE,00,00,00,00,00,
29963377,00000102,false,Rx,0,8,01,90,01,00,00,01,00,00,
30030821,00000108,false,Rx,0,8,01,F4,01,7D,9A,01,00,00,
30031209,00000109,false,Rx,0,8,02,77,01,00,00,30,00,00,
30062878,00000100,false,Rx,0,8,00,00,00,00,9A,01,C8,00,
30063124,00000101,false,Rx,0,8,00,FF,FE,00,00,00,00,00,
30063376,00000102,false,Rx,0,8,01,90,01,00,00,01,00,00,
30080825,00000523,false,Rx,0,6,02,00,E6,FF,FF,FF,00,00,
30130820,00000108,false,Rx,0,8,01,F4,01,7D,9A,01,00,00,
30131214,00000109,false,Rx,0,8,02,00,00,00,00,30,00,00,
30131479,00000526,false,Rx,0,6,05,0D,FD,FF,FF,FF,00,00,
30151291,00000522,false,Rx,0,6,01,0B,F8,C1,05,00,00,00,
30162386,00000521,false,Rx,0,6,00,08,12,00,00,00,00,00,
30162875,00000100,false,Rx,0,8,00,00,00,00,9A,01,C8,00,
30163121,00000101,false,Rx,0,8,00,FF,FE,00,00,00,00,00,
30163373,00000102,false,Rx,0,8,01,90,01,00,00,01,00,00,
30217771,00000525,false,Rx,0,6,04,0D,BD,00,00,00,00,00,
30230817,00000108,false,Rx,0,8,01,F4,01,7D,9A,01,00,00,
30231383,00000109,false,Rx,0,8,02,00,00,00,00,30,00,00,
30262868,00000100,false,Rx,0,8,00,00,00,00,9A,01,C8,00,
30263120,00000101,false,Rx,0,8,00,FF,FE,00,00,00,00,00,
30263366,00000102,false,Rx,0,8,01,90,01,00,00,01,00,00,
30330819,00000108,false,Rx,0,8,01,F4,01,7D,9A,01,00,00,
30331360,00000109,false,Rx,0,8,02,00,00,00,00,30,00,00,
30362867,00000100,false,Rx,0,8,00,00,00,00,9A,01,C8,00,
30363119,00000101,false,Rx,0,8,00,FF,FE,00,00,00,00,00,
30363371,00000102,false,Rx,0,8,01,90,01,00,00,01,00,00,
30430816,00000108,false,Rx,0,8,01,F4,01,7D,9A,01,00,00,
30431334,00000109,false,Rx,0,8,02,00,00,00,00,30,00,00,
30433260,00000528,false,Rx,0,6,07,01,6E,0D,00,00,00,00,
30462868,00000100,false,Rx,0,8,00,00,00,00,9A,01,C8,00,
30463120,00000101,false,Rx,0,8,00,FF,FE,00,00,00,00,00,
30463366,00000102,false,Rx,0,8,01,90,01,00,00,01,00,00,
30463563,00000527,false,Rx,0,6,06,05,BD,86,00,00,00,00,
30530816,00000108,false,Rx,0,8,01,F4,01,7D,9A,01,00,00,
30531327,00000109,false,Rx,0,8,02,00,00,00,00,30,00,00,
30547981,00000524,false,Rx,0,6,03,08,E5,FF,FF,FF,00,00,
30562868,00000100,false,Rx,0,8,00,00,00,00,9A,01,C8,00,
30563114,00000101,false,Rx,0,8,00,FF,FE,00,00,00,00,00,
30563366,00000102,false,Rx,0,8,01,90,01,00,00,01,00,00,
30630814,00000108,false,Rx,0,8,01,F4,01,7D,9A,01,00,00,
30631343,00000109,false,Rx,0,8,02,00,00,00,00,30,00,00,
30662864,00000100,false,Rx,0,8,00,00,00,00,9A,01,C8,00,
30663116,00000101,false,Rx,0,8,00,FF,FE,00,00,00,00,00,
30663362,00000102,false,Rx,0,8,01,90,01,00,00,01,00,00,
30729191,00000523,false,Rx,0,6,02,01,FA,FF,FF,FF,00,00,
30730817,00000108,false,Rx,0,8,01,F4,01,7D,9A,01,00,00,
30731327,00000109,false,Rx,0,8,02,00,00,00,00,30,00,00,
30762859,00000100,false,Rx,0,8,00,00,00,00,9A,01,C8,00,
30763111,00000101,false,Rx,0,8,00,FF,FE,00,00,00,00,00,
30763356,00000102,false,Rx,0,8,01,90,01,00,00,01,00,00,
30774520,00000521,false,Rx,0,6,00,09,10,00,00,00,00,00,
30781532,00000522,false,Rx,0,6,01,0C,01,C2,05,00,00,00,
30830817,00000108,false,Rx,0,8,01,F4,01,7D,9A,01,00,00,
30831347,00000109,false,Rx,0,8,02,00,00,00,00,30,00,00,
30834249,00000526,false,Rx,0,6,05,0E,0A,00,00,00,00,00,
30862862,00000100,false,Rx,0,8,00,00,00,00,9A,01,C8,00,
30863107,00000101,false,Rx,0,8,00,FF,FE,00,00,00,00,00,
30863359,00000102,false,Rx,0,8,01,90,01,00,00,01,00,00,
30902372,00000525,false,Rx,0,6,04,0E,BD,00,00,00,00,00,
30930814,00000108,false,Rx,0,8,01,F4,01,7D,9A,01,00,00,
30931331,00000109,false,Rx,0,8,02,00,00,00,00,30,00,00,
30962857,00000100,false,Rx,0,8,00,00,00,00,9A,01,C8,00,
30963110,00000101,false,Rx,0,8,00,FF,FE,00,00,00,00,00,
30963356,00000102,false,Rx,0,8,01,90,01,00,00,01,00,00,
31030817,00000108,false,Rx,0,8,01,F4,01,7D,9A,01,00,00,
31031327,00000109,false,Rx,0,8,02,00,00,00,00,30,00,00,
31062858,00000100,false,Rx,0,8,00,00,00,00,9A,01,C8,00,
31063104,00000101,false,Rx,0,8,00,FF,FE,00,00,00,00,00,
31063356,00000102,false,Rx,0,8,01,90,01,00,00,01,00,00,
31130817,00000108,false,Rx,0,8,01,F4,01,7D,9A,01,00,00,
31131346,00000109,false,Rx,0,8,02,00,00,00,00,30,00,00,
31162850,00000100,false,Rx,0,8,00,00,00,00,9A,01,C8,00,
31163102,00000101,false,Rx,0,8,00,FF,FE,00,00,00,00,00,
31163348,00000102,false,Rx,0,8,01,90,01,00,00,01,00,00,
31172233,00000528,false,Rx,0,6,07,02,6E,0D,00,00,00,00,
31184309,00000527,false,Rx,0,6,06,06,BD,86,00,00,00,00,
31214459,00000524,false,Rx,0,6,03,09,F2,FF,FF,FF,00,00,
31230811,00000108,false,Rx,0,8,01,F4,01,7D,9A,01,00,00,
31231328,00000109,false,Rx,0,8,02,00,00,00,00,30,00,00,
31262853,00000100,false,Rx,0,8,00,00,00,00,9A,01,C8,00,
31263099,00000101,false,Rx,0,8,00,FF,FE,00,00,00,00,00,
31263351,00000102,false,Rx,0,8,01,90,01,00,00,01,00,00,
31330817,00000108,false,Rx,0,8,01,F4,01,7D,9A,01,00,00,
31331352,00000109,false,Rx,0,8,02,00,00,00,00,30,00,00,
31362848,00000100,false,Rx,0,8,00,00,00,00,9A,01,C8,00,
31363100,00000101,false,Rx,0,8,00,FF,FE,00,00,00,00,00,
31363345,00000102,false,Rx,0,8,01,90,01,00,00,01,00,00,
31377554,00000523,false,Rx,0,6,02,02,FA,FF,FF,FF,00,00,
31387612,00000521,false,Rx,0,6,00,0A,0C,00,00,00,00,00,
31411767,00000522,false,Rx,0,6,01,0D,F1,C1,05,00,00,00,
31430817,00000108,false,Rx,0,8,01,F4,01,7D,9A,01,00,00,
31431328,00000109,false,Rx,0,8,02,00,00,00,00,30,00,00,
31462847,00000100,false,Rx,0,8,00,00,00,00,9A,01,C8,00,
31463098,00000101,false,Rx,0,8,00,FF,FE,00,00,00,00,00,
31463344,00000102,false,Rx,0,8,01,90,01,00,00,01,00,00,
31530818,00000108,false,Rx,0,8,01,F4,01,7D,9A,01,00,00,
31531341,00000109,false,Rx,0,8,02,00,00,00,00,30,00,00,
31536957,00000526,false,Rx,0,6,05,0F,0D,00,00,00,00,00,
31562847,00000100,false,Rx,0,8,00,00,00,00,9A,01,C8,00,
31563095,00000101,false,Rx,0,8,00,FF,FE,00,00,00,00,00,
31563340,00000102,false,Rx,0,8,01,90,01,00,00,01,00,00,
31586978,00000525,false,Rx,0,6,04,0F,BD,00,00,00,00,00,
31630811,00000108,false,Rx,0,8,01,F4,01,7D,9A,01,00,00,
31631346,00000109,false,Rx,0,8,02,00,00,00,00,30,00,00,
31662841,00000100,false,Rx,0,8,00,00,00,00,9A,01,C8,00,
31663093,00000101,false,Rx,0,8,00,FF,FE,00,00,00,00,00,
31663339,00000102,false,Rx,0,8,01,90,01,00,00,01,00,00,
31730812,00000108,false,Rx,0,8,01,F4,01,7D,9A,01,00,00,
31731329,00000109,false,Rx,0,8,02,00,00,00,00,30,00,00,
31762839,00000100,false,Rx,0,8,00,00,00,00,9A,01,C8,00,
31763091,00000101,false,Rx,0,8,00,FF,FE,00,00,00,00,00,
31763336,00000102,false,Rx,0,8,01,90,01,00,00,01,00,00,
31830810,00000108,false,Rx,0,8,01,F4,01,7D,9A,01,00,00,
31831327,00000109,false,Rx,0,8,02,00,00,00,00,30,00,00,
31862838,00000100,false,Rx,0,8,00,00,00,00,9A,01,C8,00,
31863095,00000101,false,Rx,0,8,00,FF,FE,00,00,00,00,00,
31863335,00000102,false,Rx,0,8,01,90,01,00,00,01,00,00,
31880934,00000524,false,Rx,0,6,03,0A,F3,FF,FF,FF,00,00,
31905151,00000527,false,Rx,0,6,06,07,BD,86,00,00,00,00,
31911218,00000528,false,Rx,0,6,07,03,6E,0D,00,00,00,00,
31930812,00000108,false,Rx,0,8,01,F4,01,7D,9A,01,00,00,
31931341,00000109,false,Rx,0,8,02,00,00,00,00,30,00,00,
31962834,00000100,false,Rx,0,8,00,00,00,00,9A,01,C8,00,
31963087,00000101,false,Rx,0,8,00,FF,FE,00,00,00,00,00,
31963335,00000102,false,Rx,0,8,01,90,01,00,00,01,00,00,
31999718,00000521,false,Rx,0,6,00,0B,10,00,00,00,00,00,
32025916,00000523,false,Rx,0,6,02,03,F8,FF,FF,FF,00,00,
32030814,00000108,false,Rx,0,8,01,F4,01,7D,9A,01,00,00,
32031325,00000109,false,Rx,0,8,02,00,00,00,00,30,00,00,
32042004,00000522,false,Rx,0,6,01,0E,F6,C1,05,00,00,00,
32062836,00000100,false,Rx,0,8,00,00,00,00,9A,01,C8,00,
32063081,00000101,false,Rx,0,8,00,FF,FE,00,00,00,00,00,
32063335,00000102,false,Rx,0,8,01,90,01,00,00,01,00,00,
32130810,00000108,false,Rx,0,8,01,F4,01,7D,9A,01,00,00,
32131340,00000109,false,Rx,0,8,02,00,00,00,00,30,00,00,
32162836,00000100,false,Rx,0,8,00,00,00,00,9A,01,C8,00,
32163082,00000101,false,Rx,0,8,00,FF,FE,00,00,00,00,00,
32163330,00000102,false,Rx,0,8,01,90,01,00,00,01,00,00,
32230811,00000108,false,Rx,0,8,01,F4,01,7D,9A,01,00,00,
32231328,00000109,false,Rx,0,8,02,00,00,00,00,30,00,00,
32239688,00000526,false,Rx,0,6,05,00,02,00,00,00,00,00,
32262832,00000100,false,Rx,0,8,00,00,00,00,9A,01,C8,00,
32263083,00000101,false,Rx,0,8,00,FF,FE,00,00,00,00,00,
32263328,00000102,false,Rx,0,8,01,90,01,00,00,01,00,00,
32271595,00000525,false,Rx,0,6,04,00,BD,00,00,00,00,00,
32330811,00000108,false,Rx,0,8,01,F4,01,7D,9A,01,00,00,
32331334,00000109,false,Rx,0,8,02,00,00,00,00,30,00,00,
32362831,00000100,false,Rx,0,8,00,00,00,00,9A,01,C8,00,
32363076,00000101,false,Rx,0,8,00,FF,FE,00,00,00,00,00,
32363335,00000102,false,Rx,0,8,01,90,01,00,00,01,00,00,
32430811,00000108,false,Rx,0,8,01,F4,01,7D,9A,01,00,00,
32431341,00000109,false,Rx,0,8,02,00,00,00,00,30,00,00,
32462825,00000100,false,Rx,0,8,00,00,00,00,9A,01,C8,00,
32463077,00000101,false,Rx,0,8,00,FF,FE,00,00,00,00,00,
32463322,00000102,false,Rx,0,8,01,90,01,00,00,01,00,00,
32530810,00000108,false,Rx,0,8,01,F4,01,7D,9A,01,00,00,
32531340,00000109,false,Rx,0,8,02,00,00,00,00,30,00,00,
32547425,00000524,false,Rx,0,6,03,0B,F4,FF,FF,FF,00,00,
32562823,00000100,false,Rx,0,8,00,00,00,00,9A,01,C8,00,
32563074,00000101,false,Rx,0,8,00,FF,FE,00,00,00,00,00,
32563325,00000102,false,Rx,0,8,01,90,01,00,00,01,00,00,
32611850,00000521,false,Rx,0,6,00,0C,0B,00,00,00,00,00,
32626016,00000527,false,Rx,0,6,06,08,BD,86,00,00,00,00,
32630828,00000108,false,Rx,0,8,01,F4,01,7D,9A,01,00,00,
32631360,00000109,false,Rx,0,8,02,00,00,00,00,30,00,00,
32650186,00000528,false,Rx,0,6,07,04,6E,0D,00,00,00,00,
32662822,00000100,false,Rx,0,8,00,00,00,00,9A,01,C8,00,
32663073,00000101,false,Rx,0,8,00,FF,FE,00,00,00,00,00,
32663317,00000102,false,Rx,0,8,01,90,01,00,00,01,00,00,
32672251,00000522,false,Rx,0,6,01,0F,F3,C1,05,00,00,00,
32674276,00000523,false,Rx,0,6,02,04,E5,FF,FF,FF,00,00,
32730811,00000108,false,Rx,0,8,01,F4,01,7D,9A,01,00,00,
32731318,00000109,false,Rx,0,8,02,00,00,00,00,30,00,00,
32762822,00000100,false,Rx,0,8,00,00,00,00,9A,01,C8,00,
32763068,00000101,false,Rx,0,8,00,FF,FE,00,00,00,00,00,
32763320,00000102,false,Rx,0,8,01,90,01,00,00,01,00,00,
32830807,00000108,false,Rx,0,8,01,F4,01,7D,9A,01,00,00,
32831337,00000109,false,Rx,0,8,02,00,00,00,00,30,00,00,
32862821,00000100,false,Rx,0,8,00,00,00,00,9A,01,C8,00,
32863067,00000101,false,Rx,0,8,00,FF,FE,00,00,00,00,00,
32863319,00000102,false,Rx,0,8,01,90,01,00,00,01,00,00,
32930809,00000108,false,Rx,0,8,01,F4,01,7D,9A,01,00,00,
32931339,00000109,false,Rx,0,8,02,00,00,00,00,30,00,00,
32942377,00000526,false,Rx,0,6,05,01,04,00,00,00,00,00,
32956204,00000525,false,Rx,0,6,04,01,BD,00,00,00,00,00,
32962816,00000100,false,Rx,0,8,00,00,00,00,9A,01,C8,00,
32963068,00000101,false,Rx,0,8,00,FF,FE,00,00,00,00,00,
32963314,00000102,false,Rx,0,8,01,90,01,00,00,01,00,00,
33030810,00000108,false,Rx,0,8,01,F4,01,7D,9A,01,00,00,
33031321,00000109,false,Rx,0,8,02,00,00,00,00,30,00,00,
33062815,00000100,false,Rx,0,8,00,00,00,00,9A,01,C8,00,
33063061,00000101,false,Rx,0,8,00,FF,FE,00,00,00,00,00,
33063314,00000102,false,Rx,0,8,01,90,01,00,00,01,00,00,
33130810,00000108,false,Rx,0,8,01,F4,01,7D,9A,01,00,00,
33131321,00000109,false,Rx,0,8,02,00,00,00,00,30,00,00,
33162811,00000100,false,Rx,0,8,00,00,00,00,9A,01,C8,00,
33163064,00000101,false,Rx,0,8,00,FF,FE,00,00,00,00,00,
33163310,00000102,false,Rx,0,8,01,90,01,00,00,01,00,00,
33213922,00000524,false,Rx,0,6,03,0C,F6,FF,FF,FF,00,00,
33223961,00000521,false,Rx,0,6,00,0D,0F,00,00,00,00,00,
33230806,00000108,false,Rx,0,8,01,F4,01,7D,9A,01,00,00,
33231335,00000109,false,Rx,0,8,02,00,00,00,00,30,00,00,
33262810,00000100,false,Rx,0,8,00,00,00,00,9A,01,C8,00,
33263062,00000101,false,Rx,0,8,00,FF,FE,00,00,00,00,00,
33263308,00000102,false,Rx,0,8,01,90,01,00,00,01,00,00,
33302499,00000522,false,Rx,0,6,01,00,EE,C1,05,00,00,00,
33322638,00000523,false,Rx,0,6,02,05,E5,FF,FF,FF,00,00,
33330809,00000108,false,Rx,0,8,01,F4,01,7D,9A,01,00,00,
33331332,00000109,false,Rx,0,8,02,00,00,00,00,30,00,00,
33347185,00000527,false,Rx,0,6,06,09,BD,86,00,00,00,00,
33362809,00000100,false,Rx,0,8,00,00,00,00,9A,01,C8,00,
33363055,00000101,false,Rx,0,8,00,FF,FE,00,00,00,00,00,
33363307,00000102,false,Rx,0,8,01,90,01,00,00,01,00,00,
33389163,00000528,false,Rx,0,6,07,05,6E,0D,00,00,00,00,
33462806,00000100,false,Rx,0,8,00,00,00,00,9A,01,C8,00,
33463052,00000101,false,Rx,0,8,00,FF,FE,00,00,00,00,00,
33463304,00000102,false,Rx,0,8,01,90,01,00,00,01,00,00,
33562803,00000100,false,Rx,0,8,00,00,00,00,9A,01,C8,00,
33563055,00000101,false,Rx,0,8,00,FF,FE,00,00,00,00,00,
33563301,00000102,false,Rx,0,8,01,90,01,00,00,01,00,00,
33640800,00000525,false,Rx,0,6,04,02,BD,00,00,00,00,00,
33644956,00000526,false,Rx,0,6,05,02,03,00,00,00,00,00,
33662804,00000100,false,Rx,0,8,00,00,00,00,9A,01,C8,00,
33663049,00000101,false,Rx,0,8,00,FF,FE,00,00,00,00,00,
33663302,00000102,false,Rx,0,8,01,90,01,00,00,01,00,00,
33762802,00000100,false,Rx,0,8,00,00,00,00,9A,01,C8,00,
33763048,00000101,false,Rx,0,8,00,FF,FE,00,00,00,00,00,
33763300,00000102,false,Rx,0,8,01,90,01,00,00,01,00,00,
33836074,00000521,false,Rx,0,6,00,0E,0E,00,00,00,00,00,
33862798,00000100,false,Rx,0,8,00,00,00,00,9A,01,C8,00,
33863045,00000101,false,Rx,0,8,00,FF,FE,00,00,00,00,00,
33863297,00000102,false,Rx,0,8,01,90,01,00,00,01,00,00,
33880393,00000524,false,Rx,0,6,03,0D,EC,FF,FF,FF,00,00,
33932722,00000522,false,Rx,0,6,01,01,04,C2,05,00,00,00,
33962795,00000100,false,Rx,0,8,00,00,00,00,9A,01,C8,00,
33963043,00000101,false,Rx,0,8,00,FF,FE,00,00,00,00,00,
33963295,00000102,false,Rx,0,8,01,90,01,00,00,01,00,00,
33971000,00000523,false,Rx,0,6,02,06,EF,FF,FF,FF,00,00,
34062790,00000100,false,Rx,0,8,00,00,00,00,9A,01,C8,00,
34063042,00000101,false,Rx,0,8,00,FF,FE,00,00,00,00,00,
34063294,00000102,false,Rx,0,8,01,90,01,00,00,01,00,00,
34067772,00000527,false,Rx,0,6,06,0A,BD,86,00,00,00,00,
34128124,00000528,false,Rx,0,6,07,06,6E,0D,00,00,00,00,
34162791,00000100,false,Rx,0,8,00,00,00,00,9A,01,C8,00,
34163039,00000101,false,Rx,0,8,00,FF,FE,00,00,00,00,00,
34163291,00000102,false,Rx,0,8,01,90,01,00,00,01,00,00,
34262791,00000100,false,Rx,0,8,00,00,00,00,9A,01,C8,00,
34263037,00000101,false,Rx,0,8,00,FF,FE,00,00,00,00,00,
34263289,00000102,false,Rx,0,8,01,90,01,00,00,01,00,00,
34325397,00000525,false,Rx,0,6,04,03,BD,00,00,00,00,00,
34347835,00000526,false,Rx,0,6,05,03,0A,00,00,00,00,00,
34362786,00000100,false,Rx,0,8,00,00,00,00,9A,01,C8,00,
34363055,00000101,false,Rx,0,8,00,FF,FE,00,00,00,00,00,
34363282,00000102,false,Rx,0,8,01,90,01,00,00,01,00,00,
34448185,00000521,false,Rx,0,6,00,0F,0F,00,00,00,00,00,
34462789,00000100,false,Rx,0,8,00,00,00,00,9A,01,C8,00,
34463035,00000101,false,Rx,0,8,00,FF,FE,00,00,00,00,00,
34463285,00000102,false,Rx,0,8,01,90,01,00,00,01,00,00,
34546860,00000524,false,Rx,0,6,03,0E,F8,FF,FF,FF,00,00,
34562785,00000100,false,Rx,0,8,00,00,00,00,9A,01,C8,00,
34563031,00000101,false,Rx,0,8,00,FF,FE,00,00,00,00,00,
34563282,00000102,false,Rx,0,8,01,90,01,00,00,01,00,00,
34563485,00000522,false,Rx,0,6,01,02,F7,C1,05,00,00,00,
34619342,00000523,false,Rx,0,6,02,07,E9,FF,FF,FF,00,00,
34662782,00000100,false,Rx,0,8,00,00,00,00,9A,01,C8,00,
34663034,00000101,false,Rx,0,8,00,FF,FE,00,00,00,00,00,
34663279,00000102,false,Rx,0,8,01,90,01,00,00,01,00,00,
34762780,00000100,false,Rx,0,8,00,00,00,00,9A,01,C8,00,
34763033,00000101,false,Rx,0,8,00,FF,FE,00,00,00,00,00,
34763275,00000102,false,Rx,0,8,01,90,01,00,00,01,00,00,
34788537,00000527,false,Rx,0,6,06,0B,BD,86,00,00,00,00,
34862775,00000100,false,Rx,0,8,00,00,00,00,9A,01,C8,00,
34863027,00000101,false,Rx,0,8,00,FF,FE,00,00,00,00,00,
34863276,00000102,false,Rx,0,8,01,90,01,00,00,01,00,00,
34867082,00000528,false,Rx,0,6,07,07,6E,0D,00,00,00,00,
34962773,00000100,false,Rx,0,8,00,00,00,00,9A,01,C8,00,
34963025,00000101,false,Rx,0,8,00,FF,FE,00,00,00,00,00,
34963284,00000102,false,Rx,0,8,01,90,01,00,00,01,00,00,
35009989,00000525,false,Rx,0,6,04,04,BD,00,00,00,00,00,
35050391,00000526,false,Rx,0,6,05,04,00,00,00,00,00,00,
35060291,00000521,false,Rx,0,6,00,00,14,00,00,00,00,00,
35062775,00000100,false,Rx,0,8,00,00,00,00,9A,01,C8,00,
35063021,00000101,false,Rx,0,8,00,FF,FE,00,00,00,00,00,
35063273,00000102,false,Rx,0,8,01,90,01,00,00,01,00,00,
35162773,00000100,false,Rx,0,8,00,00,00,00,9A,01,C8,00,
35163019,00000101,false,Rx,0,8,00,FF,FE,00,00,00,00,00,
35163271,00000102,false,Rx,0,8,01,90,01,00,00,01,00,00,
35193186,00000522,false,Rx,0,6,01,03,EF,C1,05,00,00,00,
35213324,00000524,false,Rx,0,6,03,0F,F4,FF,FF,FF,00,00,
35262772,00000100,false,Rx,0,8,00,00,00,00,9A,01,C8,00,
35263017,00000101,false,Rx,0,8,00,FF,FE,00,00,00,00,00,
35263270,00000102,false,Rx,0,8,01,90,01,00,00,01,00,00,
35267688,00000523,false,Rx,0,6,02,08,E9,FF,FF,FF,00,00,
35362766,00000100,false,Rx,0,8,00,00,00,00,9A,01,C8,00,
35363018,00000101,false,Rx,0,8,00,FF,FE,00,00,00,00,00,
35363264,00000102,false,Rx,0,8,01,90,01,00,00,01,00,00,
35462763,00000100,false,Rx,0,8,00,00,00,00,9A,01,C8,00,
35463016,00000101,false,Rx,0,8,00,FF,FE,00,00,00,00,00,
35463262,00000102,false,Rx,0,8,01,90,01,00,00,01,00,00,
35509377,00000527,false,Rx,0,6,06,0C,BD,86,00,00,00,00,
35562763,00000100,false,Rx,0,8,00,00,00,00,9A,01,C8,00,
35563015,00000101,false,Rx,0,8,00,FF,FE,00,00,00,00,00,
35563261,00000102,false,Rx,0,8,01,90,01,00,00,01,00,00,
35606031,00000528,false,Rx,0,6,07,08,6E,0D,00,00,00,00,
35662763,00000100,false,Rx,0,8,00,00,00,00,9A,01,C8,00,
35663008,00000101,false,Rx,0,8,00,FF,FE,00,00,00,00,00,
35663260,00000102,false,Rx,0,8,01,90,01,00,00,01,00,00,
35672410,00000521,false,Rx,0,6,00,01,17,00,00,00,00,00,
35694571,00000525,false,Rx,0,6,04,05,BD,00,00,00,00,00,
35753280,00000526,false,Rx,0,6,05,05,03,00,00,00,00,00,
35762758,00000100,false,Rx,0,8,00,00,00,00,9A,01,C8,00,
35763006,00000101,false,Rx,0,8,00,FF,FE,00,00,00,00,00,
35763258,00000102,false,Rx,0,8,01,90,01,00,00,01,00,00,
35823413,00000522,false,Rx,0,6,01,04,F9,C1,05,00,00,00,
35862756,00000100,false,Rx,0,8,00,00,00,00,9A,01,C8,00,
35863004,00000101,false,Rx,0,8,00,FF,FE,00,00,00,00,00,
35863257,00000102,false,Rx,0,8,01,90,01,00,00,01,00,00,
35879808,00000524,false,Rx,0,6,03,00,E2,FF,FF,FF,00,00,
35916043,00000523,false,Rx,0,6,02,09,E2,FF,FF,FF,00,00,
35962757,00000100,false,Rx,0,8,00,00,00,00,9A,01,C8,00,
35963006,00000101,false,Rx,0,8,00,FF,FE,00,00,00,00,00,
35963251,00000102,false,Rx,0,8,01,90,01,00,00,01,00,00,
36062750,00000100,false,Rx,0,8,00,00,00,00,9A,01,C8,00,
36063007,00000101,false,Rx,0,8,00,FF,FE,00,00,00,00,00,
36063248,00000102,false,Rx,0,8,01,90,01,00,00,01,00,00,
36162748,00000100,false,Rx,0,8,00,00,00,00,9A,01,C8,00,
36163000,00000101,false,Rx,0,8,00,FF,FE,00,00,00,00,00,
36163249,00000102,false,Rx,0,8,01,90,01,00,00,01,00,00,
36230202,00000527,false,Rx,0,6,06,0D,BD,86,00,00,00,00,
36262750,00000100,false,Rx,0,8,00,00,00,00,9A,01,C8,00,
36263002,00000101,false,Rx,0,8,00,FF,FE,00,00,00,00,00,
36263247,00000102,false,Rx,0,8,01,90,01,00,00,01,00,00,
36284494,00000521,false,Rx,0,6,00,02,11,00,00,00,00,00,
