Time Stamp,ID,Extended,Dir,Bus,LEN,D1,D2,D3,D4,D5,D6,D7,D8
21159026,00000525,false,Rx,0,6,04,01,5E,00,00,00,00,00,
21304091,00000521,false,Rx,0,6,00,05,FB,FF,FF,FF,00,00,
21340433,00000524,false,Rx,0,6,03,0B,FB,FF,FF,FF,00,00,
21425277,00000528,false,Rx,0,6,07,08,A6,1E,00,00,00,00,
21568660,00000526,false,Rx,0,6,05,0B,02,00,00,00,00,00,
21603221,00000527,false,Rx,0,6,06,08,B6,2A,01,00,00,00,
21727965,00000522,false,Rx,0,6,01,0E,8F,B3,05,00,00,00,
21808727,00000523,false,Rx,0,6,02,0B,DF,FF,FF,FF,00,00,
21845405,00000525,false,Rx,0,6,04,02,5E,00,00,00,00,00,
21917724,00000521,false,Rx,0,6,00,06,F8,FF,FF,FF,00,00,
22008565,00000524,false,Rx,0,6,03,0C,F9,FF,FF,FF,00,00,
22166071,00000528,false,Rx,0,6,07,09,A6,1E,00,00,00,00,
22273292,00000526,false,Rx,0,6,05,0C,02,00,00,00,00,00,
22325514,00000527,false,Rx,0,6,06,09,B6,2A,01,00,00,00,
22359781,00000522,false,Rx,0,6,01,0F,9F,B3,05,00,00,00,
22458684,00000523,false,Rx,0,6,02,0C,E7,FF,FF,FF,00,00,
22531646,00000521,false,Rx,0,6,00,07,F7,FF,FF,FF,00,00,
22531867,00000525,false,Rx,0,6,04,03,5E,00,00,00,00,00,
22676687,00000524,false,Rx,0,6,03,0D,E8,FF,FF,FF,00,00,
22906858,00000528,false,Rx,0,6,07,0A,A6,1E,00,00,00,00,
22977476,00000526,false,Rx,0,6,05,0D,00,00,00,00,00,00,
22991556,00000522,false,Rx,0,6,01,00,95,B3,05,00,00,00,
23048142,00000527,false,Rx,0,6,06,0A,B6,2A,01,00,00,00,
23108647,00000523,false,Rx,0,6,02,0D,E7,FF,FF,FF,00,00,
23145310,00000521,false,Rx,0,6,00,08,F6,FF,FF,FF,00,00,
23217656,00000525,false,Rx,0,6,04,04,5F,00,00,00,00,00,
23344806,00000524,false,Rx,0,6,03,0E,F6,FF,FF,FF,00,00,
23623338,00000522,false,Rx,0,6,01,01,9B,B3,05,00,00,00,
23647637,00000528,false,Rx,0,6,07,0B,A6,1E,00,00,00,00,
23682213,00000526,false,Rx,0,6,05,0E,06,00,00,00,00,00,
23758612,00000521,false,Rx,0,6,00,09,F4,FF,FF,FF,00,00,
23758826,00000523,false,Rx,0,6,02,0E,F2,FF,FF,FF,00,00,
23770758,00000527,false,Rx,0,6,06,0B,B6,2A,01,00,00,00,
23904239,00000525,false,Rx,0,6,04,05,5F,00,00,00,00,00,
24012932,00000524,false,Rx,0,6,03,0F,ED,FF,FF,FF,00,00,
24255118,00000522,false,Rx,0,6,01,02,9B,B3,05,00,00,00,
24372198,00000521,false,Rx,0,6,00,0A,F6,FF,FF,FF,00,00,
24386699,00000526,false,Rx,0,6,05,0F,05,00,00,00,00,00,
24388927,00000528,false,Rx,0,6,07,0C,A6,1E,00,00,00,00,
24408542,00000523,false,Rx,0,6,02,0F,EE,FF,FF,FF,00,00,
24493387,00000527,false,Rx,0,6,06,0C,B6,2A,01,00,00,00,
24590226,00000525,false,Rx,0,6,04,06,5E,00,00,00,00,00,
24681054,00000524,false,Rx,0,6,03,00,F3,FF,FF,FF,00,00,
24886917,00000522,false,Rx,0,6,01,03,A6,B3,05,00,00,00,
24985824,00000521,false,Rx,0,6,00,0B,F6,FF,FF,FF,00,00,
25058503,00000523,false,Rx,0,6,02,00,EE,FF,FF,FF,00,00,
25091091,00000526,false,Rx,0,6,05,00,05,00,00,00,00,00,
25129211,00000528,false,Rx,0,6,07,0D,A6,1E,00,00,00,00,
25216004,00000527,false,Rx,0,6,06,0D,B6,2A,01,00,00,00,
25276512,00000525,false,Rx,0,6,04,07,5F,00,00,00,00,00,
25349171,00000524,false,Rx,0,6,03,01,F8,FF,FF,FF,00,00,
25518707,00000522,false,Rx,0,6,01,04,A6,B3,05,00,00,00,
25599959,00000521,false,Rx,0,6,00,0C,F9,FF,FF,FF,00,00,
25708452,00000523,false,Rx,0,6,02,01,ED,FF,FF,FF,00,00,
25795387,00000526,false,Rx,0,6,05,01,06,00,00,00,00,00,
25870277,00000528,false,Rx,0,6,07,0E,A6,1E,00,00,00,00,
25938631,00000527,false,Rx,0,6,06,0E,B6,2A,01,00,00,00,
25962807,00000525,false,Rx,0,6,04,08,5E,00,00,00,00,00,
26017301,00000524,false,Rx,0,6,03,02,E7,FF,FF,FF,00,00,
26150502,00000522,false,Rx,0,6,01,05,B5,B3,05,00,00,00,
26213079,00000521,false,Rx,0,6,00,0D,F7,FF,FF,FF,00,00,
26358420,00000523,false,Rx,0,6,02,02,ED,FF,FF,FF,00,00,
26500015,00000526,false,Rx,0,6,05,02,05,00,00,00,00,00,
26610796,00000528,false,Rx,0,6,07,0F,A6,1E,00,00,00,00,
26649096,00000525,false,Rx,0,6,04,09,5E,00,00,00,00,00,
26661242,00000527,false,Rx,0,6,06,0F,B6,2A,01,00,00,00,
26685417,00000524,false,Rx,0,6,03,03,EA,FF,FF,FF,00,00,
26782288,00000522,false,Rx,0,6,01,06,BB,B3,05,00,00,00,
26826697,00000521,false,Rx,0,6,00,0E,F8,FF,FF,FF,00,00,
27008362,00000523,false,Rx,0,6,02,03,ED,FF,FF,FF,00,00,
27204546,00000526,false,Rx,0,6,05,03,FC,FF,FF,FF,00,00,
27335380,00000525,false,Rx,0,6,04,0A,5F,00,00,00,00,00,
27351573,00000528,false,Rx,0,6,07,00,A6,1E,00,00,00,00,
27353573,00000524,false,Rx,0,6,03,04,E6,FF,FF,FF,00,00,
27384141,00000527,false,Rx,0,6,06,00,B6,2A,01,00,00,00,
27414579,00000522,false,Rx,0,6,01,07,B4,B3,05,00,00,00,
27441327,00000521,false,Rx,0,6,00,0F,F7,FF,FF,FF,00,00,
27658326,00000523,false,Rx,0,6,02,04,EE,FF,FF,FF,00,00,
27908944,00000526,false,Rx,0,6,05,04,05,00,00,00,00,00,
28022230,00000524,false,Rx,0,6,03,05,FD,FF,FF,FF,00,00,
28022458,00000525,false,Rx,0,6,04,0B,5F,00,00,00,00,00,
28045860,00000522,false,Rx,0,6,01,08,B2,B3,05,00,00,00,
28054949,00000521,false,Rx,0,6,00,00,F1,FF,FF,FF,00,00,
28092369,00000528,false,Rx,0,6,07,01,A6,1E,00,00,00,00,
28106499,00000527,false,Rx,0,6,06,01,B6,2A,01,00,00,00,
28302010,00000100,false,Rx,0,8,00,00,00,00,9A,01,C8,00,
28302263,00000101,false,Rx,0,8,00,FF,FE,00,00,00,00,00,
28302510,00000102,false,Rx,0,8,01,90,01,00,00,00,00,00,
28308283,00000523,false,Rx,0,6,02,05,E4,FF,FF,FF,00,00,
28402006,00000100,false,Rx,0,8,00,00,00,00,9A,01,C8,00,
28402259,00000101,false,Rx,0,8,00,FF,FE,00,00,00,00,00,
28402506,00000102,false,Rx,0,8,01,90,01,00,00,00,00,00,
28502004,00000100,false,Rx,0,8,00,00,00,00,9A,01,C8,00,
28502256,00000101,false,Rx,0,8,00,FF,FE,00,00,00,00,00,
28502504,00000102,false,Rx,0,8,01,90,01,00,00,00,00,00,
28601998,00000100,false,Rx,0,8,00,00,00,00,9A,01,C8,00,
28602250,00000101,false,Rx,0,8,00,FF,FE,00,00,00,00,00,
28602498,00000102,false,Rx,0,8,01,90,01,00,00,00,00,00,
28613429,00000526,false,Rx,0,6,05,05,00,00,00,00,00,00,
28668581,00000521,false,Rx,0,6,00,01,F9,FF,FF,FF,00,00,
28677649,00000522,false,Rx,0,6,01,09,B8,B3,05,00,00,00,
28689782,00000524,false,Rx,0,6,03,06,F1,FF,FF,FF,00,00,
28702002,00000100,false,Rx,0,8,00,00,00,00,9A,01,C8,00,
28702250,00000101,false,Rx,0,8,00,FF,FE,00,00,00,00,00,
28702499,00000102,false,Rx,0,8,01,90,01,00,00,00,00,00,
28707964,00000525,false,Rx,0,6,04,0C,5E,00,00,00,00,00,
28801995,00000100,false,Rx,0,8,00,00,00,00,9A,01,C8,00,
28802247,00000101,false,Rx,0,8,00,FF,FE,00,00,00,00,00,
28802495,00000102,false,Rx,0,8,01,90,01,00,00,00,00,00,
28829122,00000527,false,Rx,0,6,06,02,B6,2A,01,00,00,00,
28833167,00000528,false,Rx,0,6,07,02,A6,1E,00,00,00,00,
28901995,00000100,false,Rx,0,8,00,00,00,00,9A,01,C8,00,
28902259,00000101,false,Rx,0,8,00,FF,FE,00,00,00,00,00,
28902501,00000102,false,Rx,0,8,01,90,01,00,00,00,00,00,
28958282,00000523,false,Rx,0,6,02,06,E4,FF,FF,FF,00,00,
29001993,00000100,false,Rx,0,8,00,00,00,00,9A,01,C8,00,
29002245,00000101,false,Rx,0,8,00,FF,FE,00,00,00,00,00,
29002498,00000102,false,Rx,0,8,01,90,01,00,00,00,00,00,
29101989,00000100,false,Rx,0,8,00,00,00,00,9A,01,C8,00,
29102241,00000101,false,Rx,0,8,00,FF,FE,00,00,00,00,00,
29102498,00000102,false,Rx,0,8,01,90,01,00,00,00,00,00,
29201990,00000100,false,Rx,0,8,00,00,00,00,9A,01,C8,00,
29202242,00000101,false,Rx,0,8,00,FF,FE,00,00,00,00,00,
29202492,00000102,false,Rx,0,8,01,90,01,00,00,00,00,00,
29282205,00000521,false,Rx,0,6,00,02,FC,FF,FF,FF,00,00,
29301988,00000100,false,Rx,0,8,00,00,00,00,9A,01,C8,00,
29302235,00000101,false,Rx,0,8,00,FF,FE,00,00,00,00,00,
29302495,00000102,false,Rx,0,8,01,90,01,00,00,01,00,00,
29309442,00000522,false,Rx,0,6,01,0A,BC,B3,05,00,00,00,
29317826,00000526,false,Rx,0,6,05,06,05,00,00,00,00,00,
29357915,00000524,false,Rx,0,6,03,07,E7,FF,FF,FF,00,00,
29394253,00000525,false,Rx,0,6,04,0D,5F,00,00,00,00,00,
29401986,00000100,false,Rx,0,8,00,00,00,00,9A,01,C8,00,
29402239,00000101,false,Rx,0,8,00,FF,FE,00,00,00,00,00,
29402480,00000102,false,Rx,0,8,01,90,01,00,00,01,00,00,
29501992,00000100,false,Rx,0,8,00,00,00,00,9A,01,C8,00,
29502231,00000101,false,Rx,0,8,00,FF,FE,00,00,00,00,00,
29502491,00000102,false,Rx,0,8,01,90,01,00,00,01,00,00,
29551739,00000527,false,Rx,0,6,06,03,B6,2A,01,00,00,00,
29573944,00000528,false,Rx,0,6,07,03,A6,1E,00,00,00,00,
29601980,00000100,false,Rx,0,8,00,00,00,00,9A,01,C8,00,
29602233,00000101,false,Rx,0,8,00,FF,FE,00,00,00,00,00,
29602479,00000102,false,Rx,0,8,01,90,01,00,00,01,00,00,
29608213,00000523,false,Rx,0,6,02,07,E2,FF,FF,FF,00,00,
29701979,00000100,false,Rx,0,8,00,00,00,00,9A,01,C8,00,
29702231,00000101,false,Rx,0,8,00,FF,FE,00,00,00,00,00,
29702485,00000102,false,Rx,0,8,01,90,01,00,00,01,00,00,
29801977,00000100,false,Rx,0,8,00,00,00,00,9A,01,C8,00,
29802229,00000101,false,Rx,0,8,00,FF,FE,00,00,00,00,00,
29802483,00000102,false,Rx,0,8,01,90,01,00,00,01,00,00,
29895826,00000521,false,Rx,0,6,00,03,FA,FF,FF,FF,00,00,
29901975,00000100,false,Rx,0,8,00,00,00,00,9A,01,C8,00,
29902223,00000101,false,Rx,0,8,00,FF,FE,00,00,00,00,00,
29902483,00000102,false,Rx,0,8,01,90,01,00,00,01,00,00,
29941245,00000522,false,Rx,0,6,01,0B,C3,B3,05,00,00,00,
30001971,00000100,false,Rx,0,8,00,00,00,00,9A,01,C8,00,
30002223,00000101,false,Rx,0,8,00,FF,FE,00,00,00,00,00,
30002476,00000102,false,Rx,0,8,01,90,01,00,00,01,00,00,
30022134,00000526,false,Rx,0,6,05,07,09,00,00,00,00,00,
30026036,00000524,false,Rx,0,6,03,08,F6,FF,FF,FF,00,00,
30080551,00000525,false,Rx,0,6,04,0E,5E,00,00,00,00,00,
30101970,00000100,false,Rx,0,8,00,00,00,00,9A,01,C8,00,
30102218,00000101,false,Rx,0,8,00,FF,FE,00,00,00,00,00,
30102473,00000102,false,Rx,0,8,01,90,01,00,00,01,00,00,
30201968,00000100,false,Rx,0,8,00,00,00,00,9A,01,C8,00,
30202220,00000101,false,Rx,0,8,00,FF,FE,00,00,00,00,00,
30202475,00000102,false,Rx,0,8,01,90,01,00,00,01,00,00,
30258155,00000523,false,Rx,0,6,02,08,EE,FF,FF,FF,00,00,
30274585,00000527,false,Rx,0,6,06,04,B6,2A,01,00,00,00,
30301965,00000100,false,Rx,0,8,00,00,00,00,9A,01,C8,00,
30302216,00000101,false,Rx,0,8,00,FF,FE,00,00,00,00,00,
30302469,00000102,false,Rx,0,8,01,90,01,00,00,01,00,00,
30314752,00000528,false,Rx,0,6,07,04,A6,1E,00,00,00,00,
30401968,00000100,false,Rx,0,8,00,00,00,00,9A,01,C8,00,
30402213,00000101,false,Rx,0,8,00,FF,FE,00,00,00,00,00,
30402470,00000102,false,Rx,0,8,01,90,01,00,00,01,00,00,
30501961,00000100,false,Rx,0,8,00,00,00,00,9A,01,C8,00,
30502213,00000101,false,Rx,0,8,00,FF,FE,00,00,00,00,00,
30502462,00000102,false,Rx,0,8,01,90,01,00,00,01,00,00,
30509455,00000521,false,Rx,0,6,00,04,F8,FF,FF,FF,00,00,
30573023,00000522,false,Rx,0,6,01,0C,CE,B3,05,00,00,00,
30601958,00000100,false,Rx,0,8,00,00,00,00,9A,01,C8,00,
30602210,00000101,false,Rx,0,8,00,FF,FE,00,00,00,00,00,
30602456,00000102,false,Rx,0,8,01,90,01,00,00,01,00,00,
30694149,00000524,false,Rx,0,6,03,09,FA,FF,FF,FF,00,00,
30701961,00000100,false,Rx,0,8,00,00,00,00,9A,01,C8,00,
30702207,00000101,false,Rx,0,8,00,FF,FE,00,00,00,00,00,
30702459,00000102,false,Rx,0,8,01,90,01,00,00,01,00,00,
30726746,00000526,false,Rx,0,6,05,08,02,00,00,00,00,00,
30766825,00000525,false,Rx,0,6,04,0F,5E,00,00,00,00,00,
30801953,00000100,false,Rx,0,8,00,00,00,00,9A,01,C8,00,
30802205,00000101,false,Rx,0,8,00,FF,FE,00,00,00,00,00,
30802451,00000102,false,Rx,0,8,01,90,01,00,00,01,00,00,
30901954,00000100,false,Rx,0,8,00,00,00,00,9A,01,C8,00,
30902207,00000101,false,Rx,0,8,00,FF,FE,00,00,00,00,00,
30902451,00000102,false,Rx,0,8,01,90,01,00,00,01,00,00,
30908103,00000523,false,Rx,0,6,02,09,EE,FF,FF,FF,00,00,
30996985,00000527,false,Rx,0,6,06,05,B6,2A,01,00,00,00,
31001951,00000100,false,Rx,0,8,00,00,00,00,9A,01,C8,00,
31002203,00000101,false,Rx,0,8,00,FF,FE,00,00,00,00,00,
31002474,00000102,false,Rx,0,8,01,90,01,00,00,01,00,00,
31055530,00000528,false,Rx,0,6,07,05,A6,1E,00,00,00,00,
31101951,00000100,false,Rx,0,8,00,00,00,00,9A,01,C8,00,
31102197,00000101,false,Rx,0,8,00,FF,FE,00,00,00,00,00,
31102444,00000102,false,Rx,0,8,01,90,01,00,00,01,00,00,
31123068,00000521,false,Rx,0,6,00,05,FA,FF,FF,FF,00,00,
31201950,00000100,false,Rx,0,8,00,00,00,00,9A,01,C8,00,
31202196,00000101,false,Rx,0,8,00,FF,FE,00,00,00,00,00,
31202449,00000102,false,Rx,0,8,01,90,01,00,00,01,00,00,
31204820,00000522,false,Rx,0,6,01,0D,C9,B3,05,00,00,00,
31301949,00000100,false,Rx,0,8,00,00,00,00,9A,01,C8,00,
31302195,00000101,false,Rx,0,8,00,FF,FE,00,00,00,00,00,
31302442,00000102,false,Rx,0,8,01,90,01,00,00,01,00,00,
31362274,00000524,false,Rx,0,6,03,0A,E9,FF,FF,FF,00,00,
31401944,00000100,false,Rx,0,8,00,00,00,00,9A,01,C8,00,
31402196,00000101,false,Rx,0,8,00,FF,FE,00,00,00,00,00,
31402443,00000102,false,Rx,0,8,01,90,01,00,00,01,00,00,
31431041,00000526,false,Rx,0,6,05,09,0C,00,00,00,00,00,
31453125,00000525,false,Rx,0,6,04,00,5E,00,00,00,00,00,
31501943,00000100,false,Rx,0,8,00,00,00,00,9A,01,C8,00,
31502195,00000101,false,Rx,0,8,00,FF,FE,00,00,00,00,00,
31502442,00000102,false,Rx,0,8,01,90,01,00,00,01,00,00,
31558062,00000523,false,Rx,0,6,02,0A,E4,FF,FF,FF,00,00,
31601942,00000100,false,Rx,0,8,00,00,00,00,9A,01,C8,00,
31602188,00000101,false,Rx,0,8,00,FF,FE,00,00,00,00,00,
31602435,00000102,false,Rx,0,8,01,90,01,00,00,01,00,00,
31701936,00000100,false,Rx,0,8,00,00,00,00,9A,01,C8,00,
31702188,00000101,false,Rx,0,8,00,FF,FE,00,00,00,00,00,
31702436,00000102,false,Rx,0,8,01,90,01,00,00,01,00,00,
31719611,00000527,false,Rx,0,6,06,06,B6,2A,01,00,00,00,
31736687,00000521,false,Rx,0,6,00,06,F3,FF,FF,FF,00,00,
31796327,00000528,false,Rx,0,6,07,06,A6,1E,00,00,00,00,
31801937,00000100,false,Rx,0,8,00,00,00,00,9A,01,C8,00,
31802183,00000101,false,Rx,0,8,00,FF,FE,00,00,00,00,00,
31802436,00000102,false,Rx,0,8,01,90,01,00,00,01,00,00,
31836598,00000522,false,Rx,0,6,01,0E,CE,B3,05,00,00,00,
31901934,00000100,false,Rx,0,8,00,00,00,00,9A,01,C8,00,
31902185,00000101,false,Rx,0,8,00,FF,FE,00,00,00,00,00,
31902430,00000102,false,Rx,0,8,01,90,01,00,00,01,00,00,
32001930,00000100,false,Rx,0,8,00,00,00,00,9A,01,C8,00,
32002180,00000101,false,Rx,0,8,00,FF,FE,00,00,00,00,00,
32002425,00000102,false,Rx,0,8,01,90,01,00,00,01,00,00,
32030417,00000524,false,Rx,0,6,03,0B,EA,FF,FF,FF,00,00,
32101931,00000100,false,Rx,0,8,00,00,00,00,9A,01,C8,00,
32102176,00000101,false,Rx,0,8,00,FF,FE,00,00,00,00,00,
32102427,00000102,false,Rx,0,8,01,90,01,00,00,01,00,00,
32135691,00000526,false,Rx,0,6,05,0A,08,00,00,00,00,00,
32139414,00000525,false,Rx,0,6,04,01,5F,00,00,00,00,00,
32201929,00000100,false,Rx,0,8,00,00,00,00,9A,01,C8,00,
32202175,00000101,false,Rx,0,8,00,FF,FE,00,00,00,00,00,
32202422,00000102,false,Rx,0,8,01,90,01,00,00,01,00,00,
32208030,00000523,false,Rx,0,6,02,0B,E4,FF,FF,FF,00,00,
32301924,00000100,false,Rx,0,8,00,00,00,00,9A,01,C8,00,
32302177,00000101,false,Rx,0,8,00,FF,FE,00,00,00,00,00,
32302423,00000102,false,Rx,0,8,01,90,01,00,00,01,00,00,
32350448,00000521,false,Rx,0,6,00,07,FA,FF,FF,FF,00,00,
32401924,00000100,false,Rx,0,8,00,00,00,00,9A,01,C8,00,
32402170,00000101,false,Rx,0,8,00,FF,FE,00,00,00,00,00,
32402423,00000102,false,Rx,0,8,01,90,01,00,00,01,00,00,
32442246,00000527,false,Rx,0,6,06,07,B6,2A,01,00,00,00,
32468418,00000522,false,Rx,0,6,01,0F,CE,B3,05,00,00,00,
32501924,00000100,false,Rx,0,8,00,00,00,00,9A,01,C8,00,
32502173,00000101,false,Rx,0,8,00,FF,FE,00,00,00,00,00,
32502419,00000102,false,Rx,0,8,01,90,01,00,00,01,00,00,
32537133,00000528,false,Rx,0,6,07,07,A6,1E,00,00,00,00,
32601918,00000100,false,Rx,0,8,00,00,00,00,9A,01,C8,00,
32602181,00000101,false,Rx,0,8,00,FF,FE,00,00,00,00,00,
32602416,00000102,false,Rx,0,8,01,90,01,00,00,01,00,00,
32698541,00000524,false,Rx,0,6,03,0C,F1,FF,FF,FF,00,00,
32701913,00000100,false,Rx,0,8,00,00,00,00,9A,01,C8,00,
32702165,00000101,false,Rx,0,8,00,FF,FE,00,00,00,00,00,
32702411,00000102,false,Rx,0,8,01,90,01,00,00,01,00,00,
32801913,00000100,false,Rx,0,8,00,00,00,00,9A,01,C8,00,
32802166,00000101,false,Rx,0,8,00,FF,FE,00,00,00,00,00,
32802409,00000102,false,Rx,0,8,01,90,01,00,00,01,00,00,
32825726,00000525,false,Rx,0,6,04,02,5E,00,00,00,00,00,
32840158,00000526,false,Rx,0,6,05,0B,07,00,00,00,00,00,
32858000,00000523,false,Rx,0,6,02,0C,E4,FF,FF,FF,00,00,
32901910,00000100,false,Rx,0,8,00,00,00,00,9A,01,C8,00,
32902162,00000101,false,Rx,0,8,00,FF,FE,00,00,00,00,00,
32902408,00000102,false,Rx,0,8,01,90,01,00,00,01,00,00,
32963962,00000521,false,Rx,0,6,00,08,F3,FF,FF,FF,00,00,
33001911,00000100,false,Rx,0,8,00,00,00,00,9A,01,C8,00,
33002163,00000101,false,Rx,0,8,00,FF,FE,00,00,00,00,00,
33002409,00000102,false,Rx,0,8,01,90,01,00,00,01,00,00,
33100206,00000522,false,Rx,0,6,01,00,BD,B3,05,00,00,00,
33101911,00000100,false,Rx,0,8,00,00,00,00,9A,01,C8,00,
33102157,00000101,false,Rx,0,8,00,FF,FE,00,00,00,00,00,
33102409,00000102,false,Rx,0,8,01,90,01,00,00,01,00,00,
33164871,00000527,false,Rx,0,6,06,08,B6,2A,01,00,00,00,
33201905,00000100,false,Rx,0,8,00,00,00,00,9A,01,C8,00,
33202157,00000101,false,Rx,0,8,00,FF,FE,00,00,00,00,00,
33202409,00000102,false,Rx,0,8,01,90,01,00,00,01,00,00,
33277912,00000528,false,Rx,0,6,07,08,A6,1E,00,00,00,00,
33301901,00000100,false,Rx,0,8,00,00,00,00,9A,01,C8,00,
33302154,00000101,false,Rx,0,8,00,FF,FE,00,00,00,00,00,
33302400,00000102,false,Rx,0,8,01,90,01,00,00,01,00,00,
33366681,00000524,false,Rx,0,6,03,0D,F0,FF,FF,FF,00,00,
33401905,00000100,false,Rx,0,8,00,00,00,00,9A,01,C8,00,
33402151,00000101,false,Rx,0,8,00,FF,FE,00,00,00,00,00,
33402398,00000102,false,Rx,0,8,01,90,01,00,00,01,00,00,
33501898,00000100,false,Rx,0,8,00,00,00,00,9A,01,C8,00,
33502150,00000101,false,Rx,0,8,00,FF,FE,00,00,00,00,00,
33502398,00000102,false,Rx,0,8,01,90,01,00,00,01,00,00,
33507945,00000523,false,Rx,0,6,02,0D,E9,FF,FF,FF,00,00,
33512004,00000525,false,Rx,0,6,04,03,5E,00,00,00,00,00,
33544584,00000526,false,Rx,0,6,05,0C,FF,FF,FF,FF,00,00,
33577587,00000521,false,Rx,0,6,00,09,F5,FF,FF,FF,00,00,
33601898,00000100,false,Rx,0,8,00,00,00,00,9A,01,C8,00,
33602144,00000101,false,Rx,0,8,00,FF,FE,00,00,00,00,00,
33602398,00000102,false,Rx,0,8,01,90,01,00,00,01,00,00,
33701896,00000100,false,Rx,0,8,00,00,00,00,9A,01,C8,00,
33702142,00000101,false,Rx,0,8,00,FF,FE,00,00,00,00,00,
33702395,00000102,false,Rx,0,8,01,90,01,00,00,01,00,00,
33731994,00000522,false,Rx,0,6,01,01,D9,B3,05,00,00,00,
33801892,00000100,false,Rx,0,8,00,00,00,00,9A,01,C8,00,
33802145,00000101,false,Rx,0,8,00,FF,FE,00,00,00,00,00,
33802392,00000102,false,Rx,0,8,01,90,01,00,00,01,00,00,
33887507,00000527,false,Rx,0,6,06,09,B6,2A,01,00,00,00,
33901889,00000100,false,Rx,0,8,00,00,00,00,9A,01,C8,00,
33902144,00000101,false,Rx,0,8,00,FF,FE,00,00,00,00,00,
33902391,00000102,false,Rx,0,8,01,90,01,00,00,01,00,00,
34001886,00000100,false,Rx,0,8,00,00,00,00,9A,01,C8,00,
34002139,00000101,false,Rx,0,8,00,FF,FE,00,00,00,00,00,
34002385,00000102,false,Rx,0,8,01,90,01,00,00,01,00,00,
34018707,00000528,false,Rx,0,6,07,09,A6,1E,00,00,00,00,
34034802,00000524,false,Rx,0,6,03,0E,F0,FF,FF,FF,00,00,
34101886,00000100,false,Rx,0,8,00,00,00,00,9A,01,C8,00,
34102139,00000101,false,Rx,0,8,00,FF,FE,00,00,00,00,00,
34102385,00000102,false,Rx,0,8,01,90,01,00,00,01,00,00,
34157913,00000523,false,Rx,0,6,02,0E,EF,FF,FF,FF,00,00,
34191216,00000521,false,Rx,0,6,00,0A,FB,FF,FF,FF,00,00,
34198297,00000525,false,Rx,0,6,04,04,5E,00,00,00,00,00,
34201883,00000100,false,Rx,0,8,00,00,00,00,9A,01,C8,00,
34202137,00000101,false,Rx,0,8,00,FF,FE,00,00,00,00,00,
34202384,00000102,false,Rx,0,8,01,90,01,00,00,01,00,00,
34248888,00000526,false,Rx,0,6,05,0D,09,00,00,00,00,00,
34301884,00000100,false,Rx,0,8,00,00,00,00,9A,01,C8,00,
34302129,00000101,false,Rx,0,8,00,FF,FE,00,00,00,00,00,
34302382,00000102,false,Rx,0,8,01,90,01,00,00,01,00,00,
34363783,00000522,false,Rx,0,6,01,02,E8,B3,05,00,00,00,
34401881,00000100,false,Rx,0,8,00,00,00,00,9A,01,C8,00,
34402140,00000101,false,Rx,0,8,00,FF,FE,00,00,00,00,00,
34402375,00000102,false,Rx,0,8,01,90,01,00,00,01,00,00,
34501880,00000100,false,Rx,0,8,00,00,00,00,9A,01,C8,00,
34502126,00000101,false,Rx,0,8,00,FF,FE,00,00,00,00,00,
34502376,00000102,false,Rx,0,8,01,90,01,00,00,01,00,00,
34601879,00000100,false,Rx,0,8,00,00,00,00,9A,01,C8,00,
34602125,00000101,false,Rx,0,8,00,FF,FE,00,00,00,00,00,
34602375,00000102,false,Rx,0,8,01,90,01,00,00,01,00,00,
34610102,00000527,false,Rx,0,6,06,0A,B6,2A,01,00,00,00,
34701876,00000100,false,Rx,0,8,00,00,00,00,9A,01,C8,00,
34702122,00000101,false,Rx,0,8,00,FF,FE,00,00,00,00,00,
34702373,00000102,false,Rx,0,8,01,90,01,00,00,01,00,00,
34702897,00000524,false,Rx,0,6,03,0F,E6,FF,FF,FF,00,00,
34759481,00000528,false,Rx,0,6,07,0A,A6,1E,00,00,00,00,
34801874,00000100,false,Rx,0,8,00,00,00,00,9A,01,C8,00,
34802119,00000101,false,Rx,0,8,00,FF,FE,00,00,00,00,00,
34802372,00000102,false,Rx,0,8,01,90,01,00,00,01,00,00,
34805225,00000521,false,Rx,0,6,00,0B,F5,FF,FF,FF,00,00,
34807862,00000523,false,Rx,0,6,02,0F,EF,FF,FF,FF,00,00,
34884572,00000525,false,Rx,0,6,04,05,5E,00,00,00,00,00,
34901870,00000100,false,Rx,0,8,00,00,00,00,9A,01,C8,00,
34902122,00000101,false,Rx,0,8,00,FF,FE,00,00,00,00,00,
34902368,00000102,false,Rx,0,8,01,90,01,00,00,01,00,00,
34953534,00000526,false,Rx,0,6,05,0E,06,00,00,00,00,00,
34995551,00000522,false,Rx,0,6,01,03,D5,B3,05,00,00,00,
35001871,00000100,false,Rx,0,8,00,00,00,00,9A,01,C8,00,
35002116,00000101,false,Rx,0,8,00,FF,FE,00,00,00,00,00,
35002376,00000102,false,Rx,0,8,01,90,01,00,00,01,00,00,
35101864,00000100,false,Rx,0,8,00,00,00,00,9A,01,C8,00,
35102116,00000101,false,Rx,0,8,00,FF,FE,00,00,00,00,00,
35102362,00000102,false,Rx,0,8,01,90,01,00,00,01,00,00,
35201862,00000100,false,Rx,0,8,00,00,00,00,9A,01,C8,00,
35202114,00000101,false,Rx,0,8,00,FF,FE,00,00,00,00,00,
35202361,00000102,false,Rx,0,8,01,90,01,00,00,01,00,00,
35301860,00000100,false,Rx,0,8,00,00,00,00,9A,01,C8,00,
35302112,00000101,false,Rx,0,8,00,FF,FE,00,00,00,00,00,
35302358,00000102,false,Rx,0,8,01,90,01,00,00,01,00,00,
35332707,00000527,false,Rx,0,6,06,0B,B6,2A,01,00,00,00,
35371017,00000524,false,Rx,0,6,03,00,EB,FF,FF,FF,00,00,
35401858,00000100,false,Rx,0,8,00,00,00,00,9A,01,C8,00,
35402113,00000101,false,Rx,0,8,00,FF,FE,00,00,00,00,00,
35402361,00000102,false,Rx,0,8,01,90,01,00,00,01,00,00,
35418423,00000521,false,Rx,0,6,00,0C,F6,FF,FF,FF,00,00,
35457800,00000523,false,Rx,0,6,02,00,E5,FF,FF,FF,00,00,
35500253,00000528,false,Rx,0,6,07,0B,A6,1E,00,00,00,00,
35501860,00000100,false,Rx,0,8,00,00,00,00,9A,01,C8,00,
35502111,00000101,false,Rx,0,8,00,FF,FE,00,00,00,00,00,
35502358,00000102,false,Rx,0,8,01,90,01,00,00,01,00,00,
35570843,00000525,false,Rx,0,6,04,06,5E,00,00,00,00,00,
35601853,00000100,false,Rx,0,8,00,00,00,00,9A,01,C8,00,
35602108,00000101,false,Rx,0,8,00,FF,FE,00,00,00,00,00,
35602355,00000102,false,Rx,0,8,01,90,01,00,00,01,00,00,
35627326,00000522,false,Rx,0,6,01,04,D5,B3,05,00,00,00,
35657655,00000526,false,Rx,0,6,05,0F,00,00,00,00,00,00,
35701855,00000100,false,Rx,0,8,00,00,00,00,9A,01,C8,00,
35702104,00000101,false,Rx,0,8,00,FF,FE,00,00,00,00,00,
35702352,00000102,false,Rx,0,8,01,90,01,00,00,01,00,00,
35801853,00000100,false,Rx,0,8,00,00,00,00,9A,01,C8,00,
35802099,00000101,false,Rx,0,8,00,FF,FE,00,00,00,00,00,
35802352,00000102,false,Rx,0,8,01,90,01,00,00,01,00,00,
35901850,00000100,false,Rx,0,8,00,00,00,00,9A,01,C8,00,
35902114,00000101,false,Rx,0,8,00,FF,FE,00,00,00,00,00,
35902349,00000102,false,Rx,0,8,01,90,01,00,00,01,00,00,
36001848,00000100,false,Rx,0,8,00,00,00,00,9A,01,C8,00,
36002101,00000101,false,Rx,0,8,00,FF,FE,00,00,00,00,00,
36002344,00000102,false,Rx,0,8,01,90,01,00,00,01,00,00,
36032033,00000521,false,Rx,0,6,00,0D,F8,FF,FF,FF,00,00,
36039114,00000524,false,Rx,0,6,03,01,F2,FF,FF,FF,00,00,
36055319,00000527,false,Rx,0,6,06,0C,B6,2A,01,00,00,00,
36101843,00000100,false,Rx,0,8,00,00,00,00,9A,01,C8,00,
36102096,00000101,false,Rx,0,8,00,FF,FE,00,00,00,00,00,
36102342,00000102,false,Rx,0,8,01,90,01,00,00,01,00,00,
36107740,00000523,false,Rx,0,6,02,01,ED,FF,FF,FF,00,00,
36201847,00000100,false,Rx,0,8,00,00,00,00,9A,01,C8,00,
36202092,00000101,false,Rx,0,8,00,FF,FE,00,00,00,00,00,
36202342,00000102,false,Rx,0,8,01,90,01,00,00,01,00,00,
36241035,00000528,false,Rx,0,6,07,0C,A6,1E,00,00,00,00,
36257137,00000525,false,Rx,0,6,04,07,5F,00,00,00,00,00,
36259119,00000522,false,Rx,0,6,01,05,E0,B3,05,00,00,00,
36301843,00000100,false,Rx,0,8,00,00,00,00,9A,01,C8,00,
36302089,00000101,false,Rx,0,8,00,FF,FE,00,00,00,00,00,
36302337,00000102,false,Rx,0,8,01,90,01,00,00,01,00,00,
36362389,00000526,false,Rx,0,6,05,00,06,00,00,00,00,00,
36401839,00000100,false,Rx,0,8,00,00,00,00,9A,01,C8,00,
36402091,00000101,false,Rx,0,8,00,FF,FE,00,00,00,00,00,
36402337,00000102,false,Rx,0,8,01,90,01,00,00,01,00,00,
36501838,00000100,false,Rx,0,8,00,00,00,00,9A,01,C8,00,
36502084,00000101,false,Rx,0,8,00,FF,FE,00,00,00,00,00,
36502339,00000102,false,Rx,0,8,01,90,01,00,00,01,00,00,
36601833,00000100,false,Rx,0,8,00,00,00,00,9A,01,C8,00,
36602085,00000101,false,Rx,0,8,00,FF,FE,00,00,00,00,00,
36602333,00000102,false,Rx,0,8,01,90,01,00,00,01,00,00,
36645658,00000521,false,Rx,0,6,00,0E,FA,FF,FF,FF,00,00,
36701832,00000100,false,Rx,0,8,00,00,00,00,9A,01,C8,00,
36702084,00000101,false,Rx,0,8,00,FF,FE,00,00,00,00,00,
36702330,00000102,false,Rx,0,8,01,90,01,00,00,01,00,00,
36707240,00000524,false,Rx,0,6,03,02,EE,FF,FF,FF,00,00,
36757693,00000523,false,Rx,0,6,02,02,ED,FF,FF,FF,00,00,
36777951,00000527,false,Rx,0,6,06,0D,B6,2A,01,00,00,00,
36801831,00000100,false,Rx,0,8,00,00,00,00,9A,01,C8,00,
36802083,00000101,false,Rx,0,8,00,FF,FE,00,00,00,00,00,
36802330,00000102,false,Rx,0,8,01,90,01,00,00,01,00,00,
36891288,00000522,false,Rx,0,6,01,06,EA,B3,05,00,00,00,
36901826,00000100,false,Rx,0,8,00,00,00,00,9A,01,C8,00,
36902078,00000101,false,Rx,0,8,00,FF,FE,00,00,00,00,00,
36902324,00000102,false,Rx,0,8,01,90,01,00,00,01,00,00,
36943417,00000525,false,Rx,0,6,04,08,5E,00,00,00,00,00,
36982140,00000528,false,Rx,0,6,07,0D,A6,1E,00,00,00,00,
37001825,00000100,false,Rx,0,8,00,00,00,00,9A,01,C8,00,
37002077,00000101,false,Rx,0,8,00,FF,FE,00,00,00,00,00,
37002324,00000102,false,Rx,0,8,01,90,01,00,00,01,00,00,
37066855,00000526,false,Rx,0,6,05,01,04,00,00,00,00,00,
37101824,00000100,false,Rx,0,8,00,00,00,00,9A,01,C8,00,
37102076,00000101,false,Rx,0,8,00,FF,FE,00,00,00,00,00,
37102324,00000102,false,Rx,0,8,01,90,01,00,00,01,00,00,
37201819,00000100,false,Rx,0,8,00,00,00,00,9A,01,C8,00,
37202071,00000101,false,Rx,0,8,00,FF,FE,00,00,00,00,00,
37202318,00000102,false,Rx,0,8,01,90,01,00,00,01,00,00,
37259287,00000521,false,Rx,0,6,00,0F,FC,FF,FF,FF,00,00,
37301822,00000100,false,Rx,0,8,00,00,00,00,9A,01,C8,00,
37302068,00000101,false,Rx,0,8,00,FF,FE,00,00,00,00,00,
37302321,00000102,false,Rx,0,8,01,90,01,00,00,01,00,00,
37375397,00000524,false,Rx,0,6,03,03,F8,FF,FF,FF,00,00,
37401816,00000100,false,Rx,0,8,00,00,00,00,9A,01,C8,00,
37402068,00000101,false,Rx,0,8,00,FF,FE,00,00,00,00,00,
37402314,00000102,false,Rx,0,8,01,90,01,00,00,01,00,00,
37407652,00000523,false,Rx,0,6,02,03,E4,FF,FF,FF,00,00,
37500566,00000527,false,Rx,0,6,06,0E,B6,2A,01,00,00,00,
37501819,00000100,false,Rx,0,8,00,00,00,00,9A,01,C8,00,
37502064,00000101,false,Rx,0,8,00,FF,FE,00,00,00,00,00,
37502311,00000102,false,Rx,0,8,01,90,01,00,00,01,00,00,
37522703,00000522,false,Rx,0,6,01,07,D8,B3,05,00,00,00,
37601815,00000100,false,Rx,0,8,00,00,00,00,9A,01,C8,00,
37602060,00000101,false,Rx,0,8,00,FF,FE,00,00,00,00,00,
37602313,00000102,false,Rx,0,8,01,90,01,00,00,01,00,00,
37629717,00000525,false,Rx,0,6,04,09,5E,00,00,00,00,00,
37701810,00000100,false,Rx,0,8,00,00,00,00,9A,01,C8,00,
37702062,00000101,false,Rx,0,8,00,FF,FE,00,00,00,00,00,
37702308,00000102,false,Rx,0,8,01,90,01,00,00,01,00,00,
37722609,00000528,false,Rx,0,6,07,0E,A6,1E,00,00,00,00,
37771023,00000526,false,Rx,0,6,05,02,00,00,00,00,00,00,
37801813,00000100,false,Rx,0,8,00,00,00,00,9A,01,C8,00,
37802061,00000101,false,Rx,0,8,00,FF,FE,00,00,00,00,00,
37802308,00000102,false,Rx,0,8,01,90,01,00,00,01,00,00,
37872920,00000521,false,Rx,0,6,00,00,F5,FF,FF,FF,00,00,
37901806,00000100,false,Rx,0,8,00,00,00,00,9A,01,C8,00,
37902054,00000101,false,Rx,0,8,00,FF,FE,00,00,00,00,00,
37902307,00000102,false,Rx,0,8,01,90,01,00,00,01,00,00,
38001808,00000100,false,Rx,0,8,00,00,00,00,9A,01,C8,00,
38002054,00000101,false,Rx,0,8,00,FF,FE,00,00,00,00,00,
38002306,00000102,false,Rx,0,8,01,90,01,00,00,01,00,00,
38043498,00000524,false,Rx,0,6,03,04,E8,FF,FF,FF,00,00,
38057612,00000523,false,Rx,0,6,02,04,EF,FF,FF,FF,00,00,
38101801,00000100,false,Rx,0,8,00,00,00,00,9A,01,C8,00,
38102056,00000101,false,Rx,0,8,00,FF,FE,00,00,00,00,00,
38102303,00000102,false,Rx,0,8,01,90,01,00,00,01,00,00,
38154494,00000522,false,Rx,0,6,01,08,F4,B3,05,00,00,00,
38201801,00000100,false,Rx,0,8,00,00,00,00,9A,01,C8,00,
38202067,00000101,false,Rx,0,8,00,FF,FE,00,00,00,00,00,
38202303,00000102,false,Rx,0,8,01,90,01,00,00,01,00,00,
38223473,00000527,false,Rx,0,6,06,0F,B6,2A,01,00,00,00,
38301801,00000100,false,Rx,0,8,00,00,00,00,9A,01,C8,00,
38302047,00000101,false,Rx,0,8,00,FF,FE,00,00,00,00,00,
38302298,00000102,false,Rx,0,8,01,90,01,00,00,01,00,00,
38316010,00000525,false,Rx,0,6,04,0A,5E,00,00,00,00,00,
38401800,00000100,false,Rx,0,8,00,00,00,00,9A,01,C8,00,
38402046,00000101,false,Rx,0,8,00,FF,FE,00,00,00,00,00,
38402297,00000102,false,Rx,0,8,01,90,01,00,00,01,00,00,
38463407,00000528,false,Rx,0,6,07,0F,A6,1E,00,00,00,00,
38475584,00000526,false,Rx,0,6,05,03,03,00,00,00,00,00,
38486541,00000521,false,Rx,0,6,00,01,FA,FF,FF,FF,00,00,
38501797,00000100,false,Rx,0,8,00,00,00,00,9A,01,C8,00,
38502043,00000101,false,Rx,0,8,00,FF,FE,00,00,00,00,00,
38502298,00000102,false,Rx,0,8,01,90,01,00,00,01,00,00,
38601794,00000100,false,Rx,0,8,00,00,00,00,9A,01,C8,00,
38602046,00000101,false,Rx,0,8,00,FF,FE,00,00,00,00,00,
38602291,00000102,false,Rx,0,8,01,90,01,00,00,01,00,00,
38701789,00000100,false,Rx,0,8,00,00,00,00,9A,01,C8,00,
38702041,00000101,false,Rx,0,8,00,FF,FE,00,00,00,00,00,
38702290,00000102,false,Rx,0,8,01,90,01,00,00,01,00,00,
38707609,00000523,false,Rx,0,6,02,05,EF,FF,FF,FF,00,00,
38711612,00000524,false,Rx,0,6,03,05,E6,FF,FF,FF,00,00,
38786279,00000522,false,Rx,0,6,01,09,F5,B3,05,00,00,00,
38801785,00000100,false,Rx,0,8,00,00,00,00,9A,01,C8,00,
38802038,00000101,false,Rx,0,8,00,FF,FE,00,00,00,00,00,
38802289,00000102,false,Rx,0,8,01,90,01,00,00,01,00,00,
38901784,00000100,false,Rx,0,8,00,00,00,00,9A,01,C8,00,
38902036,00000101,false,Rx,0,8,00,FF,FE,00,00,00,00,00,
38902288,00000102,false,Rx,0,8,01,90,01,00,00,01,00,00,
38946034,00000527,false,Rx,0,6,06,00,B6,2A,01,00,00,00,
39001783,00000100,false,Rx,0,8,00,00,00,00,9A,01,C8,00,
39002036,00000101,false,Rx,0,8,00,FF,FE,00,00,00,00,00,
39002288,00000102,false,Rx,0,8,01,90,01,00,00,01,00,00,
39002498,00000525,false,Rx,0,6,04,0B,5E,00,00,00,00,00,
39100148,00000521,false,Rx,0,6,00,02,F9,FF,FF,FF,00,00,
39101786,00000100,false,Rx,0,8,00,00,00,00,9A,01,C8,00,
39102035,00000101,false,Rx,0,8,00,FF,FE,00,00,00,00,00,
39102287,00000102,false,Rx,0,8,01,90,01,00,00,01,00,00,
39180202,00000526,false,Rx,0,6,05,04,06,00,00,00,00,00,
39201782,00000100,false,Rx,0,8,00,00,00,00,9A,01,C8,00,
39202031,00000101,false,Rx,0,8,00,FF,FE,00,00,00,00,00,
39202276,00000102,false,Rx,0,8,01,90,01,00,00,01,00,00,
39204183,00000528,false,Rx,0,6,07,00,A6,1E,00,00,00,00,
39301782,00000100,false,Rx,0,8,00,00,00,00,9A,01,C8,00,
39302027,00000101,false,Rx,0,8,00,FF,FE,00,00,00,00,00,
39302281,00000102,false,Rx,0,8,01,90,01,00,00,01,00,00,
39357507,00000523,false,Rx,0,6,02,06,EA,FF,FF,FF,00,00,
39379732,00000524,false,Rx,0,6,03,06,F6,FF,FF,FF,00,00,
39401774,00000100,false,Rx,0,8,00,00,00,00,9A,01,C8,00,
39402025,00000101,false,Rx,0,8,00,FF,FE,00,00,00,00,00,
39402272,00000102,false,Rx,0,8,01,90,01,00,00,01,00,00,
39418061,00000522,false,Rx,0,6,01,0A,F4,B3,05,00,00,00,
39501772,00000100,false,Rx,0,8,00,00,00,00,9A,01,C8,00,
39502025,00000101,false,Rx,0,8,00,FF,FE,00,00,00,00,00,
39502274,00000102,false,Rx,0,8,01,90,01,00,00,01,00,00,
39601773,00000100,false,Rx,0,8,00,00,00,00,9A,01,C8,00,
39602025,00000101,false,Rx,0,8,00,FF,FE,00,00,00,00,00,
39602274,00000102,false,Rx,0,8,01,90,01,00,00,01,00,00,
39668423,00000527,false,Rx,0,6,06,01,B6,2A,01,00,00,00,
39688557,00000525,false,Rx,0,6,04,0C,5E,00,00,00,00,00,
39701770,00000100,false,Rx,0,8,00,00,00,00,9A,01,C8,00,
39702023,00000101,false,Rx,0,8,00,FF,FE,00,00,00,00,00,
39702272,00000102,false,Rx,0,8,01,90,01,00,00,01,00,00,
39713769,00000521,false,Rx,0,6,00,03,FB,FF,FF,FF,00,00,
39801770,00000100,false,Rx,0,8,00,00,00,00,9A,01,C8,00,
39802016,00000101,false,Rx,0,8,00,FF,FE,00,00,00,00,00,
39802266,00000102,false,Rx,0,8,01,90,01,00,00,01,00,00,
39884480,00000526,false,Rx,0,6,05,05,04,00,00,00,00,00,
39901764,00000100,false,Rx,0,8,00,00,00,00,9A,01,C8,00,
39902016,00000101,false,Rx,0,8,00,FF,FE,00,00,00,00,00,
39902268,00000102,false,Rx,0,8,01,90,01,00,00,01,00,00,
39944960,00000528,false,Rx,0,6,07,01,A6,1E,00,00,00,00,
40001762,00000100,false,Rx,0,8,00,00,00,00,9A,01,C8,00,
40002014,00000101,false,Rx,0,8,00,FF,FE,00,00,00,00,00,
40002264,00000102,false,Rx,0,8,01,90,01,00,00,01,00,00,
40007472,00000523,false,Rx,0,6,02,07,EA,FF,FF,FF,00,00,
40047831,00000524,false,Rx,0,6,03,07,05,00,00,00,00,00,
40049831,00000522,false,Rx,0,6,01,0B,F5,B3,05,00,00,00,
40101763,00000100,false,Rx,0,8,00,00,00,00,9A,01,C8,00,
40102015,00000101,false,Rx,0,8,00,FF,FE,00,00,00,00,00,
40102276,00000102,false,Rx,0,8,01,90,01,00,00,01,00,00,
40201758,00000100,false,Rx,0,8,00,00,00,00,9A,01,C8,00,
40202011,00000101,false,Rx,0,8,00,FF,FE,00,00,00,00,00,
40202256,00000102,false,Rx,0,8,01,90,01,00,00,01,00,00,
40301760,00000100,false,Rx,0,8,00,00,00,00,9A,01,C8,00,
40302006,00000101,false,Rx,0,8,00,FF,FE,00,00,00,00,00,
40302259,00000102,false,Rx,0,8,01,90,01,00,00,01,00,00,
40327371,00000521,false,Rx,0,6,00,04,F8,FF,FF,FF,00,00,
40374839,00000525,false,Rx,0,6,04,0D,5E,00,00,00,00,00,
40391025,00000527,false,Rx,0,6,06,02,B6,2A,01,00,00,00,
40401757,00000100,false,Rx,0,8,00,00,00,00,9A,01,C8,00,
40402003,00000101,false,Rx,0,8,00,FF,FE,00,00,00,00,00,
40402255,00000102,false,Rx,0,8,01,90,01,00,00,01,00,00,
40501750,00000100,false,Rx,0,8,00,00,00,00,9A,01,C8,00,
40502001,00000101,false,Rx,0,8,00,FF,FE,00,00,00,00,00,
40502253,00000102,false,Rx,0,8,01,90,01,00,00,01,00,00,
40589120,00000526,false,Rx,0,6,05,06,08,00,00,00,00,00,
40601750,00000100,false,Rx,0,8,00,00,00,00,9A,01,C8,00,
40602005,00000101,false,Rx,0,8,00,FF,FE,00,00,00,00,00,
40602251,00000102,false,Rx,0,8,01,90,01,00,00,01,00,00,
40657419,00000523,false,Rx,0,6,02,08,EA,FF,FF,FF,00,00,
40681608,00000522,false,Rx,0,6,01,0C,F2,B3,05,00,00,00,
40685732,00000528,false,Rx,0,6,07,02,A6,1E,00,00,00,00,
40701751,00000100,false,Rx,0,8,00,00,00,00,9A,01,C8,00,
40701998,00000101,false,Rx,0,8,00,FF,FE,00,00,00,00,00,
40702250,00000102,false,Rx,0,8,01,90,01,00,00,01,00,00,
40715953,00000524,false,Rx,0,6,03,08,E0,FF,FF,FF,00,00,
40801746,00000100,false,Rx,0,8,00,00,00,00,9A,01,C8,00,
40801999,00000101,false,Rx,0,8,00,FF,FE,00,00,00,00,00,
40802245,00000102,false,Rx,0,8,01,90,01,00,00,01,00,00,
40901748,00000100,false,Rx,0,8,00,00,00,00,9A,01,C8,00,
40901994,00000101,false,Rx,0,8,00,FF,FE,00,00,00,00,00,
40902247,00000102,false,Rx,0,8,01,90,01,00,00,01,00,00,
40940992,00000521,false,Rx,0,6,00,05,FA,FF,FF,FF,00,00,
41001742,00000100,false,Rx,0,8,00,00,00,00,9A,01,C8,00,
41001994,00000101,false,Rx,0,8,00,FF,FE,00,00,00,00,00,
41002240,00000102,false,Rx,0,8,01,90,01,00,00,01,00,00,
41061121,00000525,false,Rx,0,6,04,0E,5E,00,00,00,00,00,
41101745,00000100,false,Rx,0,8,00,00,00,00,9A,01,C8,00,
41102005,00000101,false,Rx,0,8,00,FF,FE,00,00,00,00,00,
41102240,00000102,false,Rx,0,8,01,90,01,00,00,01,00,00,
41113646,00000527,false,Rx,0,6,06,03,B6,2A,01,00,00,00,
41201739,00000100,false,Rx,0,8,00,00,00,00,9A,01,C8,00,
41201991,00000101,false,Rx,0,8,00,FF,FE,00,00,00,00,00,
41202240,00000102,false,Rx,0,8,01,90,01,00,00,01,00,00,
41293563,00000526,false,Rx,0,6,05,07,02,00,00,00,00,00,
41301738,00000100,false,Rx,0,8,00,00,00,00,9A,01,C8,00,
41301991,00000101,false,Rx,0,8,00,FF,FE,00,00,00,00,00,
41302236,00000102,false,Rx,0,8,01,90,01,00,00,01,00,00,
41307357,00000523,false,Rx,0,6,02,09,F2,FF,FF,FF,00,00,
41313404,00000522,false,Rx,0,6,01,0D,EE,B3,05,00,00,00,
41384065,00000524,false,Rx,0,6,03,09,F9,FF,FF,FF,00,00,
41401732,00000100,false,Rx,0,8,00,00,00,00,9A,01,C8,00,
41401985,00000101,false,Rx,0,8,00,FF,FE,00,00,00,00,00,
41402236,00000102,false,Rx,0,8,01,90,01,00,00,01,00,00,
41426524,00000528,false,Rx,0,6,07,03,A6,1E,00,00,00,00,
41501732,00000100,false,Rx,0,8,00,00,00,00,9A,01,C8,00,
41501984,00000101,false,Rx,0,8,00,FF,FE,00,00,00,00,00,
41502233,00000102,false,Rx,0,8,01,90,01,00,00,01,00,00,
41554744,00000521,false,Rx,0,6,00,06,F8,FF,FF,FF,00,00,
41601731,00000100,false,Rx,0,8,00,00,00,00,9A,01,C8,00,
41601983,00000101,false,Rx,0,8,00,FF,FE,00,00,00,00,00,
41602228,00000102,false,Rx,0,8,01,90,01,00,00,01,00,00,
41701733,00000100,false,Rx,0,8,00,00,00,00,9A,01,C8,00,
41701978,00000101,false,Rx,0,8,00,FF,FE,00,00,00,00,00,
41702232,00000102,false,Rx,0,8,01,90,01,00,00,01,00,00,
41747416,00000525,false,Rx,0,6,04,0F,5E,00,00,00,00,00,
41801728,00000100,false,Rx,0,8,00,00,00,00,9A,01,C8,00,
41801980,00000101,false,Rx,0,8,00,FF,FE,00,00,00,00,00,
41802226,00000102,false,Rx,0,8,01,90,01,00,00,01,00,00,
41836270,00000527,false,Rx,0,6,06,04,B6,2A,01,00,00,00,
41901726,00000100,false,Rx,0,8,00,00,00,00,9A,01,C8,00,
41901972,00000101,false,Rx,0,8,00,FF,FE,00,00,00,00,00,
41902224,00000102,false,Rx,0,8,01,90,01,00,00,01,00,00,
41945199,00000522,false,Rx,0,6,01,0E,F3,B3,05,00,00,00,
41957326,00000523,false,Rx,0,6,02,0A,FB,FF,FF,FF,00,00,
41997990,00000526,false,Rx,0,6,05,08,09,00,00,00,00,00,
42001721,00000100,false,Rx,0,8,00,00,00,00,9A,01,C8,00,
42001973,00000101,false,Rx,0,8,00,FF,FE,00,00,00,00,00,
42002219,00000102,false,Rx,0,8,01,90,01,00,00,01,00,00,
42052194,00000524,false,Rx,0,6,03,0A,F2,FF,FF,FF,00,00,
42101721,00000100,false,Rx,0,8,00,00,00,00,9A,01,C8,00,
42101973,00000101,false,Rx,0,8,00,FF,FE,00,00,00,00,00,
42102219,00000102,false,Rx,0,8,01,90,01,00,00,01,00,00,
42167542,00000528,false,Rx,0,6,07,04,A6,1E,00,00,00,00,
42168511,00000521,false,Rx,0,6,00,07,F8,FF,FF,FF,00,00,
42201717,00000100,false,Rx,0,8,00,00,00,00,9A,01,C8,00,
42201969,00000101,false,Rx,0,8,00,FF,FE,00,00,00,00,00,
42202214,00000102,false,Rx,0,8,01,90,01,00,00,01,00,00,
42301717,00000100,false,Rx,0,8,00,00,00,00,9A,01,C8,00,
42301969,00000101,false,Rx,0,8,00,FF,FE,00,00,00,00,00,
42302215,00000102,false,Rx,0,8,01,90,01,00,00,01,00,00,
42401713,00000100,false,Rx,0,8,00,00,00,00,9A,01,C8,00,
42401965,00000101,false,Rx,0,8,00,FF,FE,00,00,00,00,00,
42402211,00000102,false,Rx,0,8,01,90,01,00,00,01,00,00,
42433721,00000525,false,Rx,0,6,04,00,5E,00,00,00,00,00,
42501714,00000100,false,Rx,0,8,00,00,00,00,9A,01,C8,00,
42501960,00000101,false,Rx,0,8,00,FF,FE,00,00,00,00,00,
42502212,00000102,false,Rx,0,8,01,90,01,00,00,01,00,00,
42558905,00000527,false,Rx,0,6,06,05,B6,2A,01,00,00,00,
42577005,00000522,false,Rx,0,6,01,0F,F8,B3,05,00,00,00,
42601712,00000100,false,Rx,0,8,00,00,00,00,9A,01,C8,00,
42601963,00000101,false,Rx,0,8,00,FF,FE,00,00,00,00,00,
42602209,00000102,false,Rx,0,8,01,90,01,00,00,01,00,00,
42607298,00000523,false,Rx,0,6,02,0B,FB,FF,FF,FF,00,00,
42701707,00000100,false,Rx,0,8,00,00,00,00,9A,01,C8,00,
42701959,00000101,false,Rx,0,8,00,FF,FE,00,00,00,00,00,
42702206,00000102,false,Rx,0,8,01,90,01,00,00,01,00,00,
42702409,00000526,false,Rx,0,6,05,09,08,00,00,00,00,00,
42720339,00000524,false,Rx,0,6,03,0B,F2,FF,FF,FF,00,00,
42781879,00000521,false,Rx,0,6,00,08,F6,FF,FF,FF,00,00,
42801704,00000100,false,Rx,0,8,00,00,00,00,9A,01,C8,00,
42801960,00000101,false,Rx,0,8,00,FF,FE,00,00,00,00,00,
42802206,00000102,false,Rx,0,8,01,90,01,00,00,01,00,00,
42901708,00000100,false,Rx,0,8,00,00,00,00,9A,01,C8,00,
42901954,00000101,false,Rx,0,8,00,FF,FE,00,00,00,00,00,
42902206,00000102,false,Rx,0,8,01,90,01,00,00,01,00,00,
42908108,00000528,false,Rx,0,6,07,05,A6,1E,00,00,00,00,
43001704,00000100,false,Rx,0,8,00,00,00,00,9A,01,C8,00,
43001950,00000101,false,Rx,0,8,00,FF,FE,00,00,00,00,00,
43002199,00000102,false,Rx,0,8,01,90,01,00,00,01,00,00,
43101702,00000100,false,Rx,0,8,00,00,00,00,9A,01,C8,00,
43101954,00000101,false,Rx,0,8,00,FF,FE,00,00,00,00,00,
43102196,00000102,false,Rx,0,8,01,90,01,00,00,01,00,00,
43120005,00000525,false,Rx,0,6,04,01,5E,00,00,00,00,00,
43201696,00000100,false,Rx,0,8,00,00,00,00,9A,01,C8,00,
43201948,00000101,false,Rx,0,8,00,FF,FE,00,00,00,00,00,
43202196,00000102,false,Rx,0,8,01,90,01,00,00,01,00,00,
43208775,00000522,false,Rx,0,6,01,00,06,B4,05,00,00,00,
43257238,00000523,false,Rx,0,6,02,0C,EA,FF,FF,FF,00,00,
43281523,00000527,false,Rx,0,6,06,06,B6,2A,01,00,00,00,
43301695,00000100,false,Rx,0,8,00,00,00,00,9A,01,C8,00,
43301946,00000101,false,Rx,0,8,00,FF,FE,00,00,00,00,00,
43302195,00000102,false,Rx,0,8,01,90,01,00,00,01,00,00,
43388452,00000524,false,Rx,0,6,03,0C,EC,FF,FF,FF,00,00,
43395495,00000521,false,Rx,0,6,00,09,FA,FF,FF,FF,00,00,
43401692,00000100,false,Rx,0,8,00,00,00,00,9A,01,C8,00,
43401944,00000101,false,Rx,0,8,00,FF,FE,00,00,00,00,00,
43402191,00000102,false,Rx,0,8,01,90,01,00,00,01,00,00,
43406923,00000526,false,Rx,0,6,05,0A,06,00,00,00,00,00,
43501689,00000100,false,Rx,0,8,00,00,00,00,9A,01,C8,00,
43501940,00000101,false,Rx,0,8,00,FF,FE,00,00,00,00,00,
43502188,00000102,false,Rx,0,8,01,90,01,00,00,01,00,00,
43601689,00000100,false,Rx,0,8,00,00,00,00,9A,01,C8,00,
43601940,00000101,false,Rx,0,8,00,FF,FE,00,00,00,00,00,
43602186,00000102,false,Rx,0,8,01,90,01,00,00,01,00,00,
43648896,00000528,false,Rx,0,6,07,06,A6,1E,00,00,00,00,
43701686,00000100,false,Rx,0,8,00,00,00,00,9A,01,C8,00,
43701938,00000101,false,Rx,0,8,00,FF,FE,00,00,00,00,00,
43702184,00000102,false,Rx,0,8,01,90,01,00,00,01,00,00,
43801685,00000100,false,Rx,0,8,00,00,00,00,9A,01,C8,00,
43801936,00000101,false,Rx,0,8,00,FF,FE,00,00,00,00,00,
43802182,00000102,false,Rx,0,8,01,90,01,00,00,01,00,00,
43806292,00000525,false,Rx,0,6,04,02,5F,00,00,00,00,00,
43840578,00000522,false,Rx,0,6,01,01,03,B4,05,00,00,00,
43901683,00000100,false,Rx,0,8,00,00,00,00,9A,01,C8,00,
43901936,00000101,false,Rx,0,8,00,FF,FE,00,00,00,00,00,
43902182,00000102,false,Rx,0,8,01,90,01,00,00,01,00,00,
43907198,00000523,false,Rx,0,6,02,0D,E2,FF,FF,FF,00,00,
44001682,00000100,false,Rx,0,8,00,00,00,00,9A,01,C8,00,
44001934,00000101,false,Rx,0,8,00,FF,FE,00,00,00,00,00,
44002180,00000102,false,Rx,0,8,01,90,01,00,00,01,00,00,
44004139,00000527,false,Rx,0,6,06,07,B6,2A,01,00,00,00,
44009521,00000521,false,Rx,0,6,00,0A,F7,FF,FF,FF,00,00,
44056567,00000524,false,Rx,0,6,03,0D,F0,FF,FF,FF,00,00,
44101679,00000100,false,Rx,0,8,00,00,00,00,9A,01,C8,00,
44101928,00000101,false,Rx,0,8,00,FF,FE,00,00,00,00,00,
44102180,00000102,false,Rx,0,8,01,90,01,00,00,01,00,00,
44111197,00000526,false,Rx,0,6,05,0B,06,00,00,00,00,00,
44201674,00000100,false,Rx,0,8,00,00,00,00,9A,01,C8,00,
44201926,00000101,false,Rx,0,8,00,FF,FE,00,00,00,00,00,
44202171,00000102,false,Rx,0,8,01,90,01,00,00,01,00,00,
44301674,00000100,false,Rx,0,8,00,00,00,00,9A,01,C8,00,
44301927,00000101,false,Rx,0,8,00,FF,FE,00,00,00,00,00,
44302173,00000102,false,Rx,0,8,01,90,01,00,00,01,00,00,
44389686,00000528,false,Rx,0,6,07,07,A6,1E,00,00,00,00,
44401670,00000100,false,Rx,0,8,00,00,00,00,9A,01,C8,00,
44401925,00000101,false,Rx,0,8,00,FF,FE,00,00,00,00,00,
44402172,00000102,false,Rx,0,8,01,90,01,00,00,01,00,00,
44472357,00000522,false,Rx,0,6,01,02,16,B4,05,00,00,00,
44492572,00000525,false,Rx,0,6,04,03,5E,00,00,00,00,00,
44501671,00000100,false,Rx,0,8,00,00,00,00,9A,01,C8,00,
44501922,00000101,false,Rx,0,8,00,FF,FE,00,00,00,00,00,
44502169,00000102,false,Rx,0,8,01,90,01,00,00,01,00,00,
44557144,00000523,false,Rx,0,6,02,0E,E2,FF,FF,FF,00,00,
44601670,00000100,false,Rx,0,8,00,00,00,00,9A,01,C8,00,
44601924,00000101,false,Rx,0,8,00,FF,FE,00,00,00,00,00,
44602165,00000102,false,Rx,0,8,01,90,01,00,00,01,00,00,
44622745,00000521,false,Rx,0,6,00,0B,F8,FF,FF,FF,00,00,
44701665,00000100,false,Rx,0,8,00,00,00,00,9A,01,C8,00,
44701917,00000101,false,Rx,0,8,00,FF,FE,00,00,00,00,00,
44702166,00000102,false,Rx,0,8,01,90,01,00,00,01,00,00,
44724683,00000524,false,Rx,0,6,03,0E,E8,FF,FF,FF,00,00,
44726756,00000527,false,Rx,0,6,06,08,B6,2A,01,00,00,00,
44801665,00000100,false,Rx,0,8,00,00,00,00,9A,01,C8,00,
44801917,00000101,false,Rx,0,8,00,FF,FE,00,00,00,00,00,
44802160,00000102,false,Rx,0,8,01,90,01,00,00,01,00,00,
44815851,00000526,false,Rx,0,6,05,0C,05,00,00,00,00,00,
44901661,00000100,false,Rx,0,8,00,00,00,00,9A,01,C8,00,
44901913,00000101,false,Rx,0,8,00,FF,FE,00,00,00,00,00,
44902162,00000102,false,Rx,0,8,01,90,01,00,00,01,00,00,
45001658,00000100,false,Rx,0,8,00,00,00,00,9A,01,C8,00,
45001911,00000101,false,Rx,0,8,00,FF,FE,00,00,00,00,00,
45002159,00000102,false,Rx,0,8,01,90,01,00,00,01,00,00,
45101659,00000100,false,Rx,0,8,00,00,00,00,9A,01,C8,00,
45101911,00000101,false,Rx,0,8,00,FF,FE,00,00,00,00,00,
45102160,00000102,false,Rx,0,8,01,90,01,00,00,01,00,00,
45104154,00000522,false,Rx,0,6,01,03,0A,B4,05,00,00,00,
45130480,00000528,false,Rx,0,6,07,08,A6,1E,00,00,00,00,
45178859,00000525,false,Rx,0,6,04,04,5E,00,00,00,00,00,
45201657,00000100,false,Rx,0,8,00,00,00,00,9A,01,C8,00,
45201909,00000101,false,Rx,0,8,00,FF,FE,00,00,00,00,00,
45202153,00000102,false,Rx,0,8,01,90,01,00,00,01,00,00,
45207100,00000523,false,Rx,0,6,02,0F,FA,FF,FF,FF,00,00,
45236373,00000521,false,Rx,0,6,00,0C,F8,FF,FF,FF,00,00,
45301654,00000100,false,Rx,0,8,00,00,00,00,9A,01,C8,00,
45301906,00000101,false,Rx,0,8,00,FF,FE,00,00,00,00,00,
45302152,00000102,false,Rx,0,8,01,90,01,00,00,01,00,00,
45392817,00000524,false,Rx,0,6,03,0F,EE,FF,FF,FF,00,00,
45401651,00000100,false,Rx,0,8,00,00,00,00,9A,01,C8,00,
45401903,00000101,false,Rx,0,8,00,FF,FE,00,00,00,00,00,
45402149,00000102,false,Rx,0,8,01,90,01,00,00,01,00,00,
45449397,00000527,false,Rx,0,6,06,09,B6,2A,01,00,00,00,
45501652,00000100,false,Rx,0,8,00,00,00,00,9A,01,C8,00,
45501898,00000101,false,Rx,0,8,00,FF,FE,00,00,00,00,00,
45502150,00000102,false,Rx,0,8,01,90,01,00,00,01,00,00,
45520362,00000526,false,Rx,0,6,05,0D,08,00,00,00,00,00,
45601645,00000100,false,Rx,0,8,00,00,00,00,9A,01,C8,00,
45601897,00000101,false,Rx,0,8,00,FF,FE,00,00,00,00,00,
45602142,00000102,false,Rx,0,8,01,90,01,00,00,01,00,00,
45701645,00000100,false,Rx,0,8,00,00,00,00,9A,01,C8,00,
45701898,00000101,false,Rx,0,8,00,FF,FE,00,00,00,00,00,
45702143,00000102,false,Rx,0,8,01,90,01,00,00,01,00,00,
45735955,00000522,false,Rx,0,6,01,04,12,B4,05,00,00,00,
45801646,00000100,false,Rx,0,8,00,00,00,00,9A,01,C8,00,
45801893,00000101,false,Rx,0,8,00,FF,FE,00,00,00,00,00,
45802145,00000102,false,Rx,0,8,01,90,01,00,00,01,00,00,
45849996,00000521,false,Rx,0,6,00,0D,F7,FF,FF,FF,00,00,
45857068,00000523,false,Rx,0,6,02,00,F2,FF,FF,FF,00,00,
45865166,00000525,false,Rx,0,6,04,05,5E,00,00,00,00,00,
45871279,00000528,false,Rx,0,6,07,09,A6,1E,00,00,00,00,
45901639,00000100,false,Rx,0,8,00,00,00,00,9A,01,C8,00,
45901892,00000101,false,Rx,0,8,00,FF,FE,00,00,00,00,00,
45902138,00000102,false,Rx,0,8,01,90,01,00,00,01,00,00,
46001637,00000100,false,Rx,0,8,00,00,00,00,9A,01,C8,00,
46001890,00000101,false,Rx,0,8,00,FF,FE,00,00,00,00,00,
46002136,00000102,false,Rx,0,8,01,90,01,00,00,01,00,00,
46060960,00000524,false,Rx,0,6,03,00,E8,FF,FF,FF,00,00,
46101636,00000100,false,Rx,0,8,00,00,00,00,9A,01,C8,00,
46101891,00000101,false,Rx,0,8,00,FF,FE,00,00,00,00,00,
46102137,00000102,false,Rx,0,8,01,90,01,00,00,01,00,00,
46172028,00000527,false,Rx,0,6,06,0A,B6,2A,01,00,00,00,
46201634,00000100,false,Rx,0,8,00,00,00,00,9A,01,C8,00,
46201900,00000101,false,Rx,0,8,00,FF,FE,00,00,00,00,00,
46202135,00000102,false,Rx,0,8,01,90,01,00,00,01,00,00,
46224740,00000526,false,Rx,0,6,05,0E,02,00,00,00,00,00,
46301631,00000100,false,Rx,0,8,00,00,00,00,9A,01,C8,00,
46301883,00000101,false,Rx,0,8,00,FF,FE,00,00,00,00,00,
46302132,00000102,false,Rx,0,8,01,90,01,00,00,01,00,00,
46368244,00000522,false,Rx,0,6,01,05,11,B4,05,00,00,00,
46401633,00000100,false,Rx,0,8,00,00,00,00,9A,01,C8,00,
46401879,00000101,false,Rx,0,8,00,FF,FE,00,00,00,00,00,
46402130,00000102,false,Rx,0,8,01,90,01,00,00,01,00,00,
46463631,00000521,false,Rx,0,6,00,0E,F4,FF,FF,FF,00,00,
46501632,00000100,false,Rx,0,8,00,00,00,00,9A,01,C8,00,
46501878,00000101,false,Rx,0,8,00,FF,FE,00,00,00,00,00,
46502129,00000102,false,Rx,0,8,01,90,01,00,00,01,00,00,
46507041,00000523,false,Rx,0,6,02,01,F2,FF,FF,FF,00,00,
46551473,00000525,false,Rx,0,6,04,06,5E,00,00,00,00,00,
46601627,00000100,false,Rx,0,8,00,00,00,00,9A,01,C8,00,
46601880,00000101,false,Rx,0,8,00,FF,FE,00,00,00,00,00,
46602129,00000102,false,Rx,0,8,01,90,01,00,00,01,00,00,
46612071,00000528,false,Rx,0,6,07,0A,A6,1E,00,00,00,00,
46701624,00000100,false,Rx,0,8,00,00,00,00,9A,01,C8,00,
46701876,00000101,false,Rx,0,8,00,FF,FE,00,00,00,00,00,
46702125,00000102,false,Rx,0,8,01,90,01,00,00,01,00,00,
46729087,00000524,false,Rx,0,6,03,01,E6,FF,FF,FF,00,00,
46801621,00000100,false,Rx,0,8,00,00,00,00,9A,01,C8,00,
46801873,00000101,false,Rx,0,8,00,FF,FE,00,00,00,00,00,
46802119,00000102,false,Rx,0,8,01,90,01,00,00,01,00,00,
46894651,00000527,false,Rx,0,6,06,0B,B6,2A,01,00,00,00,
46901621,00000100,false,Rx,0,8,00,00,00,00,9A,01,C8,00,
46901872,00000101,false,Rx,0,8,00,FF,FE,00,00,00,00,00,
46902119,00000102,false,Rx,0,8,01,90,01,00,00,01,00,00,
46929040,00000526,false,Rx,0,6,05,0F,08,00,00,00,00,00,
46999546,00000522,false,Rx,0,6,01,06,1D,B4,05,00,00,00,
47001621,00000100,false,Rx,0,8,00,00,00,00,9A,01,C8,00,
47001867,00000101,false,Rx,0,8,00,FF,FE,00,00,00,00,00,
47002119,00000102,false,Rx,0,8,01,90,01,00,00,01,00,00,
47077256,00000521,false,Rx,0,6,00,0F,F5,FF,FF,FF,00,00,
47101620,00000100,false,Rx,0,8,00,00,00,00,9A,01,C8,00,
47101865,00000101,false,Rx,0,8,00,FF,FE,00,00,00,00,00,
47102117,00000102,false,Rx,0,8,01,90,01,00,00,01,00,00,
47156996,00000523,false,Rx,0,6,02,02,E4,FF,FF,FF,00,00,
47201618,00000100,false,Rx,0,8,00,00,00,00,9A,01,C8,00,
47201863,00000101,false,Rx,0,8,00,FF,FE,00,00,00,00,00,
47202115,00000102,false,Rx,0,8,01,90,01,00,00,01,00,00,
47237751,00000525,false,Rx,0,6,04,07,5E,00,00,00,00,00,
47301614,00000100,false,Rx,0,8,00,00,00,00,9A,01,C8,00,
47301865,00000101,false,Rx,0,8,00,FF,FE,00,00,00,00,00,
47302110,00000102,false,Rx,0,8,01,90,01,00,00,01,00,00,
47352847,00000528,false,Rx,0,6,07,0B,A6,1E,00,00,00,00,
47397244,00000524,false,Rx,0,6,03,02,E8,FF,FF,FF,00,00,
47401612,00000100,false,Rx,0,8,00,00,00,00,9A,01,C8,00,
47401857,00000101,false,Rx,0,8,00,FF,FE,00,00,00,00,00,
47402108,00000102,false,Rx,0,8,01,90,01,00,00,01,00,00,
47501608,00000100,false,Rx,0,8,00,00,00,00,9A,01,C8,00,
47501860,00000101,false,Rx,0,8,00,FF,FE,00,00,00,00,00,
47502106,00000102,false,Rx,0,8,01,90,01,00,00,01,00,00,
47601608,00000100,false,Rx,0,8,00,00,00,00,9A,01,C8,00,
47601854,00000101,false,Rx,0,8,00,FF,FE,00,00,00,00,00,
47602106,00000102,false,Rx,0,8,01,90,01,00,00,01,00,00,
47617265,00000527,false,Rx,0,6,06,0C,B6,2A,01,00,00,00,
47631327,00000522,false,Rx,0,6,01,07,14,B4,05,00,00,00,
47633383,00000526,false,Rx,0,6,05,00,00,00,00,00,00,00,
47690876,00000521,false,Rx,0,6,00,00,F5,FF,FF,FF,00,00,
47701600,00000100,false,Rx,0,8,00,00,00,00,9A,01,C8,00,
47701855,00000101,false,Rx,0,8,00,FF,FE,00,00,00,00,00,
47702102,00000102,false,Rx,0,8,01,90,01,00,00,01,00,00,
47801600,00000100,false,Rx,0,8,00,00,00,00,9A,01,C8,00,
47801852,00000101,false,Rx,0,8,00,FF,FE,00,00,00,00,00,
47802098,00000102,false,Rx,0,8,01,90,01,00,00,01,00,00,
47806948,00000523,false,Rx,0,6,02,03,EC,FF,FF,FF,00,00,
47901600,00000100,false,Rx,0,8,00,00,00,00,9A,01,C8,00,
47901863,00000101,false,Rx,0,8,00,FF,FE,00,00,00,00,00,
47902098,00000102,false,Rx,0,8,01,90,01,00,00,01,00,00,
47924038,00000525,false,Rx,0,6,04,08,5E,00,00,00,00,00,
48001597,00000100,false,Rx,0,8,00,00,00,00,9A,01,C8,00,
48001849,00000101,false,Rx,0,8,00,FF,FE,00,00,00,00,00,
48002097,00000102,false,Rx,0,8,01,90,01,00,00,01,00,00,
48065324,00000524,false,Rx,0,6,03,03,E8,FF,FF,FF,00,00,
48093912,00000528,false,Rx,0,6,07,0C,A6,1E,00,00,00,00,
48101596,00000100,false,Rx,0,8,00,00,00,00,9A,01,C8,00,
48101848,00000101,false,Rx,0,8,00,FF,FE,00,00,00,00,00,
48102097,00000102,false,Rx,0,8,01,90,01,00,00,01,00,00,
48201597,00000100,false,Rx,0,8,00,00,00,00,9A,01,C8,00,
48201843,00000101,false,Rx,0,8,00,FF,FE,00,00,00,00,00,
48202091,00000102,false,Rx,0,8,01,90,01,00,00,01,00,00,
48263112,00000522,false,Rx,0,6,01,08,19,B4,05,00,00,00,
48301591,00000100,false,Rx,0,8,00,00,00,00,9A,01,C8,00,
48301843,00000101,false,Rx,0,8,00,FF,FE,00,00,00,00,00,
48302088,00000102,false,Rx,0,8,01,90,01,00,00,01,00,00,
48304498,00000521,false,Rx,0,6,00,01,F8,FF,FF,FF,00,00,
48338194,00000526,false,Rx,0,6,05,01,FF,FF,FF,FF,00,00,
48339892,00000527,false,Rx,0,6,06,0D,B6,2A,01,00,00,00,
48401591,00000100,false,Rx,0,8,00,00,00,00,9A,01,C8,00,
48401843,00000101,false,Rx,0,8,00,FF,FE,00,00,00,00,00,
48402085,00000102,false,Rx,0,8,01,90,01,00,00,01,00,00,
48456935,00000523,false,Rx,0,6,02,04,EC,FF,FF,FF,00,00,
48501591,00000100,false,Rx,0,8,00,00,00,00,9A,01,C8,00,
48501837,00000101,false,Rx,0,8,00,FF,FE,00,00,00,00,00,
48502099,00000102,false,Rx,0,8,01,90,01,00,00,01,00,00,
48601587,00000100,false,Rx,0,8,00,00,00,00,9A,01,C8,00,
48601839,00000101,false,Rx,0,8,00,FF,FE,00,00,00,00,00,
48602085,00000102,false,Rx,0,8,01,90,01,00,00,01,00,00,
48610320,00000525,false,Rx,0,6,04,09,5E,00,00,00,00,00,
48701581,00000100,false,Rx,0,8,00,00,00,00,9A,01,C8,00,
48701833,00000101,false,Rx,0,8,00,FF,FE,00,00,00,00,00,
48702078,00000102,false,Rx,0,8,01,90,01,00,00,01,00,00,
48733435,00000524,false,Rx,0,6,03,04,E9,FF,FF,FF,00,00,
48801584,00000100,false,Rx,0,8,00,00,00,00,9A,01,C8,00,
48801829,00000101,false,Rx,0,8,00,FF,FE,00,00,00,00,00,
48802081,00000102,false,Rx,0,8,01,90,01,00,00,01,00,00,
48834433,00000528,false,Rx,0,6,07,0D,A6,1E,00,00,00,00,
48894894,00000522,false,Rx,0,6,01,09,21,B4,05,00,00,00,
48901578,00000100,false,Rx,0,8,00,00,00,00,9A,01,C8,00,
48901830,00000101,false,Rx,0,8,00,FF,FE,00,00,00,00,00,
48902076,00000102,false,Rx,0,8,01,90,01,00,00,01,00,00,
48918116,00000521,false,Rx,0,6,00,02,F2,FF,FF,FF,00,00,
49001579,00000100,false,Rx,0,8,00,00,00,00,9A,01,C8,00,
49001824,00000101,false,Rx,0,8,00,FF,FE,00,00,00,00,00,
49002077,00000102,false,Rx,0,8,01,90,01,00,00,01,00,00,
49042587,00000526,false,Rx,0,6,05,02,08,00,00,00,00,00,
49062789,00000527,false,Rx,0,6,06,0E,B6,2A,01,00,00,00,
49101573,00000100,false,Rx,0,8,00,00,00,00,9A,01,C8,00,
49101825,00000101,false,Rx,0,8,00,FF,FE,00,00,00,00,00,
49102071,00000102,false,Rx,0,8,01,90,01,00,00,01,00,00,
49106862,00000523,false,Rx,0,6,02,05,ED,FF,FF,FF,00,00,
49201572,00000100,false,Rx,0,8,00,00,00,00,9A,01,C8,00,
49201823,00000101,false,Rx,0,8,00,FF,FE,00,00,00,00,00,
49202069,00000102,false,Rx,0,8,01,90,01,00,00,01,00,00,
49296616,00000525,false,Rx,0,6,04,0A,5E,00,00,00,00,00,
49301570,00000100,false,Rx,0,8,00,00,00,00,9A,01,C8,00,
49301823,00000101,false,Rx,0,8,00,FF,FE,00,00,00,00,00,
49302069,00000102,false,Rx,0,8,01,90,01,00,00,01,00,00,
49401567,00000100,false,Rx,0,8,00,00,00,00,9A,01,C8,00,
49401818,00000101,false,Rx,0,8,00,FF,FE,00,00,00,00,00,
49402064,00000102,false,Rx,0,8,01,90,01,00,00,01,00,00,
49402275,00000524,false,Rx,0,6,03,05,EF,FF,FF,FF,00,00,
49501570,00000100,false,Rx,0,8,00,00,00,00,9A,01,C8,00,
49501815,00000101,false,Rx,0,8,00,FF,FE,00,00,00,00,00,
49502068,00000102,false,Rx,0,8,01,90,01,00,00,01,00,00,
49526695,00000522,false,Rx,0,6,01,0A,15,B4,05,00,00,00,
49531738,00000521,false,Rx,0,6,00,03,F7,FF,FF,FF,00,00,
49575213,00000528,false,Rx,0,6,07,0E,A6,1E,00,00,00,00,
49601566,00000100,false,Rx,0,8,00,00,00,00,9A,01,C8,00,
49601814,00000101,false,Rx,0,8,00,FF,FE,00,00,00,00,00,
49602066,00000102,false,Rx,0,8,01,90,01,00,00,01,00,00,
49701567,00000100,false,Rx,0,8,00,00,00,00,9A,01,C8,00,
49701812,00000101,false,Rx,0,8,00,FF,FE,00,00,00,00,00,
49702064,00000102,false,Rx,0,8,01,90,01,00,00,01,00,00,
49747046,00000526,false,Rx,0,6,05,03,08,00,00,00,00,00,
49756812,00000523,false,Rx,0,6,02,06,E8,FF,FF,FF,00,00,
49785355,00000527,false,Rx,0,6,06,0F,B6,2A,01,00,00,00,
49801562,00000100,false,Rx,0,8,00,00,00,00,9A,01,C8,00,
49801813,00000101,false,Rx,0,8,00,FF,FE,00,00,00,00,00,
49802059,00000102,false,Rx,0,8,01,90,01,00,00,01,00,00,
49901557,00000100,false,Rx,0,8,00,00,00,00,9A,01,C8,00,
49901810,00000101,false,Rx,0,8,00,FF,FE,00,00,00,00,00,
49902055,00000102,false,Rx,0,8,01,90,01,00,00,01,00,00,
49982894,00000525,false,Rx,0,6,04,0B,5E,00,00,00,00,00,
50001559,00000100,false,Rx,0,8,00,00,00,00,9A,01,C8,00,
50001805,00000101,false,Rx,0,8,00,FF,FE,00,00,00,00,00,
50002055,00000102,false,Rx,0,8,01,90,01,00,00,01,00,00,
50069683,00000524,false,Rx,0,6,03,06,ED,FF,FF,FF,00,00,
50101555,00000100,false,Rx,0,8,00,00,00,00,9A,01,C8,00,
50101801,00000101,false,Rx,0,8,00,FF,FE,00,00,00,00,00,
50102052,00000102,false,Rx,0,8,01,90,01,00,00,01,00,00,
50145347,00000521,false,Rx,0,6,00,04,F6,FF,FF,FF,00,00,
50158473,00000522,false,Rx,0,6,01,0B,16,B4,05,00,00,00,
50201554,00000100,false,Rx,0,8,00,00,00,00,9A,01,C8,00,
50201800,00000101,false,Rx,0,8,00,FF,FE,00,00,00,00,00,
50202051,00000102,false,Rx,0,8,01,90,01,00,00,01,00,00,
50301547,00000100,false,Rx,0,8,00,00,00,00,9A,01,C8,00,
50301798,00000101,false,Rx,0,8,00,FF,FE,00,00,00,00,00,
50302047,00000102,false,Rx,0,8,01,90,01,00,00,01,00,00,
50315990,00000528,false,Rx,0,6,07,0F,A6,1E,00,00,00,00,
50401551,00000100,false,Rx,0,8,00,00,00,00,9A,01,C8,00,
50401796,00000101,false,Rx,0,8,00,FF,FE,00,00,00,00,00,
50402045,00000102,false,Rx,0,8,01,90,01,00,00,01,00,00,
50406756,00000523,false,Rx,0,6,02,07,E8,FF,FF,FF,00,00,
50451450,00000526,false,Rx,0,6,05,04,03,00,00,00,00,00,
50501549,00000100,false,Rx,0,8,00,00,00,00,9A,01,C8,00,
50501795,00000101,false,Rx,0,8,00,FF,FE,00,00,00,00,00,
50502043,00000102,false,Rx,0,8,01,90,01,00,00,01,00,00,
50507733,00000527,false,Rx,0,6,06,00,B6,2A,01,00,00,00,
50601573,00000100,false,Rx,0,8,00,00,00,00,9A,01,C8,00,
50601795,00000101,false,Rx,0,8,00,FF,FE,00,00,00,00,00,
50602041,00000102,false,Rx,0,8,01,90,01,00,00,01,00,00,
50669159,00000525,false,Rx,0,6,04,0C,5E,00,00,00,00,00,
50701539,00000100,false,Rx,0,8,00,00,00,00,9A,01,C8,00,
50701792,00000101,false,Rx,0,8,00,FF,FE,00,00,00,00,00,
50702037,00000102,false,Rx,0,8,01,90,01,00,00,01,00,00,
50737771,00000524,false,Rx,0,6,03,07,F5,FF,FF,FF,00,00,
50759060,00000521,false,Rx,0,6,00,05,FB,FF,FF,FF,00,00,
50790234,00000522,false,Rx,0,6,01,0C,2A,B4,05,00,00,00,
50801541,00000100,false,Rx,0,8,00,00,00,00,9A,01,C8,00,
50801793,00000101,false,Rx,0,8,00,FF,FE,00,00,00,00,00,
50802039,00000102,false,Rx,0,8,01,90,01,00,00,01,00,00,
50901541,00000100,false,Rx,0,8,00,00,00,00,9A,01,C8,00,
50901787,00000101,false,Rx,0,8,00,FF,FE,00,00,00,00,00,
50902039,00000102,false,Rx,0,8,01,90,01,00,00,01,00,00,
51001537,00000100,false,Rx,0,8,00,00,00,00,9A,01,C8,00,
51001789,00000101,false,Rx,0,8,00,FF,FE,00,00,00,00,00,
51002035,00000102,false,Rx,0,8,01,90,01,00,00,01,00,00,
51056961,00000523,false,Rx,0,6,02,08,F4,FF,FF,FF,00,00,
51057183,00000528,false,Rx,0,6,07,00,A6,1E,00,00,00,00,
51101536,00000100,false,Rx,0,8,00,00,00,00,9A,01,C8,00,
51101781,00000101,false,Rx,0,8,00,FF,FE,00,00,00,00,00,
51102033,00000102,false,Rx,0,8,01,90,01,00,00,01,00,00,
51155696,00000526,false,Rx,0,6,05,05,0B,00,00,00,00,00,
51201532,00000100,false,Rx,0,8,00,00,00,00,9A,01,C8,00,
51201781,00000101,false,Rx,0,8,00,FF,FE,00,00,00,00,00,
51202027,00000102,false,Rx,0,8,01,90,01,00,00,01,00,00,
51230312,00000527,false,Rx,0,6,06,01,B6,2A,01,00,00,00,
51301530,00000100,false,Rx,0,8,00,00,00,00,9A,01,C8,00,
51301782,00000101,false,Rx,0,8,00,FF,FE,00,00,00,00,00,
51302028,00000102,false,Rx,0,8,01,90,01,00,00,01,00,00,
51355405,00000525,false,Rx,0,6,04,0D,5E,00,00,00,00,00,
51372550,00000521,false,Rx,0,6,00,06,F9,FF,FF,FF,00,00,
51401529,00000100,false,Rx,0,8,00,00,00,00,9A,01,C8,00,
51401780,00000101,false,Rx,0,8,00,FF,FE,00,00,00,00,00,
51402026,00000102,false,Rx,0,8,01,90,01,00,00,01,00,00,
51405857,00000524,false,Rx,0,6,03,08,F6,FF,FF,FF,00,00,
51421989,00000522,false,Rx,0,6,01,0D,2E,B4,05,00,00,00,
51501522,00000100,false,Rx,0,8,00,00,00,00,9A,01,C8,00,
51501774,00000101,false,Rx,0,8,00,FF,FE,00,00,00,00,00,
51502026,00000102,false,Rx,0,8,01,90,01,00,00,01,00,00,
51601523,00000100,false,Rx,0,8,00,00,00,00,9A,01,C8,00,
51601787,00000101,false,Rx,0,8,00,FF,FE,00,00,00,00,00,
51602022,00000102,false,Rx,0,8,01,90,01,00,00,01,00,00,
51701523,00000100,false,Rx,0,8,00,00,00,00,9A,01,C8,00,
51701775,00000101,false,Rx,0,8,00,FF,FE,00,00,00,00,00,
51702018,00000102,false,Rx,0,8,01,90,01,00,00,01,00,00,
51706603,00000523,false,Rx,0,6,02,09,EE,FF,FF,FF,00,00,
51797565,00000528,false,Rx,0,6,07,01,A6,1E,00,00,00,00,
51801519,00000100,false,Rx,0,8,00,00,00,00,9A,01,C8,00,
51801771,00000101,false,Rx,0,8,00,FF,FE,00,00,00,00,00,
51802016,00000102,false,Rx,0,8,01,90,01,00,00,01,00,00,
51860317,00000526,false,Rx,0,6,05,06,03,00,00,00,00,00,
51901516,00000100,false,Rx,0,8,00,00,00,00,9A,01,C8,00,
51901768,00000101,false,Rx,0,8,00,FF,FE,00,00,00,00,00,
51902014,00000102,false,Rx,0,8,01,90,01,00,00,01,00,00,
51953133,00000527,false,Rx,0,6,06,02,B6,2A,01,00,00,00,
51986139,00000521,false,Rx,0,6,00,07,FA,FF,FF,FF,00,00,
52001517,00000100,false,Rx,0,8,00,00,00,00,9A,01,C8,00,
52001763,00000101,false,Rx,0,8,00,FF,FE,00,00,00,00,00,
52002010,00000102,false,Rx,0,8,01,90,01,00,00,01,00,00,
52041682,00000525,false,Rx,0,6,04,0E,5E,00,00,00,00,00,
52053755,00000522,false,Rx,0,6,01,0E,30,B4,05,00,00,00,
52073966,00000524,false,Rx,0,6,03,09,F0,FF,FF,FF,00,00,
52101511,00000100,false,Rx,0,8,00,00,00,00,9A,01,C8,00,
52101763,00000101,false,Rx,0,8,00,FF,FE,00,00,00,00,00,
52102012,00000102,false,Rx,0,8,01,90,01,00,00,01,00,00,
52201514,00000100,false,Rx,0,8,00,00,00,00,9A,01,C8,00,
52201760,00000101,false,Rx,0,8,00,FF,FE,00,00,00,00,00,
52202019,00000102,false,Rx,0,8,01,90,01,00,00,01,00,00,
52301513,00000100,false,Rx,0,8,00,00,00,00,9A,01,C8,00,
52301758,00000101,false,Rx,0,8,00,FF,FE,00,00,00,00,00,
52302009,00000102,false,Rx,0,8,01,90,01,00,00,01,00,00,
52356537,00000523,false,Rx,0,6,02,0A,EE,FF,FF,FF,00,00,
52401506,00000100,false,Rx,0,8,00,00,00,00,9A,01,C8,00,
52401758,00000101,false,Rx,0,8,00,FF,FE,00,00,00,00,00,
52402003,00000102,false,Rx,0,8,01,90,01,00,00,01,00,00,
52501505,00000100,false,Rx,0,8,00,00,00,00,9A,01,C8,00,
52501757,00000101,false,Rx,0,8,00,FF,FE,00,00,00,00,00,
52502004,00000102,false,Rx,0,8,01,90,01,00,00,01,00,00,
52538263,00000528,false,Rx,0,6,07,02,A6,1E,00,00,00,00,
52564563,00000526,false,Rx,0,6,05,07,0C,00,00,00,00,00,
52599753,00000521,false,Rx,0,6,00,08,F4,FF,FF,FF,00,00,
52601507,00000100,false,Rx,0,8,00,00,00,00,9A,01,C8,00,
52601751,00000101,false,Rx,0,8,00,FF,FE,00,00,00,00,00,
52602007,00000102,false,Rx,0,8,01,90,01,00,00,01,00,00,
52675511,00000527,false,Rx,0,6,06,03,B6,2A,01,00,00,00,
52685519,00000522,false,Rx,0,6,01,0F,2E,B4,05,00,00,00,
52701498,00000100,false,Rx,0,8,00,00,00,00,9A,01,C8,00,
52701749,00000101,false,Rx,0,8,00,FF,FE,00,00,00,00,00,
52702001,00000102,false,Rx,0,8,01,90,01,00,00,01,00,00,
52727948,00000525,false,Rx,0,6,04,0F,5E,00,00,00,00,00,
52742070,00000524,false,Rx,0,6,03,0A,F1,FF,FF,FF,00,00,
52801500,00000100,false,Rx,0,8,00,00,00,00,9A,01,C8,00,
52801746,00000101,false,Rx,0,8,00,FF,FE,00,00,00,00,00,
52801998,00000102,false,Rx,0,8,01,90,01,00,00,01,00,00,
52901498,00000100,false,Rx,0,8,00,00,00,00,9A,01,C8,00,
52901744,00000101,false,Rx,0,8,00,FF,FE,00,00,00,00,00,
52901996,00000102,false,Rx,0,8,01,90,01,00,00,01,00,00,
53001494,00000100,false,Rx,0,8,00,00,00,00,9A,01,C8,00,
53001746,00000101,false,Rx,0,8,00,FF,FE,00,00,00,00,00,
53001992,00000102,false,Rx,0,8,01,90,01,00,00,01,00,00,
53006482,00000523,false,Rx,0,6,02,0B,F6,FF,FF,FF,00,00,
53101506,00000100,false,Rx,0,8,00,00,00,00,9A,01,C8,00,
53101739,00000101,false,Rx,0,8,00,FF,FE,00,00,00,00,00,
53101988,00000102,false,Rx,0,8,01,90,01,00,00,01,00,00,
53201498,00000100,false,Rx,0,8,00,00,00,00,9A,01,C8,00,
53201744,00000101,false,Rx,0,8,00,FF,FE,00,00,00,00,00,
53201986,00000102,false,Rx,0,8,01,90,01,00,00,01,00,00,
53213769,00000521,false,Rx,0,6,00,09,FE,FF,FF,FF,00,00,
53268917,00000526,false,Rx,0,6,05,08,00,00,00,00,00,00,
53279041,00000528,false,Rx,0,6,07,03,A6,1E,00,00,00,00,
53301493,00000100,false,Rx,0,8,00,00,00,00,9A,01,C8,00,
53301738,00000101,false,Rx,0,8,00,FF,FE,00,00,00,00,00,
53301985,00000102,false,Rx,0,8,01,90,01,00,00,01,00,00,
53317313,00000522,false,Rx,0,6,01,00,2C,B4,05,00,00,00,
53398118,00000527,false,Rx,0,6,06,04,B6,2A,01,00,00,00,
53401493,00000100,false,Rx,0,8,00,00,00,00,9A,01,C8,00,
53401733,00000101,false,Rx,0,8,00,FF,FE,00,00,00,00,00,
53401984,00000102,false,Rx,0,8,01,90,01,00,00,01,00,00,
53410175,00000524,false,Rx,0,6,03,0B,EA,FF,FF,FF,00,00,
53414232,00000525,false,Rx,0,6,04,00,5E,00,00,00,00,00,
53501493,00000100,false,Rx,0,8,00,00,00,00,9A,01,C8,00,
53501732,00000101,false,Rx,0,8,00,FF,FE,00,00,00,00,00,
53501981,00000102,false,Rx,0,8,01,90,01,00,00,01,00,00,
53601492,00000100,false,Rx,0,8,00,00,00,00,9A,01,C8,00,
53601732,00000101,false,Rx,0,8,00,FF,FE,00,00,00,00,00,
53601982,00000102,false,Rx,0,8,01,90,01,00,00,01,00,00,
53656417,00000523,false,Rx,0,6,02,0C,EA,FF,FF,FF,00,00,
53701477,00000100,false,Rx,0,8,00,00,00,00,9A,01,C8,00,
53701738,00000101,false,Rx,0,8,00,FF,FE,00,00,00,00,00,
53701978,00000102,false,Rx,0,8,01,90,01,00,00,01,00,00,
53801481,00000100,false,Rx,0,8,00,00,00,00,9A,01,C8,00,
53801734,00000101,false,Rx,0,8,00,FF,FE,00,00,00,00,00,
53801973,00000102,false,Rx,0,8,01,90,01,00,00,01,00,00,
53826975,00000521,false,Rx,0,6,00,0A,F7,FF,FF,FF,00,00,
53901482,00000100,false,Rx,0,8,00,00,00,00,9A,01,C8,00,
53901728,00000101,false,Rx,0,8,00,FF,FE,00,00,00,00,00,
53901974,00000102,false,Rx,0,8,01,90,01,00,00,01,00,00,
53949089,00000522,false,Rx,0,6,01,01,2D,B4,05,00,00,00,
53973352,00000526,false,Rx,0,6,05,09,00,00,00,00,00,00,
54001483,00000100,false,Rx,0,8,00,00,00,00,9A,01,C8,00,
54001725,00000101,false,Rx,0,8,00,FF,FE,00,00,00,00,00,
54001970,00000102,false,Rx,0,8,01,90,01,00,00,01,00,00,
54019807,00000528,false,Rx,0,6,07,04,A6,1E,00,00,00,00,
54078281,00000524,false,Rx,0,6,03,0C,E9,FF,FF,FF,00,00,
54100507,00000525,false,Rx,0,6,04,01,5E,00,00,00,00,00,
54101482,00000100,false,Rx,0,8,00,00,00,00,9A,01,C8,00,
54101721,00000101,false,Rx,0,8,00,FF,FE,00,00,00,00,00,
54101967,00000102,false,Rx,0,8,01,90,01,00,00,01,00,00,
54120738,00000527,false,Rx,0,6,06,05,B6,2A,01,00,00,00,
54201479,00000100,false,Rx,0,8,00,00,00,00,9A,01,C8,00,
54201718,00000101,false,Rx,0,8,00,FF,FE,00,00,00,00,00,
54201971,00000102,false,Rx,0,8,01,90,01,00,00,01,00,00,
54301476,00000100,false,Rx,0,8,00,00,00,00,9A,01,C8,00,
54301716,00000101,false,Rx,0,8,00,FF,FE,00,00,00,00,00,
54301968,00000102,false,Rx,0,8,01,90,01,00,00,01,00,00,
54306361,00000523,false,Rx,0,6,02,0D,EA,FF,FF,FF,00,00,
54401474,00000100,false,Rx,0,8,00,00,00,00,9A,01,C8,00,
54401713,00000101,false,Rx,0,8,00,FF,FE,00,00,00,00,00,
54401962,00000102,false,Rx,0,8,01,90,01,00,00,01,00,00,
54440581,00000521,false,Rx,0,6,00,0B,F7,FF,FF,FF,00,00,
54501471,00000100,false,Rx,0,8,00,00,00,00,9A,01,C8,00,
54501711,00000101,false,Rx,0,8,00,FF,FE,00,00,00,00,00,
54501960,00000102,false,Rx,0,8,01,90,01,00,00,01,00,00,
54580868,00000522,false,Rx,0,6,01,02,49,B4,05,00,00,00,
54601461,00000100,false,Rx,0,8,00,00,00,00,9A,01,C8,00,
54601707,00000101,false,Rx,0,8,00,FF,FE,00,00,00,00,00,
54601959,00000102,false,Rx,0,8,01,90,01,00,00,01,00,00,
54678053,00000526,false,Rx,0,6,05,0A,05,00,00,00,00,00,
54701460,00000100,false,Rx,0,8,00,00,00,00,9A,01,C8,00,
54701707,00000101,false,Rx,0,8,00,FF,FE,00,00,00,00,00,
54701959,00000102,false,Rx,0,8,01,90,01,00,00,01,00,00,
54746398,00000524,false,Rx,0,6,03,0D,DC,FF,FF,FF,00,00,
54760584,00000528,false,Rx,0,6,07,05,A6,1E,00,00,00,00,
54786775,00000525,false,Rx,0,6,04,02,5E,00,00,00,00,00,
54801459,00000100,false,Rx,0,8,00,00,00,00,9A,01,C8,00,
54801707,00000101,false,Rx,0,8,00,FF,FE,00,00,00,00,00,
54801955,00000102,false,Rx,0,8,01,90,01,00,00,01,00,00,
54843330,00000527,false,Rx,0,6,06,06,B6,2A,01,00,00,00,
54901454,00000100,false,Rx,0,8,00,00,00,00,9A,01,C8,00,
54901701,00000101,false,Rx,0,8,00,FF,FE,00,00,00,00,00,
54901950,00000102,false,Rx,0,8,01,90,01,00,00,01,00,00,
54956309,00000523,false,Rx,0,6,02,0E,F6,FF,FF,FF,00,00,
55001453,00000100,false,Rx,0,8,00,00,00,00,9A,01,C8,00,
55001701,00000101,false,Rx,0,8,00,FF,FE,00,00,00,00,00,
55001963,00000102,false,Rx,0,8,01,90,01,00,00,01,00,00,
55054183,00000521,false,Rx,0,6,00,0C,F6,FF,FF,FF,00,00,
55101448,00000100,false,Rx,0,8,00,00,00,00,9A,01,C8,00,
55101701,00000101,false,Rx,0,8,00,FF,FE,00,00,00,00,00,
55101947,00000102,false,Rx,0,8,01,90,01,00,00,01,00,00,
55201447,00000100,false,Rx,0,8,00,00,00,00,9A,01,C8,00,
55201700,00000101,false,Rx,0,8,00,FF,FE,00,00,00,00,00,
55201947,00000102,false,Rx,0,8,01,90,01,00,00,01,00,00,
55212633,00000522,false,Rx,0,6,01,03,31,B4,05,00,00,00,
55301448,00000100,false,Rx,0,8,00,00,00,00,9A,01,C8,00,
55301695,00000101,false,Rx,0,8,00,FF,FE,00,00,00,00,00,
55301946,00000102,false,Rx,0,8,01,90,01,00,00,01,00,00,
55382230,00000526,false,Rx,0,6,05,0B,00,00,00,00,00,00,
55401444,00000100,false,Rx,0,8,00,00,00,00,9A,01,C8,00,
55401690,00000101,false,Rx,0,8,00,FF,FE,00,00,00,00,00,
55401943,00000102,false,Rx,0,8,01,90,01,00,00,01,00,00,
55414498,00000524,false,Rx,0,6,03,0E,F2,FF,FF,FF,00,00,
55473049,00000525,false,Rx,0,6,04,03,5E,00,00,00,00,00,
55501363,00000528,false,Rx,0,6,07,06,A6,1E,00,00,00,00,
55501617,00000100,false,Rx,0,8,00,00,00,00,9A,01,C8,00,
55501862,00000101,false,Rx,0,8,00,FF,FE,00,00,00,00,00,
55502114,00000102,false,Rx,0,8,01,90,01,00,00,01,00,00,
55565950,00000527,false,Rx,0,6,06,07,B6,2A,01,00,00,00,
55601442,00000100,false,Rx,0,8,00,00,00,00,9A,01,C8,00,
55601690,00000101,false,Rx,0,8,00,FF,FE,00,00,00,00,00,
55601936,00000102,false,Rx,0,8,01,90,01,00,00,01,00,00,
55606246,00000523,false,Rx,0,6,02,0F,E9,FF,FF,FF,00,00,
55667800,00000521,false,Rx,0,6,00,0D,F9,FF,FF,FF,00,00,
55701439,00000100,false,Rx,0,8,00,00,00,00,9A,01,C8,00,
55701686,00000101,false,Rx,0,8,00,FF,FE,00,00,00,00,00,
55701939,00000102,false,Rx,0,8,01,90,01,00,00,01,00,00,
55801434,00000100,false,Rx,0,8,00,00,00,00,9A,01,C8,00,
55801688,00000101,false,Rx,0,8,00,FF,FE,00,00,00,00,00,
55801934,00000102,false,Rx,0,8,01,90,01,00,00,01,00,00,
55844787,00000522,false,Rx,0,6,01,04,34,B4,05,00,00,00,
55901432,00000100,false,Rx,0,8,00,00,00,00,9A,01,C8,00,
55901687,00000101,false,Rx,0,8,00,FF,FE,00,00,00,00,00,
55901933,00000102,false,Rx,0,8,01,90,01,00,00,01,00,00,
56001432,00000100,false,Rx,0,8,00,00,00,00,9A,01,C8,00,
56001685,00000101,false,Rx,0,8,00,FF,FE,00,00,00,00,00,
56001931,00000102,false,Rx,0,8,01,90,01,00,00,01,00,00,
56082615,00000524,false,Rx,0,6,03,0F,E6,FF,FF,FF,00,00,
56086991,00000526,false,Rx,0,6,05,0C,09,00,00,00,00,00,
56101429,00000100,false,Rx,0,8,00,00,00,00,9A,01,C8,00,
56101682,00000101,false,Rx,0,8,00,FF,FE,00,00,00,00,00,
56101928,00000102,false,Rx,0,8,01,90,01,00,00,01,00,00,
56159326,00000525,false,Rx,0,6,04,04,5E,00,00,00,00,00,
56201430,00000100,false,Rx,0,8,00,00,00,00,9A,01,C8,00,
56201680,00000101,false,Rx,0,8,00,FF,FE,00,00,00,00,00,
56201926,00000102,false,Rx,0,8,01,90,01,00,00,01,00,00,
56242133,00000528,false,Rx,0,6,07,07,A6,1E,00,00,00,00,
56256179,00000523,false,Rx,0,6,02,00,E9,FF,FF,FF,00,00,
56281411,00000521,false,Rx,0,6,00,0E,F8,FF,FF,FF,00,00,
56288539,00000527,false,Rx,0,6,06,08,B6,2A,01,00,00,00,
56301423,00000100,false,Rx,0,8,00,00,00,00,9A,01,C8,00,
56301678,00000101,false,Rx,0,8,00,FF,FE,00,00,00,00,00,
56301924,00000102,false,Rx,0,8,01,90,01,00,00,01,00,00,
56401426,00000100,false,Rx,0,8,00,00,00,00,9A,01,C8,00,
56401673,00000101,false,Rx,0,8,00,FF,FE,00,00,00,00,00,
56401923,00000102,false,Rx,0,8,01,90,01,00,00,01,00,00,
56476180,00000522,false,Rx,0,6,01,05,42,B4,05,00,00,00,
56501418,00000100,false,Rx,0,8,00,00,00,00,9A,01,C8,00,
56501671,00000101,false,Rx,0,8,00,FF,FE,00,00,00,00,00,
56501923,00000102,false,Rx,0,8,01,90,01,00,00,01,00,00,
56601417,00000100,false,Rx,0,8,00,00,00,00,9A,01,C8,00,
56601670,00000101,false,Rx,0,8,00,FF,FE,00,00,00,00,00,
56601919,00000102,false,Rx,0,8,01,90,01,00,00,01,00,00,
56701416,00000100,false,Rx,0,8,00,00,00,00,9A,01,C8,00,
56701670,00000101,false,Rx,0,8,00,FF,FE,00,00,00,00,00,
56701919,00000102,false,Rx,0,8,01,90,01,00,00,01,00,00,
56750727,00000524,false,Rx,0,6,03,00,E5,FF,FF,FF,00,00,
56791225,00000526,false,Rx,0,6,05,0D,02,00,00,00,00,00,
56801413,00000100,false,Rx,0,8,00,00,00,00,9A,01,C8,00,
56801665,00000101,false,Rx,0,8,00,FF,FE,00,00,00,00,00,
56801910,00000102,false,Rx,0,8,01,90,01,00,00,01,00,00,
56845604,00000525,false,Rx,0,6,04,05,5E,00,00,00,00,00,
56895033,00000521,false,Rx,0,6,00,0F,F6,FF,FF,FF,00,00,
56901413,00000100,false,Rx,0,8,00,00,00,00,9A,01,C8,00,
56901660,00000101,false,Rx,0,8,00,FF,FE,00,00,00,00,00,
56901912,00000102,false,Rx,0,8,01,90,01,00,00,01,00,00,
56906147,00000523,false,Rx,0,6,02,01,EB,FF,FF,FF,00,00,
56982910,00000528,false,Rx,0,6,07,08,A6,1E,00,00,00,00,
57001411,00000100,false,Rx,0,8,00,00,00,00,9A,01,C8,00,
57001658,00000101,false,Rx,0,8,00,FF,FE,00,00,00,00,00,
57001927,00000102,false,Rx,0,8,01,90,01,00,00,01,00,00,
57011164,00000527,false,Rx,0,6,06,09,B6,2A,01,00,00,00,
57101413,00000100,false,Rx,0,8,00,00,00,00,9A,01,C8,00,
57101660,00000101,false,Rx,0,8,00,FF,FE,00,00,00,00,00,
57101906,00000102,false,Rx,0,8,01,90,01,00,00,01,00,00,
57107972,00000522,false,Rx,0,6,01,06,46,B4,05,00,00,00,
57201403,00000100,false,Rx,0,8,00,00,00,00,9A,01,C8,00,
57201657,00000101,false,Rx,0,8,00,FF,FE,00,00,00,00,00,
57201902,00000102,false,Rx,0,8,01,90,01,00,00,01,00,00,
57301405,00000100,false,Rx,0,8,00,00,00,00,9A,01,C8,00,
57301652,00000101,false,Rx,0,8,00,FF,FE,00,00,00,00,00,
57301904,00000102,false,Rx,0,8,01,90,01,00,00,01,00,00,
57401400,00000100,false,Rx,0,8,00,00,00,00,9A,01,C8,00,
57401654,00000101,false,Rx,0,8,00,FF,FE,00,00,00,00,00,
57401900,00000102,false,Rx,0,8,01,90,01,00,00,01,00,00,
57418880,00000524,false,Rx,0,6,03,01,EA,FF,FF,FF,00,00,
57495868,00000526,false,Rx,0,6,05,0E,08,00,00,00,00,00,
57501400,00000100,false,Rx,0,8,00,00,00,00,9A,01,C8,00,
57501650,00000101,false,Rx,0,8,00,FF,FE,00,00,00,00,00,
57501902,00000102,false,Rx,0,8,01,90,01,00,00,01,00,00,
57508655,00000521,false,Rx,0,6,00,00,F7,FF,FF,FF,00,00,
57531892,00000525,false,Rx,0,6,04,06,5E,00,00,00,00,00,
57556089,00000523,false,Rx,0,6,02,02,EA,FF,FF,FF,00,00,
57601400,00000100,false,Rx,0,8,00,00,00,00,9A,01,C8,00,
57601649,00000101,false,Rx,0,8,00,FF,FE,00,00,00,00,00,
57601901,00000102,false,Rx,0,8,01,90,01,00,00,01,00,00,
57701399,00000100,false,Rx,0,8,00,00,00,00,9A,01,C8,00,
57701647,00000101,false,Rx,0,8,00,FF,FE,00,00,00,00,00,
57701892,00000102,false,Rx,0,8,01,90,01,00,00,01,00,00,
57723694,00000528,false,Rx,0,6,07,09,A6,1E,00,00,00,00,
57733782,00000527,false,Rx,0,6,06,0A,B6,2A,01,00,00,00,
57739780,00000522,false,Rx,0,6,01,07,3A,B4,05,00,00,00,
57801397,00000100,false,Rx,0,8,00,00,00,00,9A,01,C8,00,
57801646,00000101,false,Rx,0,8,00,FF,FE,00,00,00,00,00,
57801891,00000102,false,Rx,0,8,01,90,01,00,00,01,00,00,
57901396,00000100,false,Rx,0,8,00,00,00,00,9A,01,C8,00,
57901643,00000101,false,Rx,0,8,00,FF,FE,00,00,00,00,00,
57901892,00000102,false,Rx,0,8,01,90,01,00,00,01,00,00,
58001392,00000100,false,Rx,0,8,00,00,00,00,9A,01,C8,00,
58001639,00000101,false,Rx,0,8,00,FF,FE,00,00,00,00,00,
58001888,00000102,false,Rx,0,8,01,90,01,00,00,01,00,00,
58086974,00000524,false,Rx,0,6,03,02,F7,FF,FF,FF,00,00,
58101386,00000100,false,Rx,0,8,00,00,00,00,9A,01,C8,00,
58101640,00000101,false,Rx,0,8,00,FF,FE,00,00,00,00,00,
58101885,00000102,false,Rx,0,8,01,90,01,00,00,01,00,00,
58122275,00000521,false,Rx,0,6,00,01,F5,FF,FF,FF,00,00,
58200331,00000526,false,Rx,0,6,05,0F,06,00,00,00,00,00,
58201387,00000100,false,Rx,0,8,00,00,00,00,9A,01,C8,00,
58201640,00000101,false,Rx,0,8,00,FF,FE,00,00,00,00,00,
58201886,00000102,false,Rx,0,8,01,90,01,00,00,01,00,00,
58206083,00000523,false,Rx,0,6,02,03,EA,FF,FF,FF,00,00,
58218181,00000525,false,Rx,0,6,04,07,5E,00,00,00,00,00,
58301383,00000100,false,Rx,0,8,00,00,00,00,9A,01,C8,00,
58301631,00000101,false,Rx,0,8,00,FF,FE,00,00,00,00,00,
58301880,00000102,false,Rx,0,8,01,90,01,00,00,01,00,00,
58371559,00000522,false,Rx,0,6,01,08,3F,B4,05,00,00,00,
58401386,00000100,false,Rx,0,8,00,00,00,00,9A,01,C8,00,
58401632,00000101,false,Rx,0,8,00,FF,FE,00,00,00,00,00,
58401883,00000102,false,Rx,0,8,01,90,01,00,00,01,00,00,
58456407,00000527,false,Rx,0,6,06,0B,B6,2A,01,00,00,00,
58464479,00000528,false,Rx,0,6,07,0A,A6,1E,00,00,00,00,
58501389,00000100,false,Rx,0,8,00,00,00,00,9A,01,C8,00,
58501631,00000101,false,Rx,0,8,00,FF,FE,00,00,00,00,00,
58501896,00000102,false,Rx,0,8,01,90,01,00,00,01,00,00,
58601380,00000100,false,Rx,0,8,00,00,00,00,9A,01,C8,00,
58601628,00000101,false,Rx,0,8,00,FF,FE,00,00,00,00,00,
58601874,00000102,false,Rx,0,8,01,90,01,00,00,01,00,00,
58701374,00000100,false,Rx,0,8,00,00,00,00,9A,01,C8,00,
58701628,00000101,false,Rx,0,8,00,FF,FE,00,00,00,00,00,
58701873,00000102,false,Rx,0,8,01,90,01,00,00,01,00,00,
58735880,00000521,false,Rx,0,6,00,02,F6,FF,FF,FF,00,00,
58755089,00000524,false,Rx,0,6,03,03,F7,FF,FF,FF,00,00,
58801372,00000100,false,Rx,0,8,00,00,00,00,9A,01,C8,00,
58801627,00000101,false,Rx,0,8,00,FF,FE,00,00,00,00,00,
58801872,00000102,false,Rx,0,8,01,90,01,00,00,01,00,00,
58856003,00000523,false,Rx,0,6,02,04,EF,FF,FF,FF,00,00,
58901374,00000100,false,Rx,0,8,00,00,00,00,9A,01,C8,00,
58901621,00000101,false,Rx,0,8,00,FF,FE,00,00,00,00,00,
58901873,00000102,false,Rx,0,8,01,90,01,00,00,01,00,00,
58905015,00000525,false,Rx,0,6,04,08,5E,00,00,00,00,00,
58905242,00000526,false,Rx,0,6,05,00,05,00,00,00,00,00,
59001374,00000100,false,Rx,0,8,00,00,00,00,9A,01,C8,00,
59001621,00000101,false,Rx,0,8,00,FF,FE,00,00,00,00,00,
59001867,00000102,false,Rx,0,8,01,90,01,00,00,01,00,00,
59003342,00000522,false,Rx,0,6,01,09,5D,B4,05,00,00,00,
59101367,00000100,false,Rx,0,8,00,00,00,00,9A,01,C8,00,
59101615,00000101,false,Rx,0,8,00,FF,FE,00,00,00,00,00,
59101867,00000102,false,Rx,0,8,01,90,01,00,00,01,00,00,
59179036,00000527,false,Rx,0,6,06,0C,B6,2A,01,00,00,00,
59201364,00000100,false,Rx,0,8,00,00,00,00,9A,01,C8,00,
59201614,00000101,false,Rx,0,8,00,FF,FE,00,00,00,00,00,
59201866,00000102,false,Rx,0,8,01,90,01,00,00,01,00,00,
59205572,00000528,false,Rx,0,6,07,0B,A6,1E,00,00,00,00,
59301362,00000100,false,Rx,0,8,00,00,00,00,9A,01,C8,00,
59301615,00000101,false,Rx,0,8,00,FF,FE,00,00,00,00,00,
59301860,00000102,false,Rx,0,8,01,90,01,00,00,01,00,00,
59349527,00000521,false,Rx,0,6,00,03,F7,FF,FF,FF,00,00,
59401365,00000100,false,Rx,0,8,00,00,00,00,9A,01,C8,00,
59401613,00000101,false,Rx,0,8,00,FF,FE,00,00,00,00,00,
59401858,00000102,false,Rx,0,8,01,90,01,00,00,01,00,00,
59423208,00000524,false,Rx,0,6,03,04,E6,FF,FF,FF,00,00,
59501359,00000100,false,Rx,0,8,00,00,00,00,9A,01,C8,00,
59501607,00000101,false,Rx,0,8,00,FF,FE,00,00,00,00,00,
59501859,00000102,false,Rx,0,8,01,90,01,00,00,01,00,00,
59505973,00000523,false,Rx,0,6,02,05,E3,FF,FF,FF,00,00,
59590751,00000525,false,Rx,0,6,04,09,5E,00,00,00,00,00,
59601355,00000100,false,Rx,0,8,00,00,00,00,9A,01,C8,00,
59601605,00000101,false,Rx,0,8,00,FF,FE,00,00,00,00,00,
59601857,00000102,false,Rx,0,8,01,90,01,00,00,01,00,00,
59608943,00000526,false,Rx,0,6,05,01,00,00,00,00,00,00,
59635127,00000522,false,Rx,0,6,01,0A,4B,B4,05,00,00,00,
59701357,00000100,false,Rx,0,8,00,00,00,00,9A,01,C8,00,
59701604,00000101,false,Rx,0,8,00,FF,FE,00,00,00,00,00,
59701852,00000102,false,Rx,0,8,01,90,01,00,00,01,00,00,
59801356,00000100,false,Rx,0,8,00,00,00,00,9A,01,C8,00,
59801604,00000101,false,Rx,0,8,00,FF,FE,00,00,00,00,00,
59801852,00000102,false,Rx,0,8,01,90,01,00,00,01,00,00,
59901349,00000100,false,Rx,0,8,00,00,00,00,9A,01,C8,00,
59901603,00000101,false,Rx,0,8,00,FF,FE,00,00,00,00,00,
59901852,00000102,false,Rx,0,8,01,90,01,00,00,01,00,00,
59902049,00000527,false,Rx,0,6,06,0D,B6,2A,01,00,00,00,
59946073,00000528,false,Rx,0,6,07,0C,A6,1E,00,00,00,00,
59963263,00000521,false,Rx,0,6,00,04,FB,FF,FF,FF,00,00,
60001350,00000100,false,Rx,0,8,00,00,00,00,9A,01,C8,00,
60001597,00000101,false,Rx,0,8,00,FF,FE,00,00,00,00,00,
60001849,00000102,false,Rx,0,8,01,90,01,00,00,01,00,00,
60091346,00000524,false,Rx,0,6,03,05,F8,FF,FF,FF,00,00,
60101349,00000100,false,Rx,0,8,00,00,00,00,9A,01,C8,00,
60101598,00000101,false,Rx,0,8,00,FF,FE,00,00,00,00,00,
60101842,00000102,false,Rx,0,8,01,90,01,00,00,01,00,00,
60155926,00000523,false,Rx,0,6,02,06,E3,FF,FF,FF,00,00,
60201342,00000100,false,Rx,0,8,00,00,00,00,9A,01,C8,00,
60201596,00000101,false,Rx,0,8,00,FF,FE,00,00,00,00,00,
60201841,00000102,false,Rx,0,8,01,90,01,00,00,01,00,00,
60266921,00000522,false,Rx,0,6,01,0B,4A,B4,05,00,00,00,
60277050,00000525,false,Rx,0,6,04,0A,5E,00,00,00,00,00,
60301343,00000100,false,Rx,0,8,00,00,00,00,9A,01,C8,00,
60301590,00000101,false,Rx,0,8,00,FF,FE,00,00,00,00,00,
60301862,00000102,false,Rx,0,8,01,90,01,00,00,01,00,00,
60313687,00000526,false,Rx,0,6,05,02,01,00,00,00,00,00,
60401338,00000100,false,Rx,0,8,00,00,00,00,9A,01,C8,00,
60401593,00000101,false,Rx,0,8,00,FF,FE,00,00,00,00,00,
60401839,00000102,false,Rx,0,8,01,90,01,00,00,01,00,00,
60501337,00000100,false,Rx,0,8,00,00,00,00,9A,01,C8,00,
60501591,00000101,false,Rx,0,8,00,FF,FE,00,00,00,00,00,
60501837,00000102,false,Rx,0,8,01,90,01,00,00,01,00,00,
60576775,00000521,false,Rx,0,6,00,05,F6,FF,FF,FF,00,00,
60601337,00000100,false,Rx,0,8,00,00,00,00,9A,01,C8,00,
60601588,00000101,false,Rx,0,8,00,FF,FE,00,00,00,00,00,
60601833,00000102,false,Rx,0,8,01,90,01,00,00,01,00,00,
60624275,00000527,false,Rx,0,6,06,0E,B7,2A,01,00,00,00,
60686862,00000528,false,Rx,0,6,07,0D,A6,1E,00,00,00,00,
60701336,00000100,false,Rx,0,8,00,00,00,00,9A,01,C8,00,
60701586,00000101,false,Rx,0,8,00,FF,FE,00,00,00,00,00,
60701833,00000102,false,Rx,0,8,01,90,01,00,00,01,00,00,
60759473,00000524,false,Rx,0,6,03,06,EE,FF,FF,FF,00,00,
60801331,00000100,false,Rx,0,8,00,00,00,00,9A,01,C8,00,
60801580,00000101,false,Rx,0,8,00,FF,FE,00,00,00,00,00,
60801831,00000102,false,Rx,0,8,01,90,01,00,00,01,00,00,
60805893,00000523,false,Rx,0,6,02,07,EF,FF,FF,FF,00,00,
60898720,00000522,false,Rx,0,6,01,0C,4C,B4,05,00,00,00,
60901331,00000100,false,Rx,0,8,00,00,00,00,9A,01,C8,00,
60901581,00000101,false,Rx,0,8,00,FF,FE,00,00,00,00,00,
60901827,00000102,false,Rx,0,8,01,90,01,00,00,01,00,00,
60963347,00000525,false,Rx,0,6,04,0B,5E,00,00,00,00,00,
61001331,00000100,false,Rx,0,8,00,00,00,00,9A,01,C8,00,
61001581,00000101,false,Rx,0,8,00,FF,FE,00,00,00,00,00,
61001827,00000102,false,Rx,0,8,01,90,01,00,00,01,00,00,
61017967,00000526,false,Rx,0,6,05,03,0B,00,00,00,00,00,
61101326,00000100,false,Rx,0,8,00,00,00,00,9A,01,C8,00,
61101574,00000101,false,Rx,0,8,00,FF,FE,00,00,00,00,00,
61101822,00000102,false,Rx,0,8,01,90,01,00,00,01,00,00,
61190403,00000521,false,Rx,0,6,00,06,F5,FF,FF,FF,00,00,
61201324,00000100,false,Rx,0,8,00,00,00,00,9A,01,C8,00,
61201577,00000101,false,Rx,0,8,00,FF,FE,00,00,00,00,00,
61201822,00000102,false,Rx,0,8,01,90,01,00,00,01,00,00,
61301324,00000100,false,Rx,0,8,00,00,00,00,9A,01,C8,00,
61301571,00000101,false,Rx,0,8,00,FF,FE,00,00,00,00,00,
61301819,00000102,false,Rx,0,8,01,90,01,00,00,01,00,00,
61347166,00000527,false,Rx,0,6,06,0F,B7,2A,01,00,00,00,
61401321,00000100,false,Rx,0,8,00,00,00,00,9A,01,C8,00,
61401569,00000101,false,Rx,0,8,00,FF,FE,00,00,00,00,00,
61401817,00000102,false,Rx,0,8,01,90,01,00,00,01,00,00,
61427902,00000524,false,Rx,0,6,03,07,F2,FF,FF,FF,00,00,
61428116,00000528,false,Rx,0,6,07,0E,A6,1E,00,00,00,00,
61455843,00000523,false,Rx,0,6,02,08,F6,FF,FF,FF,00,00,
61501318,00000100,false,Rx,0,8,00,00,00,00,9A,01,C8,00,
61501566,00000101,false,Rx,0,8,00,FF,FE,00,00,00,00,00,
61501817,00000102,false,Rx,0,8,01,90,01,00,00,01,00,00,
61530509,00000522,false,Rx,0,6,01,0D,60,B4,05,00,00,00,
61601319,00000100,false,Rx,0,8,00,00,00,00,9A,01,C8,00,
61601566,00000101,false,Rx,0,8,00,FF,FE,00,00,00,00,00,
61601815,00000102,false,Rx,0,8,01,90,01,00,00,01,00,00,
61649639,00000525,false,Rx,0,6,04,0C,5F,00,00,00,00,00,
61701312,00000100,false,Rx,0,8,00,00,00,00,9A,01,C8,00,
61701565,00000101,false,Rx,0,8,00,FF,FE,00,00,00,00,00,
61701825,00000102,false,Rx,0,8,01,90,01,00,00,01,00,00,
61722324,00000526,false,Rx,0,6,05,04,00,00,00,00,00,00,
61801315,00000100,false,Rx,0,8,00,00,00,00,9A,01,C8,00,
61801562,00000101,false,Rx,0,8,00,FF,FE,00,00,00,00,00,
61801808,00000102,false,Rx,0,8,01,90,01,00,00,01,00,00,
61804020,00000521,false,Rx,0,6,00,07,F6,FF,FF,FF,00,00,
61901312,00000100,false,Rx,0,8,00,00,00,00,9A,01,C8,00,
61901561,00000101,false,Rx,0,8,00,FF,FE,00,00,00,00,00,
61901806,00000102,false,Rx,0,8,01,90,01,00,00,01,00,00,
62001306,00000100,false,Rx,0,8,00,00,00,00,9A,01,C8,00,
62001560,00000101,false,Rx,0,8,00,FF,FE,00,00,00,00,00,
62001806,00000102,false,Rx,0,8,01,90,01,00,00,01,00,00,
62069529,00000527,false,Rx,0,6,06,00,B7,2A,01,00,00,00,
62095711,00000524,false,Rx,0,6,03,08,FB,FF,FF,FF,00,00,
62101308,00000100,false,Rx,0,8,00,00,00,00,9A,01,C8,00,
62101554,00000101,false,Rx,0,8,00,FF,FE,00,00,00,00,00,
62101806,00000102,false,Rx,0,8,01,90,01,00,00,01,00,00,
62105795,00000523,false,Rx,0,6,02,09,F6,FF,FF,FF,00,00,
62162303,00000522,false,Rx,0,6,01,0E,51,B4,05,00,00,00,
62168443,00000528,false,Rx,0,6,07,0F,A6,1E,00,00,00,00,
62201305,00000100,false,Rx,0,8,00,00,00,00,9A,01,C8,00,
62201551,00000101,false,Rx,0,8,00,FF,FE,00,00,00,00,00,
62201803,00000102,false,Rx,0,8,01,90,01,00,00,01,00,00,
62301303,00000100,false,Rx,0,8,00,00,00,00,9A,01,C8,00,
62301552,00000101,false,Rx,0,8,00,FF,FE,00,00,00,00,00,
62301798,00000102,false,Rx,0,8,01,90,01,00,00,01,00,00,
62335926,00000525,false,Rx,0,6,04,0D,5E,00,00,00,00,00,
62401298,00000100,false,Rx,0,8,00,00,00,00,9A,01,C8,00,
62401552,00000101,false,Rx,0,8,00,FF,FE,00,00,00,00,00,
62401798,00000102,false,Rx,0,8,01,90,01,00,00,01,00,00,
62418056,00000521,false,Rx,0,6,00,08,F6,FF,FF,FF,00,00,
62427076,00000526,false,Rx,0,6,05,05,02,00,00,00,00,00,
62501302,00000100,false,Rx,0,8,00,00,00,00,9A,01,C8,00,
62501549,00000101,false,Rx,0,8,00,FF,FE,00,00,00,00,00,
62501795,00000102,false,Rx,0,8,01,90,01,00,00,01,00,00,
62601297,00000100,false,Rx,0,8,00,00,00,00,9A,01,C8,00,
62601544,00000101,false,Rx,0,8,00,FF,FE,00,00,00,00,00,
62601793,00000102,false,Rx,0,8,01,90,01,00,00,01,00,00,
62701298,00000100,false,Rx,0,8,00,00,00,00,9A,01,C8,00,
62701545,00000101,false,Rx,0,8,00,FF,FE,00,00,00,00,00,
62701788,00000102,false,Rx,0,8,01,90,01,00,00,01,00,00,
62755755,00000523,false,Rx,0,6,02,0A,F7,FF,FF,FF,00,00,
62763823,00000524,false,Rx,0,6,03,09,EE,FF,FF,FF,00,00,
62792142,00000527,false,Rx,0,6,06,01,B7,2A,01,00,00,00,
62794088,00000522,false,Rx,0,6,01,0F,5A,B4,05,00,00,00,
62801296,00000100,false,Rx,0,8,00,00,00,00,9A,01,C8,00,
62801542,00000101,false,Rx,0,8,00,FF,FE,00,00,00,00,00,
62801788,00000102,false,Rx,0,8,01,90,01,00,00,01,00,00,
62901288,00000100,false,Rx,0,8,00,00,00,00,9A,01,C8,00,
62901541,00000101,false,Rx,0,8,00,FF,FE,00,00,00,00,00,
62901790,00000102,false,Rx,0,8,01,90,01,00,00,01,00,00,
62909215,00000528,false,Rx,0,6,07,00,A6,1E,00,00,00,00,
63001288,00000100,false,Rx,0,8,00,00,00,00,9A,01,C8,00,
63001536,00000101,false,Rx,0,8,00,FF,FE,00,00,00,00,00,
63001784,00000102,false,Rx,0,8,01,90,01,00,00,01,00,00,
63022194,00000525,false,Rx,0,6,04,0E,5E,00,00,00,00,00,
63031257,00000521,false,Rx,0,6,00,09,F5,FF,FF,FF,00,00,
63101292,00000100,false,Rx,0,8,00,00,00,00,9A,01,C8,00,
63101533,00000101,false,Rx,0,8,00,FF,FE,00,00,00,00,00,
63101783,00000102,false,Rx,0,8,01,90,01,00,00,01,00,00,
63131479,00000526,false,Rx,0,6,05,06,04,00,00,00,00,00,
63201292,00000100,false,Rx,0,8,00,00,00,00,9A,01,C8,00,
63201533,00000101,false,Rx,0,8,00,FF,FE,00,00,00,00,00,
63201793,00000102,false,Rx,0,8,01,90,01,00,00,01,00,00,
63301281,00000100,false,Rx,0,8,00,00,00,00,9A,01,C8,00,
63301528,00000101,false,Rx,0,8,00,FF,FE,00,00,00,00,00,
63301780,00000102,false,Rx,0,8,01,90,01,00,00,01,00,00,
63401280,00000100,false,Rx,0,8,00,00,00,00,9A,01,C8,00,
63401529,00000101,false,Rx,0,8,00,FF,FE,00,00,00,00,00,
63401774,00000102,false,Rx,0,8,01,90,01,00,00,01,00,00,
63405703,00000523,false,Rx,0,6,02,0B,F5,FF,FF,FF,00,00,
63425870,00000522,false,Rx,0,6,01,00,62,B4,05,00,00,00,
63431942,00000524,false,Rx,0,6,03,0A,EB,FF,FF,FF,00,00,
63501275,00000100,false,Rx,0,8,00,00,00,00,9A,01,C8,00,
63501529,00000101,false,Rx,0,8,00,FF,FE,00,00,00,00,00,
63501776,00000102,false,Rx,0,8,01,90,01,00,00,01,00,00,
63514763,00000527,false,Rx,0,6,06,02,B7,2A,01,00,00,00,
63601279,00000100,false,Rx,0,8,00,00,00,00,9A,01,C8,00,
63601527,00000101,false,Rx,0,8,00,FF,FE,00,00,00,00,00,
63601773,00000102,false,Rx,0,8,01,90,01,00,00,01,00,00,
63644885,00000521,false,Rx,0,6,00,0A,F8,FF,FF,FF,00,00,
63650012,00000528,false,Rx,0,6,07,01,A6,1E,00,00,00,00,
63701275,00000100,false,Rx,0,8,00,00,00,00,9A,01,C8,00,
63701523,00000101,false,Rx,0,8,00,FF,FE,00,00,00,00,00,
63701770,00000102,false,Rx,0,8,01,90,01,00,00,01,00,00,
63708497,00000525,false,Rx,0,6,04,0F,5E,00,00,00,00,00,
63801270,00000100,false,Rx,0,8,00,00,00,00,9A,01,C8,00,
63801516,00000101,false,Rx,0,8,00,FF,FE,00,00,00,00,00,
63801769,00000102,false,Rx,0,8,01,90,01,00,00,01,00,00,
63835711,00000526,false,Rx,0,6,05,07,0A,00,00,00,00,00,
63901271,00000100,false,Rx,0,8,00,00,00,00,9A,01,C8,00,
63901518,00000101,false,Rx,0,8,00,FF,FE,00,00,00,00,00,
63901764,00000102,false,Rx,0,8,01,90,01,00,00,01,00,00,
64001264,00000100,false,Rx,0,8,00,00,00,00,9A,01,C8,00,
64001519,00000101,false,Rx,0,8,00,FF,FE,00,00,00,00,00,
64001764,00000102,false,Rx,0,8,01,90,01,00,00,01,00,00,
64055648,00000523,false,Rx,0,6,02,0C,F5,FF,FF,FF,00,00,
64057662,00000522,false,Rx,0,6,01,01,52,B4,05,00,00,00,
64100077,00000524,false,Rx,0,6,03,0B,EE,FF,FF,FF,00,00,
64101263,00000100,false,Rx,0,8,00,00,00,00,9A,01,C8,00,
64101518,00000101,false,Rx,0,8,00,FF,FE,00,00,00,00,00,
64101764,00000102,false,Rx,0,8,01,90,01,00,00,01,00,00,
64201264,00000100,false,Rx,0,8,00,00,00,00,9A,01,C8,00,
64201511,00000101,false,Rx,0,8,00,FF,FE,00,00,00,00,00,
64201763,00000102,false,Rx,0,8,01,90,01,00,00,01,00,00,
64237382,00000527,false,Rx,0,6,06,03,B7,2A,01,00,00,00,
64258501,00000521,false,Rx,0,6,00,0B,FA,FF,FF,FF,00,00,
64301258,00000100,false,Rx,0,8,00,00,00,00,9A,01,C8,00,
64301509,00000101,false,Rx,0,8,00,FF,FE,00,00,00,00,00,
64301755,00000102,false,Rx,0,8,01,90,01,00,00,01,00,00,
64391009,00000528,false,Rx,0,6,07,02,A6,1E,00,00,00,00,
64394769,00000525,false,Rx,0,6,04,00,5E,00,00,00,00,00,
64401261,00000100,false,Rx,0,8,00,00,00,00,9A,01,C8,00,
64401507,00000101,false,Rx,0,8,00,FF,FE,00,00,00,00,00,
64401760,00000102,false,Rx,0,8,01,90,01,00,00,01,00,00,
64501253,00000100,false,Rx,0,8,00,00,00,00,9A,01,C8,00,
64501507,00000101,false,Rx,0,8,00,FF,FE,00,00,00,00,00,
64501752,00000102,false,Rx,0,8,01,90,01,00,00,01,00,00,
64540396,00000526,false,Rx,0,6,05,08,04,00,00,00,00,00,
64601282,00000100,false,Rx,0,8,00,00,00,00,9A,01,C8,00,
64601505,00000101,false,Rx,0,8,00,FF,FE,00,00,00,00,00,
64601749,00000102,false,Rx,0,8,01,90,01,00,00,01,00,00,
64689423,00000522,false,Rx,0,6,01,02,62,B4,05,00,00,00,
64701252,00000100,false,Rx,0,8,00,00,00,00,9A,01,C8,00,
64701500,00000101,false,Rx,0,8,00,FF,FE,00,00,00,00,00,
64701751,00000102,false,Rx,0,8,01,90,01,00,00,01,00,00,
64705594,00000523,false,Rx,0,6,02,0D,FE,FF,FF,FF,00,00,
64768160,00000524,false,Rx,0,6,03,0C,EE,FF,FF,FF,00,00,
64801250,00000100,false,Rx,0,8,00,00,00,00,9A,01,C8,00,
64801504,00000101,false,Rx,0,8,00,FF,FE,00,00,00,00,00,
64801749,00000102,false,Rx,0,8,01,90,01,00,00,01,00,00,
64872108,00000521,false,Rx,0,6,00,0C,F7,FF,FF,FF,00,00,
64901250,00000100,false,Rx,0,8,00,00,00,00,9A,01,C8,00,
64901497,00000101,false,Rx,0,8,00,FF,FE,00,00,00,00,00,
64901749,00000102,false,Rx,0,8,01,90,01,00,00,01,00,00,
64960313,00000527,false,Rx,0,6,06,04,B7,2A,01,00,00,00,
65001241,00000100,false,Rx,0,8,00,00,00,00,9A,01,C8,00,
65001495,00000101,false,Rx,0,8,00,FF,FE,00,00,00,00,00,
65001740,00000102,false,Rx,0,8,01,90,01,00,00,01,00,00,
65081040,00000525,false,Rx,0,6,04,01,5E,00,00,00,00,00,
65101240,00000100,false,Rx,0,8,00,00,00,00,9A,01,C8,00,
65101495,00000101,false,Rx,0,8,00,FF,FE,00,00,00,00,00,
65101739,00000102,false,Rx,0,8,01,90,01,00,00,01,00,00,
65131550,00000528,false,Rx,0,6,07,03,A6,1E,00,00,00,00,
65201238,00000100,false,Rx,0,8,00,00,00,00,9A,01,C8,00,
65201498,00000101,false,Rx,0,8,00,FF,FE,00,00,00,00,00,
65201737,00000102,false,Rx,0,8,01,90,01,00,00,01,00,00,
65244660,00000526,false,Rx,0,6,05,09,02,00,00,00,00,00,
65301237,00000100,false,Rx,0,8,00,00,00,00,9A,01,C8,00,
65301497,00000101,false,Rx,0,8,00,FF,FE,00,00,00,00,00,
65301737,00000102,false,Rx,0,8,01,90,01,00,00,01,00,00,
65321611,00000522,false,Rx,0,6,01,03,76,B4,05,00,00,00,
65355538,00000523,false,Rx,0,6,02,0E,EF,FF,FF,FF,00,00,
65401237,00000100,false,Rx,0,8,00,00,00,00,9A,01,C8,00,
65401491,00000101,false,Rx,0,8,00,FF,FE,00,00,00,00,00,
65401737,00000102,false,Rx,0,8,01,90,01,00,00,01,00,00,
65436279,00000524,false,Rx,0,6,03,0D,E9,FF,FF,FF,00,00,
65485707,00000521,false,Rx,0,6,00,0D,FA,FF,FF,FF,00,00,
65501238,00000100,false,Rx,0,8,00,00,00,00,9A,01,C8,00,
65501492,00000101,false,Rx,0,8,00,FF,FE,00,00,00,00,00,
65501731,00000102,false,Rx,0,8,01,90,01,00,00,01,00,00,
65601234,00000100,false,Rx,0,8,00,00,00,00,9A,01,C8,00,
65601495,00000101,false,Rx,0,8,00,FF,FE,00,00,00,00,00,
65601735,00000102,false,Rx,0,8,01,90,01,00,00,01,00,00,
65682586,00000527,false,Rx,0,6,06,05,B7,2A,01,00,00,00,
65701232,00000100,false,Rx,0,8,00,00,00,00,9A,01,C8,00,
65701478,00000101,false,Rx,0,8,00,FF,FE,00,00,00,00,00,
65701738,00000102,false,Rx,0,8,01,90,01,00,00,01,00,00,
65767318,00000525,false,Rx,0,6,04,02,5E,00,00,00,00,00,
65801226,00000100,false,Rx,0,8,00,00,00,00,9A,01,C8,00,
65801478,00000101,false,Rx,0,8,00,FF,FE,00,00,00,00,00,
65801739,00000102,false,Rx,0,8,01,90,01,00,00,01,00,00,
65872329,00000528,false,Rx,0,6,07,04,A6,1E,00,00,00,00,
65901226,00000100,false,Rx,0,8,00,00,00,00,9A,01,C8,00,
65901480,00000101,false,Rx,0,8,00,FF,FE,00,00,00,00,00,
65901726,00000102,false,Rx,0,8,01,90,01,00,00,01,00,00,
65949295,00000526,false,Rx,0,6,05,0A,00,00,00,00,00,00,
65952982,00000522,false,Rx,0,6,01,04,6B,B4,05,00,00,00,
66001224,00000100,false,Rx,0,8,00,00,00,00,9A,01,C8,00,
66001477,00000101,false,Rx,0,8,00,FF,FE,00,00,00,00,00,
66001724,00000102,false,Rx,0,8,01,90,01,00,00,01,00,00,
66005489,00000523,false,Rx,0,6,02,0F,EF,FF,FF,FF,00,00,
66099320,00000521,false,Rx,0,6,00,0E,F8,FF,FF,FF,00,00,
66101221,00000100,false,Rx,0,8,00,00,00,00,9A,01,C8,00,
66101481,00000101,false,Rx,0,8,00,FF,FE,00,00,00,00,00,
66101721,00000102,false,Rx,0,8,01,90,01,00,00,01,00,00,
66104387,00000524,false,Rx,0,6,03,0E,F0,FF,FF,FF,00,00,
66201216,00000100,false,Rx,0,8,00,00,00,00,9A,01,C8,00,
66201475,00000101,false,Rx,0,8,00,FF,FE,00,00,00,00,00,
66201715,00000102,false,Rx,0,8,01,90,01,00,00,01,00,00,
66301219,00000100,false,Rx,0,8,00,00,00,00,9A,01,C8,00,
66301472,00000101,false,Rx,0,8,00,FF,FE,00,00,00,00,00,
66301718,00000102,false,Rx,0,8,01,90,01,00,00,01,00,00,
66401212,00000100,false,Rx,0,8,00,00,00,00,9A,01,C8,00,
66401474,00000101,false,Rx,0,8,00,FF,FE,00,00,00,00,00,
66401714,00000102,false,Rx,0,8,01,90,01,00,00,01,00,00,
66405190,00000527,false,Rx,0,6,06,06,B7,2A,01,00,00,00,
66453588,00000525,false,Rx,0,6,04,03,5E,00,00,00,00,00,
66501214,00000100,false,Rx,0,8,00,00,00,00,9A,01,C8,00,
66501470,00000101,false,Rx,0,8,00,FF,FE,00,00,00,00,00,
66501710,00000102,false,Rx,0,8,01,90,01,00,00,01,00,00,
66584762,00000522,false,Rx,0,6,01,05,6D,B4,05,00,00,00,
66601215,00000100,false,Rx,0,8,00,00,00,00,9A,01,C8,00,
66601474,00000101,false,Rx,0,8,00,FF,FE,00,00,00,00,00,
66601714,00000102,false,Rx,0,8,01,90,01,00,00,01,00,00,
66613092,00000528,false,Rx,0,6,07,05,A6,1E,00,00,00,00,
66653773,00000526,false,Rx,0,6,05,0B,05,00,00,00,00,00,
66655415,00000523,false,Rx,0,6,02,00,FA,FF,FF,FF,00,00,
66701215,00000100,false,Rx,0,8,00,00,00,00,9A,01,C8,00,
66701469,00000101,false,Rx,0,8,00,FF,FE,00,00,00,00,00,
66701709,00000102,false,Rx,0,8,01,90,01,00,00,01,00,00,
66712927,00000521,false,Rx,0,6,00,0F,FA,FF,FF,FF,00,00,
66772490,00000524,false,Rx,0,6,03,0F,E6,FF,FF,FF,00,00,
66801205,00000100,false,Rx,0,8,00,00,00,00,9A,01,C8,00,
66801473,00000101,false,Rx,0,8,00,FF,FE,00,00,00,00,00,
66801708,00000102,false,Rx,0,8,01,90,01,00,00,01,00,00,
66901204,00000100,false,Rx,0,8,00,00,00,00,9A,01,C8,00,
66901457,00000101,false,Rx,0,8,00,FF,FE,00,00,00,00,00,
66901702,00000102,false,Rx,0,8,01,90,01,00,00,01,00,00,
67001203,00000100,false,Rx,0,8,00,00,00,00,9A,01,C8,00,
67001456,00000101,false,Rx,0,8,00,FF,FE,00,00,00,00,00,
67001700,00000102,false,Rx,0,8,01,90,01,00,00,01,00,00,
67101199,00000100,false,Rx,0,8,00,00,00,00,9A,01,C8,00,
67101451,00000101,false,Rx,0,8,00,FF,FE,00,00,00,00,00,
67101702,00000102,false,Rx,0,8,01,90,01,00,00,01,00,00,
67128012,00000527,false,Rx,0,6,06,07,B7,2A,01,00,00,00,
67139862,00000525,false,Rx,0,6,04,04,5E,00,00,00,00,00,
67164280,00000108,false,Rx,0,8,01,F4,01,7D,00,00,00,00,
67164547,00000109,false,Rx,0,8,02,00,00,00,00,24,00,00,
67201200,00000100,false,Rx,0,8,00,00,00,00,9A,01,C8,00,
67201453,00000101,false,Rx,0,8,00,FF,FE,00,00,00,00,00,
67201703,00000102,false,Rx,0,8,01,90,01,00,00,01,00,00,
67216531,00000522,false,Rx,0,6,01,06,61,B4,05,00,00,00,
67264276,00000108,false,Rx,0,8,01,F4,01,7D,9A,01,00,00,
67264831,00000109,false,Rx,0,8,02,00,00,00,00,24,00,00,
67301196,00000100,false,Rx,0,8,00,00,00,00,9A,01,C8,00,
67301448,00000101,false,Rx,0,8,00,FF,FE,00,00,00,00,00,
67301698,00000102,false,Rx,0,8,01,90,01,00,00,01,00,00,
67305355,00000523,false,Rx,0,6,02,01,ED,FF,FF,FF,00,00,
67326534,00000521,false,Rx,0,6,00,00,F9,FF,FF,FF,00,00,
67353855,00000528,false,Rx,0,6,07,06,A6,1E,00,00,00,00,
67358128,00000526,false,Rx,0,6,05,0C,FF,FF,FF,FF,00,00,
67364281,00000108,false,Rx,0,8,01,F4,01,7D,9A,01,00,00,
67364836,00000109,false,Rx,0,8,02,00,00,00,00,24,00,00,
67401193,00000100,false,Rx,0,8,00,00,00,00,9A,01,C8,00,
67401447,00000101,false,Rx,0,8,00,FF,FE,00,00,00,00,00,
67401719,00000102,false,Rx,0,8,01,90,01,00,00,01,00,00,
67440638,00000524,false,Rx,0,6,03,00,E8,FF,FF,FF,00,00,
67464278,00000108,false,Rx,0,8,01,F4,01,7D,9A,01,00,00,
67464827,00000109,false,Rx,0,8,02,00,00,00,00,24,00,00,
67501195,00000100,false,Rx,0,8,00,00,00,00,9A,01,C8,00,
67501441,00000101,false,Rx,0,8,00,FF,FE,00,00,00,00,00,
67501688,00000102,false,Rx,0,8,01,90,01,00,00,01,00,00,
67564280,00000108,false,Rx,0,8,01,F4,01,7D,9A,01,00,00,
67564840,00000109,false,Rx,0,8,02,00,00,00,00,24,00,00,
67601188,00000100,false,Rx,0,8,00,00,00,00,9A,01,C8,00,
67601441,00000101,false,Rx,0,8,00,FF,FE,00,00,00,00,00,
67601689,00000102,false,Rx,0,8,01,90,01,00,00,01,00,00,
67664278,00000108,false,Rx,0,8,01,F4,01,7D,9A,01,00,00,
67664859,00000109,false,Rx,0,8,02,17,00,00,00,24,00,00,
67701188,00000100,false,Rx,0,8,00,00,00,00,9A,01,C8,00,
67701441,00000101,false,Rx,0,8,00,FF,FE,00,00,00,00,00,
67701688,00000102,false,Rx,0,8,01,90,01,00,00,01,00,00,
67764277,00000108,false,Rx,0,8,01,F4,01,7D,9A,01,00,00,
67764845,00000109,false,Rx,0,8,02,0A,00,00,00,24,00,00,
67801189,00000100,false,Rx,0,8,00,00,00,00,9A,01,C8,00,
67801435,00000101,false,Rx,0,8,00,FF,FE,00,00,00,00,00,
67801683,00000102,false,Rx,0,8,01,90,01,00,00,01,00,00,
