Time Stamp,ID,Extended,Dir,Bus,LEN,D1,D2,D3,D4,D5,D6,D7,D8
13055929,00000101,false,Rx,0,8,00,FF,FE,00,00,00,00,00,
13056175,00000102,false,Rx,0,8,01,90,01,00,00,01,00,00,
13092679,00000524,false,Rx,0,6,03,06,E6,FF,FF,FF,00,00,
13155675,00000100,false,Rx,0,8,00,00,00,00,9A,01,C8,00,
13155927,00000101,false,Rx,0,8,00,FF,FE,00,00,00,00,00,
13156173,00000102,false,Rx,0,8,01,90,01,00,00,01,00,00,
13205667,00000522,false,Rx,0,6,01,07,0B,B6,05,00,00,00,
13255675,00000100,false,Rx,0,8,00,00,00,00,9A,01,C8,00,
13255920,00000101,false,Rx,0,8,00,FF,FE,00,00,00,00,00,
13256172,00000102,false,Rx,0,8,01,90,01,00,00,01,00,00,
13282706,00000526,false,Rx,0,6,05,09,04,00,00,00,00,00,
13304951,00000527,false,Rx,0,6,06,00,B8,2A,01,00,00,00,
13353040,00000525,false,Rx,0,6,04,06,5E,00,00,00,00,00,
13355666,00000100,false,Rx,0,8,00,00,00,00,9A,01,C8,00,
13355922,00000101,false,Rx,0,8,00,FF,FE,00,00,00,00,00,
13356168,00000102,false,Rx,0,8,01,90,01,00,00,01,00,00,
13455666,00000100,false,Rx,0,8,00,00,00,00,9A,01,C8,00,
13455918,00000101,false,Rx,0,8,00,FF,FE,00,00,00,00,00,
13456163,00000102,false,Rx,0,8,01,90,01,00,00,01,00,00,
13491276,00000521,false,Rx,0,6,00,07,F8,FF,FF,FF,00,00,
13550836,00000523,false,Rx,0,6,02,0D,E6,FF,FF,FF,00,00,
13555668,00000100,false,Rx,0,8,00,00,00,00,9A,01,C8,00,
13555916,00000101,false,Rx,0,8,00,FF,FE,00,00,00,00,00,
13556162,00000102,false,Rx,0,8,01,90,01,00,00,01,00,00,
13637845,00000528,false,Rx,0,6,07,0B,A6,1E,00,00,00,00,
13655662,00000100,false,Rx,0,8,00,00,00,00,9A,01,C8,00,
13655928,00000101,false,Rx,0,8,00,FF,FE,00,00,00,00,00,
13656163,00000102,false,Rx,0,8,01,90,01,00,00,01,00,00,
13755665,00000100,false,Rx,0,8,00,00,00,00,9A,01,C8,00,
13755911,00000101,false,Rx,0,8,00,FF,FE,00,00,00,00,00,
13756159,00000102,false,Rx,0,8,01,90,01,00,00,01,00,00,
13760743,00000524,false,Rx,0,6,03,07,F8,FF,FF,FF,00,00,
13837426,00000522,false,Rx,0,6,01,08,15,B6,05,00,00,00,
13855658,00000100,false,Rx,0,8,00,00,00,00,9A,01,C8,00,
13855909,00000101,false,Rx,0,8,00,FF,FE,00,00,00,00,00,
13856155,00000102,false,Rx,0,8,01,90,01,00,00,01,00,00,
13955655,00000100,false,Rx,0,8,00,00,00,00,9A,01,C8,00,
13955908,00000101,false,Rx,0,8,00,FF,FE,00,00,00,00,00,
13956156,00000102,false,Rx,0,8,01,90,01,00,00,01,00,00,
13987092,00000526,false,Rx,0,6,05,0A,04,00,00,00,00,00,
14027507,00000527,false,Rx,0,6,06,01,B8,2A,01,00,00,00,
14039295,00000525,false,Rx,0,6,04,07,5E,00,00,00,00,00,
14055655,00000100,false,Rx,0,8,00,00,00,00,9A,01,C8,00,
14055907,00000101,false,Rx,0,8,00,FF,FE,00,00,00,00,00,
14056154,00000102,false,Rx,0,8,01,90,01,00,00,01,00,00,
14104864,00000521,false,Rx,0,6,00,08,F7,FF,FF,FF,00,00,
14155655,00000100,false,Rx,0,8,00,00,00,00,9A,01,C8,00,
14155901,00000101,false,Rx,0,8,00,FF,FE,00,00,00,00,00,
14156149,00000102,false,Rx,0,8,01,90,01,00,00,01,00,00,
14200744,00000523,false,Rx,0,6,02,0E,F4,FF,FF,FF,00,00,
14255652,00000100,false,Rx,0,8,00,00,00,00,9A,01,C8,00,
14255898,00000101,false,Rx,0,8,00,FF,FE,00,00,00,00,00,
14256150,00000102,false,Rx,0,8,01,90,01,00,00,01,00,00,
14355645,00000100,false,Rx,0,8,00,00,00,00,9A,01,C8,00,
14355897,00000101,false,Rx,0,8,00,FF,FE,00,00,00,00,00,
14356148,00000102,false,Rx,0,8,01,90,01,00,00,01,00,00,
14378432,00000528,false,Rx,0,6,07,0C,A6,1E,00,00,00,00,
14428828,00000524,false,Rx,0,6,03,08,FD,FF,FF,FF,00,00,
14455648,00000100,false,Rx,0,8,00,00,00,00,9A,01,C8,00,
14455900,00000101,false,Rx,0,8,00,FF,FE,00,00,00,00,00,
14456146,00000102,false,Rx,0,8,01,90,01,00,00,01,00,00,
14469170,00000522,false,Rx,0,6,01,09,18,B6,05,00,00,00,
14555642,00000100,false,Rx,0,8,00,00,00,00,9A,01,C8,00,
14555894,00000101,false,Rx,0,8,00,FF,FE,00,00,00,00,00,
14556146,00000102,false,Rx,0,8,01,90,01,00,00,01,00,00,
14655642,00000100,false,Rx,0,8,00,00,00,00,9A,01,C8,00,
14655894,00000101,false,Rx,0,8,00,FF,FE,00,00,00,00,00,
14656140,00000102,false,Rx,0,8,01,90,01,00,00,01,00,00,
14691375,00000526,false,Rx,0,6,05,0B,04,00,00,00,00,00,
14718473,00000521,false,Rx,0,6,00,09,F7,FF,FF,FF,00,00,
14725558,00000525,false,Rx,0,6,04,08,5E,00,00,00,00,00,
14749828,00000527,false,Rx,0,6,06,02,B8,2A,01,00,00,00,
14755643,00000100,false,Rx,0,8,00,00,00,00,9A,01,C8,00,
14755889,00000101,false,Rx,0,8,00,FF,FE,00,00,00,00,00,
14756141,00000102,false,Rx,0,8,01,90,01,00,00,01,00,00,
14850681,00000523,false,Rx,0,6,02,0F,F4,FF,FF,FF,00,00,
14855642,00000100,false,Rx,0,8,00,00,00,00,9A,01,C8,00,
14855887,00000101,false,Rx,0,8,00,FF,FE,00,00,00,00,00,
14856139,00000102,false,Rx,0,8,01,90,01,00,00,01,00,00,
14955639,00000100,false,Rx,0,8,00,00,00,00,9A,01,C8,00,
14955885,00000101,false,Rx,0,8,00,FF,FE,00,00,00,00,00,
14956137,00000102,false,Rx,0,8,01,90,01,00,00,01,00,00,
15055637,00000100,false,Rx,0,8,00,00,00,00,9A,01,C8,00,
15055883,00000101,false,Rx,0,8,00,FF,FE,00,00,00,00,00,
15056135,00000102,false,Rx,0,8,01,90,01,00,00,01,00,00,
15096938,00000524,false,Rx,0,6,03,09,DB,FF,FF,FF,00,00,
15100946,00000522,false,Rx,0,6,01,0A,14,B6,05,00,00,00,
15119190,00000528,false,Rx,0,6,07,0D,A6,1E,00,00,00,00,
15155630,00000100,false,Rx,0,8,00,00,00,00,9A,01,C8,00,
15155885,00000101,false,Rx,0,8,00,FF,FE,00,00,00,00,00,
15156131,00000102,false,Rx,0,8,01,90,01,00,00,01,00,00,
15255630,00000100,false,Rx,0,8,00,00,00,00,9A,01,C8,00,
15255882,00000101,false,Rx,0,8,00,FF,FE,00,00,00,00,00,
15256128,00000102,false,Rx,0,8,01,90,01,00,00,01,00,00,
15332063,00000521,false,Rx,0,6,00,0A,F5,FF,FF,FF,00,00,
15355630,00000100,false,Rx,0,8,00,00,00,00,9A,01,C8,00,
15355879,00000101,false,Rx,0,8,00,FF,FE,00,00,00,00,00,
15356125,00000102,false,Rx,0,8,01,90,01,00,00,01,00,00,
15395948,00000526,false,Rx,0,6,05,0C,07,00,00,00,00,00,
15411812,00000525,false,Rx,0,6,04,09,5E,00,00,00,00,00,
15455629,00000100,false,Rx,0,8,00,00,00,00,9A,01,C8,00,
15455877,00000101,false,Rx,0,8,00,FF,FE,00,00,00,00,00,
15456123,00000102,false,Rx,0,8,01,90,01,00,00,01,00,00,
15472407,00000527,false,Rx,0,6,06,03,B8,2A,01,00,00,00,
15500605,00000523,false,Rx,0,6,02,00,F4,FF,FF,FF,00,00,
15555623,00000100,false,Rx,0,8,00,00,00,00,9A,01,C8,00,
15555874,00000101,false,Rx,0,8,00,FF,FE,00,00,00,00,00,
15556122,00000102,false,Rx,0,8,01,90,01,00,00,01,00,00,
15655624,00000100,false,Rx,0,8,00,00,00,00,9A,01,C8,00,
15655870,00000101,false,Rx,0,8,00,FF,FE,00,00,00,00,00,
15656119,00000102,false,Rx,0,8,01,90,01,00,00,01,00,00,
15732705,00000522,false,Rx,0,6,01,0B,1D,B6,05,00,00,00,
15755624,00000100,false,Rx,0,8,00,00,00,00,9A,01,C8,00,
15755870,00000101,false,Rx,0,8,00,FF,FE,00,00,00,00,00,
15756121,00000102,false,Rx,0,8,01,90,01,00,00,01,00,00,
15765018,00000524,false,Rx,0,6,03,0A,EC,FF,FF,FF,00,00,
15855619,00000100,false,Rx,0,8,00,00,00,00,9A,01,C8,00,
15855865,00000101,false,Rx,0,8,00,FF,FE,00,00,00,00,00,
15856114,00000102,false,Rx,0,8,01,90,01,00,00,01,00,00,
15859938,00000528,false,Rx,0,6,07,0E,A6,1E,00,00,00,00,
15945642,00000521,false,Rx,0,6,00,0B,F5,FF,FF,FF,00,00,
15955618,00000100,false,Rx,0,8,00,00,00,00,9A,01,C8,00,
15955864,00000101,false,Rx,0,8,00,FF,FE,00,00,00,00,00,
15956115,00000102,false,Rx,0,8,01,90,01,00,00,01,00,00,
16055612,00000100,false,Rx,0,8,00,00,00,00,9A,01,C8,00,
16055864,00000101,false,Rx,0,8,00,FF,FE,00,00,00,00,00,
16056113,00000102,false,Rx,0,8,01,90,01,00,00,01,00,00,
16098057,00000525,false,Rx,0,6,04,0A,5E,00,00,00,00,00,
16100199,00000526,false,Rx,0,6,05,0D,03,00,00,00,00,00,
16150823,00000523,false,Rx,0,6,02,01,F7,FF,FF,FF,00,00,
16155611,00000100,false,Rx,0,8,00,00,00,00,9A,01,C8,00,
16155864,00000101,false,Rx,0,8,00,FF,FE,00,00,00,00,00,
16156119,00000102,false,Rx,0,8,01,90,01,00,00,01,00,00,
16194975,00000527,false,Rx,0,6,06,04,B8,2A,01,00,00,00,
16255609,00000100,false,Rx,0,8,00,00,00,00,9A,01,C8,00,
16255861,00000101,false,Rx,0,8,00,FF,FE,00,00,00,00,00,
16256107,00000102,false,Rx,0,8,01,90,01,00,00,01,00,00,
16355607,00000100,false,Rx,0,8,00,00,00,00,9A,01,C8,00,
16355859,00000101,false,Rx,0,8,00,FF,FE,00,00,00,00,00,
16356105,00000102,false,Rx,0,8,01,90,01,00,00,01,00,00,
16364457,00000522,false,Rx,0,6,01,0C,0C,B6,05,00,00,00,
16433098,00000524,false,Rx,0,6,03,0B,F9,FF,FF,FF,00,00,
16455606,00000100,false,Rx,0,8,00,00,00,00,9A,01,C8,00,
16455858,00000101,false,Rx,0,8,00,FF,FE,00,00,00,00,00,
16456104,00000102,false,Rx,0,8,01,90,01,00,00,01,00,00,
16555605,00000100,false,Rx,0,8,00,00,00,00,9A,01,C8,00,
16555857,00000101,false,Rx,0,8,00,FF,FE,00,00,00,00,00,
16556103,00000102,false,Rx,0,8,01,90,01,00,00,01,00,00,
16559234,00000521,false,Rx,0,6,00,0C,F7,FF,FF,FF,00,00,
16600989,00000528,false,Rx,0,6,07,0F,A6,1E,00,00,00,00,
16655602,00000100,false,Rx,0,8,00,00,00,00,9A,01,C8,00,
16655855,00000101,false,Rx,0,8,00,FF,FE,00,00,00,00,00,
16656101,00000102,false,Rx,0,8,01,90,01,00,00,01,00,00,
16755602,00000100,false,Rx,0,8,00,00,00,00,9A,01,C8,00,
16755847,00000101,false,Rx,0,8,00,FF,FE,00,00,00,00,00,
16756100,00000102,false,Rx,0,8,01,90,01,00,00,01,00,00,
16784321,00000525,false,Rx,0,6,04,0B,5E,00,00,00,00,00,
16800438,00000523,false,Rx,0,6,02,02,F7,FF,FF,FF,00,00,
16804811,00000526,false,Rx,0,6,05,0E,00,00,00,00,00,00,
16855600,00000100,false,Rx,0,8,00,00,00,00,9A,01,C8,00,
16855846,00000101,false,Rx,0,8,00,FF,FE,00,00,00,00,00,
16856098,00000102,false,Rx,0,8,01,90,01,00,00,01,00,00,
16917580,00000527,false,Rx,0,6,06,05,B8,2A,01,00,00,00,
16955594,00000100,false,Rx,0,8,00,00,00,00,9A,01,C8,00,
16955849,00000101,false,Rx,0,8,00,FF,FE,00,00,00,00,00,
16956095,00000102,false,Rx,0,8,01,90,01,00,00,01,00,00,
16996221,00000522,false,Rx,0,6,01,0D,1F,B6,05,00,00,00,
17055594,00000100,false,Rx,0,8,00,00,00,00,9A,01,C8,00,
17055846,00000101,false,Rx,0,8,00,FF,FE,00,00,00,00,00,
17056092,00000102,false,Rx,0,8,01,90,01,00,00,01,00,00,
17101192,00000524,false,Rx,0,6,03,0C,ED,FF,FF,FF,00,00,
17155590,00000100,false,Rx,0,8,00,00,00,00,9A,01,C8,00,
17155853,00000101,false,Rx,0,8,00,FF,FE,00,00,00,00,00,
17156087,00000102,false,Rx,0,8,01,90,01,00,00,01,00,00,
17172837,00000521,false,Rx,0,6,00,0D,F6,FF,FF,FF,00,00,
17255588,00000100,false,Rx,0,8,00,00,00,00,9A,01,C8,00,
17255840,00000101,false,Rx,0,8,00,FF,FE,00,00,00,00,00,
17256089,00000102,false,Rx,0,8,01,90,01,00,00,01,00,00,
17341451,00000528,false,Rx,0,6,07,00,A6,1E,00,00,00,00,
17355588,00000100,false,Rx,0,8,00,00,00,00,9A,01,C8,00,
17355840,00000101,false,Rx,0,8,00,FF,FE,00,00,00,00,00,
17356085,00000102,false,Rx,0,8,01,90,01,00,00,01,00,00,
17450376,00000523,false,Rx,0,6,02,03,EE,FF,FF,FF,00,00,
17455587,00000100,false,Rx,0,8,00,00,00,00,9A,01,C8,00,
17455833,00000101,false,Rx,0,8,00,FF,FE,00,00,00,00,00,
17456084,00000102,false,Rx,0,8,01,90,01,00,00,01,00,00,
17470579,00000525,false,Rx,0,6,04,0C,5E,00,00,00,00,00,
17509274,00000526,false,Rx,0,6,05,0F,01,00,00,00,00,00,
17555580,00000100,false,Rx,0,8,00,00,00,00,9A,01,C8,00,
17555832,00000101,false,Rx,0,8,00,FF,FE,00,00,00,00,00,
17556083,00000102,false,Rx,0,8,01,90,01,00,00,01,00,00,
17627988,00000522,false,Rx,0,6,01,0E,1F,B6,05,00,00,00,
17640164,00000527,false,Rx,0,6,06,06,B8,2A,01,00,00,00,
17655581,00000100,false,Rx,0,8,00,00,00,00,9A,01,C8,00,
17655834,00000101,false,Rx,0,8,00,FF,FE,00,00,00,00,00,
17656082,00000102,false,Rx,0,8,01,90,01,00,00,01,00,00,
17755581,00000100,false,Rx,0,8,00,00,00,00,9A,01,C8,00,
17755827,00000101,false,Rx,0,8,00,FF,FE,00,00,00,00,00,
17756092,00000102,false,Rx,0,8,01,90,01,00,00,01,00,00,
17769291,00000524,false,Rx,0,6,03,0D,EB,FF,FF,FF,00,00,
17786476,00000521,false,Rx,0,6,00,0E,F8,FF,FF,FF,00,00,
17855575,00000100,false,Rx,0,8,00,00,00,00,9A,01,C8,00,
17855827,00000101,false,Rx,0,8,00,FF,FE,00,00,00,00,00,
17856073,00000102,false,Rx,0,8,01,90,01,00,00,01,00,00,
17955575,00000100,false,Rx,0,8,00,00,00,00,9A,01,C8,00,
17955828,00000101,false,Rx,0,8,00,FF,FE,00,00,00,00,00,
17956073,00000102,false,Rx,0,8,01,90,01,00,00,01,00,00,
18055573,00000100,false,Rx,0,8,00,00,00,00,9A,01,C8,00,
18055826,00000101,false,Rx,0,8,00,FF,FE,00,00,00,00,00,
18056071,00000102,false,Rx,0,8,01,90,01,00,00,01,00,00,
18082211,00000528,false,Rx,0,6,07,01,A6,1E,00,00,00,00,
18100307,00000523,false,Rx,0,6,02,04,EB,FF,FF,FF,00,00,
18155568,00000100,false,Rx,0,8,00,00,00,00,9A,01,C8,00,
18155822,00000101,false,Rx,0,8,00,FF,FE,00,00,00,00,00,
18156067,00000102,false,Rx,0,8,01,90,01,00,00,01,00,00,
18156845,00000525,false,Rx,0,6,04,0D,5E,00,00,00,00,00,
18213627,00000526,false,Rx,0,6,05,00,FA,FF,FF,FF,00,00,
18255569,00000100,false,Rx,0,8,00,00,00,00,9A,01,C8,00,
18255818,00000101,false,Rx,0,8,00,FF,FE,00,00,00,00,00,
18256069,00000102,false,Rx,0,8,01,90,01,00,00,01,00,00,
18259757,00000522,false,Rx,0,6,01,0F,1C,B6,05,00,00,00,
18355568,00000100,false,Rx,0,8,00,00,00,00,9A,01,C8,00,
18355820,00000101,false,Rx,0,8,00,FF,FE,00,00,00,00,00,
18356066,00000102,false,Rx,0,8,01,90,01,00,00,01,00,00,
18362777,00000527,false,Rx,0,6,06,07,B8,2A,01,00,00,00,
18400040,00000521,false,Rx,0,6,00,0F,FF,FF,FF,FF,00,00,
18437402,00000524,false,Rx,0,6,03,0E,F6,FF,FF,FF,00,00,
18455567,00000100,false,Rx,0,8,00,00,00,00,9A,01,C8,00,
18455815,00000101,false,Rx,0,8,00,FF,FE,00,00,00,00,00,
18456061,00000102,false,Rx,0,8,01,90,01,00,00,01,00,00,
18555562,00000100,false,Rx,0,8,00,00,00,00,9A,01,C8,00,
18555815,00000101,false,Rx,0,8,00,FF,FE,00,00,00,00,00,
18556061,00000102,false,Rx,0,8,01,90,01,00,00,01,00,00,
18655557,00000100,false,Rx,0,8,00,00,00,00,9A,01,C8,00,
18655821,00000101,false,Rx,0,8,00,FF,FE,00,00,00,00,00,
18656056,00000102,false,Rx,0,8,01,90,01,00,00,01,00,00,
18750294,00000523,false,Rx,0,6,02,05,EB,FF,FF,FF,00,00,
18755558,00000100,false,Rx,0,8,00,00,00,00,9A,01,C8,00,
18755811,00000101,false,Rx,0,8,00,FF,FE,00,00,00,00,00,
18756056,00000102,false,Rx,0,8,01,90,01,00,00,01,00,00,
18822985,00000528,false,Rx,0,6,07,02,A6,1E,00,00,00,00,
18843118,00000525,false,Rx,0,6,04,0E,5E,00,00,00,00,00,
18855560,00000100,false,Rx,0,8,00,00,00,00,9A,01,C8,00,
18855805,00000101,false,Rx,0,8,00,FF,FE,00,00,00,00,00,
18856052,00000102,false,Rx,0,8,01,90,01,00,00,01,00,00,
18891538,00000522,false,Rx,0,6,01,00,0E,B6,05,00,00,00,
18917932,00000526,false,Rx,0,6,05,01,02,00,00,00,00,00,
18955556,00000100,false,Rx,0,8,00,00,00,00,9A,01,C8,00,
18955802,00000101,false,Rx,0,8,00,FF,FE,00,00,00,00,00,
18956053,00000102,false,Rx,0,8,01,90,01,00,00,01,00,00,
19013655,00000521,false,Rx,0,6,00,00,F7,FF,FF,FF,00,00,
19055552,00000100,false,Rx,0,8,00,00,00,00,9A,01,C8,00,
19055803,00000101,false,Rx,0,8,00,FF,FE,00,00,00,00,00,
19056048,00000102,false,Rx,0,8,01,90,01,00,00,01,00,00,
19085381,00000527,false,Rx,0,6,06,08,B8,2A,01,00,00,00,
19105526,00000524,false,Rx,0,6,03,0F,E9,FF,FF,FF,00,00,
19155553,00000100,false,Rx,0,8,00,00,00,00,9A,01,C8,00,
19155798,00000101,false,Rx,0,8,00,FF,FE,00,00,00,00,00,
19156048,00000102,false,Rx,0,8,01,90,01,00,00,01,00,00,
19255550,00000100,false,Rx,0,8,00,00,00,00,9A,01,C8,00,
19255796,00000101,false,Rx,0,8,00,FF,FE,00,00,00,00,00,
19256055,00000102,false,Rx,0,8,01,90,01,00,00,01,00,00,
19355544,00000100,false,Rx,0,8,00,00,00,00,9A,01,C8,00,
19355796,00000101,false,Rx,0,8,00,FF,FE,00,00,00,00,00,
19356041,00000102,false,Rx,0,8,01,90,01,00,00,01,00,00,
19400203,00000523,false,Rx,0,6,02,06,F8,FF,FF,FF,00,00,
19455543,00000100,false,Rx,0,8,00,00,00,00,9A,01,C8,00,
19455795,00000101,false,Rx,0,8,00,FF,FE,00,00,00,00,00,
19456042,00000102,false,Rx,0,8,01,90,01,00,00,01,00,00,
19523319,00000522,false,Rx,0,6,01,01,19,B6,05,00,00,00,
19529402,00000525,false,Rx,0,6,04,0F,5E,00,00,00,00,00,
19555540,00000100,false,Rx,0,8,00,00,00,00,9A,01,C8,00,
19555792,00000101,false,Rx,0,8,00,FF,FE,00,00,00,00,00,
19556038,00000102,false,Rx,0,8,01,90,01,00,00,01,00,00,
19563774,00000528,false,Rx,0,6,07,03,A6,1E,00,00,00,00,
19622557,00000526,false,Rx,0,6,05,02,04,00,00,00,00,00,
19627274,00000521,false,Rx,0,6,00,01,FC,FF,FF,FF,00,00,
19655541,00000100,false,Rx,0,8,00,00,00,00,9A,01,C8,00,
19655787,00000101,false,Rx,0,8,00,FF,FE,00,00,00,00,00,
19656039,00000102,false,Rx,0,8,01,90,01,00,00,01,00,00,
19755540,00000100,false,Rx,0,8,00,00,00,00,9A,01,C8,00,
19755785,00000101,false,Rx,0,8,00,FF,FE,00,00,00,00,00,
19756038,00000102,false,Rx,0,8,01,90,01,00,00,01,00,00,
19773633,00000524,false,Rx,0,6,03,00,F6,FF,FF,FF,00,00,
19807994,00000527,false,Rx,0,6,06,09,B8,2A,01,00,00,00,
19855536,00000100,false,Rx,0,8,00,00,00,00,9A,01,C8,00,
19855784,00000101,false,Rx,0,8,00,FF,FE,00,00,00,00,00,
19856036,00000102,false,Rx,0,8,01,90,01,00,00,01,00,00,
19955535,00000100,false,Rx,0,8,00,00,00,00,9A,01,C8,00,
19955781,00000101,false,Rx,0,8,00,FF,FE,00,00,00,00,00,
19956034,00000102,false,Rx,0,8,01,90,01,00,00,01,00,00,
20050148,00000523,false,Rx,0,6,02,07,EB,FF,FF,FF,00,00,
20055529,00000100,false,Rx,0,8,00,00,00,00,9A,01,C8,00,
20055784,00000101,false,Rx,0,8,00,FF,FE,00,00,00,00,00,
20056030,00000102,false,Rx,0,8,01,90,01,00,00,01,00,00,
20155099,00000522,false,Rx,0,6,01,02,2C,B6,05,00,00,00,
20155526,00000100,false,Rx,0,8,00,00,00,00,9A,01,C8,00,
20155781,00000101,false,Rx,0,8,00,FF,FE,00,00,00,00,00,
20156027,00000102,false,Rx,0,8,01,90,01,00,00,01,00,00,
20215680,00000525,false,Rx,0,6,04,00,5E,00,00,00,00,00,
20240883,00000521,false,Rx,0,6,00,02,F7,FF,FF,FF,00,00,
20255525,00000100,false,Rx,0,8,00,00,00,00,9A,01,C8,00,
20255776,00000101,false,Rx,0,8,00,FF,FE,00,00,00,00,00,
20256028,00000102,false,Rx,0,8,01,90,01,00,00,01,00,00,
20304550,00000528,false,Rx,0,6,07,04,A6,1E,00,00,00,00,
20326809,00000526,false,Rx,0,6,05,03,05,00,00,00,00,00,
20355526,00000100,false,Rx,0,8,00,00,00,00,9A,01,C8,00,
20355779,00000101,false,Rx,0,8,00,FF,FE,00,00,00,00,00,
20356020,00000102,false,Rx,0,8,01,90,01,00,00,01,00,00,
20441735,00000524,false,Rx,0,6,03,01,EC,FF,FF,FF,00,00,
20455525,00000100,false,Rx,0,8,00,00,00,00,9A,01,C8,00,
20455777,00000101,false,Rx,0,8,00,FF,FE,00,00,00,00,00,
20456022,00000102,false,Rx,0,8,01,90,01,00,00,01,00,00,
20530605,00000527,false,Rx,0,6,06,0A,B8,2A,01,00,00,00,
20555519,00000100,false,Rx,0,8,00,00,00,00,9A,01,C8,00,
20555770,00000101,false,Rx,0,8,00,FF,FE,00,00,00,00,00,
20556015,00000102,false,Rx,0,8,01,90,01,00,00,01,00,00,
20655516,00000100,false,Rx,0,8,00,00,00,00,9A,01,C8,00,
20655768,00000101,false,Rx,0,8,00,FF,FE,00,00,00,00,00,
20656017,00000102,false,Rx,0,8,01,90,01,00,00,01,00,00,
20700093,00000523,false,Rx,0,6,02,08,EB,FF,FF,FF,00,00,
20755515,00000100,false,Rx,0,8,00,00,00,00,9A,01,C8,00,
20755766,00000101,false,Rx,0,8,00,FF,FE,00,00,00,00,00,
20756015,00000102,false,Rx,0,8,01,90,01,00,00,01,00,00,
20786874,00000522,false,Rx,0,6,01,03,26,B6,05,00,00,00,
20854494,00000521,false,Rx,0,6,00,03,F6,FF,FF,FF,00,00,
20855519,00000100,false,Rx,0,8,00,00,00,00,9A,01,C8,00,
20855764,00000101,false,Rx,0,8,00,FF,FE,00,00,00,00,00,
20856015,00000102,false,Rx,0,8,01,90,01,00,00,01,00,00,
20901961,00000525,false,Rx,0,6,04,01,5E,00,00,00,00,00,
20955513,00000100,false,Rx,0,8,00,00,00,00,9A,01,C8,00,
20955765,00000101,false,Rx,0,8,00,FF,FE,00,00,00,00,00,
20956013,00000102,false,Rx,0,8,01,90,01,00,00,01,00,00,
21031476,00000526,false,Rx,0,6,05,04,08,00,00,00,00,00,
21045332,00000528,false,Rx,0,6,07,05,A6,1E,00,00,00,00,
21055514,00000100,false,Rx,0,8,00,00,00,00,9A,01,C8,00,
21055759,00000101,false,Rx,0,8,00,FF,FE,00,00,00,00,00,
21056030,00000102,false,Rx,0,8,01,90,01,00,00,01,00,00,
21109859,00000524,false,Rx,0,6,03,02,E7,FF,FF,FF,00,00,
21155507,00000100,false,Rx,0,8,00,00,00,00,9A,01,C8,00,
21155759,00000101,false,Rx,0,8,00,FF,FE,00,00,00,00,00,
21156005,00000102,false,Rx,0,8,01,90,01,00,00,01,00,00,
21253225,00000527,false,Rx,0,6,06,0B,B8,2A,01,00,00,00,
21255507,00000100,false,Rx,0,8,00,00,00,00,9A,01,C8,00,
21255759,00000101,false,Rx,0,8,00,FF,FE,00,00,00,00,00,
21256005,00000102,false,Rx,0,8,01,90,01,00,00,01,00,00,
21350056,00000523,false,Rx,0,6,02,09,F9,FF,FF,FF,00,00,
21355502,00000100,false,Rx,0,8,00,00,00,00,9A,01,C8,00,
21355754,00000101,false,Rx,0,8,00,FF,FE,00,00,00,00,00,
21356006,00000102,false,Rx,0,8,01,90,01,00,00,01,00,00,
21419004,00000522,false,Rx,0,6,01,04,0D,B6,05,00,00,00,
21455504,00000100,false,Rx,0,8,00,00,00,00,9A,01,C8,00,
21455750,00000101,false,Rx,0,8,00,FF,FE,00,00,00,00,00,
21456002,00000102,false,Rx,0,8,01,90,01,00,00,01,00,00,
21468130,00000521,false,Rx,0,6,00,04,FA,FF,FF,FF,00,00,
21555504,00000100,false,Rx,0,8,00,00,00,00,9A,01,C8,00,
21555751,00000101,false,Rx,0,8,00,FF,FE,00,00,00,00,00,
21555997,00000102,false,Rx,0,8,01,90,01,00,00,01,00,00,
21588260,00000525,false,Rx,0,6,04,02,5E,00,00,00,00,00,
21655496,00000100,false,Rx,0,8,00,00,00,00,9A,01,C8,00,
21655749,00000101,false,Rx,0,8,00,FF,FE,00,00,00,00,00,
21655995,00000102,false,Rx,0,8,01,90,01,00,00,01,00,00,
21735923,00000526,false,Rx,0,6,05,05,FF,FF,FF,FF,00,00,
21755494,00000100,false,Rx,0,8,00,00,00,00,9A,01,C8,00,
21755749,00000101,false,Rx,0,8,00,FF,FE,00,00,00,00,00,
21755995,00000102,false,Rx,0,8,01,90,01,00,00,01,00,00,
21778020,00000524,false,Rx,0,6,03,03,04,00,00,00,00,00,
21786127,00000528,false,Rx,0,6,07,06,A6,1E,00,00,00,00,
21855497,00000100,false,Rx,0,8,00,00,00,00,9A,01,C8,00,
21855744,00000101,false,Rx,0,8,00,FF,FE,00,00,00,00,00,
21855989,00000102,false,Rx,0,8,01,90,01,00,00,01,00,00,
21955495,00000100,false,Rx,0,8,00,00,00,00,9A,01,C8,00,
21955742,00000101,false,Rx,0,8,00,FF,FE,00,00,00,00,00,
21955987,00000102,false,Rx,0,8,01,90,01,00,00,01,00,00,
21975846,00000527,false,Rx,0,6,06,0C,B8,2A,01,00,00,00,
22000002,00000523,false,Rx,0,6,02,0A,EA,FF,FF,FF,00,00,
22050865,00000522,false,Rx,0,6,01,05,2B,B6,05,00,00,00,
22055496,00000100,false,Rx,0,8,00,00,00,00,9A,01,C8,00,
22055738,00000101,false,Rx,0,8,00,FF,FE,00,00,00,00,00,
22055990,00000102,false,Rx,0,8,01,90,01,00,00,01,00,00,
22081861,00000521,false,Rx,0,6,00,05,F7,FF,FF,FF,00,00,
22155493,00000100,false,Rx,0,8,00,00,00,00,9A,01,C8,00,
22155739,00000101,false,Rx,0,8,00,FF,FE,00,00,00,00,00,
22155988,00000102,false,Rx,0,8,01,90,01,00,00,01,00,00,
22255495,00000100,false,Rx,0,8,00,00,00,00,9A,01,C8,00,
22255734,00000101,false,Rx,0,8,00,FF,FE,00,00,00,00,00,
22255983,00000102,false,Rx,0,8,01,90,01,00,00,01,00,00,
22274541,00000525,false,Rx,0,6,04,03,5E,00,00,00,00,00,
22355491,00000100,false,Rx,0,8,00,00,00,00,9A,01,C8,00,
22355730,00000101,false,Rx,0,8,00,FF,FE,00,00,00,00,00,
22355978,00000102,false,Rx,0,8,01,90,01,00,00,01,00,00,
22440346,00000526,false,Rx,0,6,05,06,FC,FF,FF,FF,00,00,
22446108,00000524,false,Rx,0,6,03,04,F4,FF,FF,FF,00,00,
22455488,00000100,false,Rx,0,8,00,00,00,00,9A,01,C8,00,
22455733,00000101,false,Rx,0,8,00,FF,FE,00,00,00,00,00,
22455981,00000102,false,Rx,0,8,01,90,01,00,00,01,00,00,
22526907,00000528,false,Rx,0,6,07,07,A6,1E,00,00,00,00,
22555480,00000100,false,Rx,0,8,00,00,00,00,9A,01,C8,00,
22555741,00000101,false,Rx,0,8,00,FF,FE,00,00,00,00,00,
22555980,00000102,false,Rx,0,8,01,90,01,00,00,01,00,00,
22649962,00000523,false,Rx,0,6,02,0B,EA,FF,FF,FF,00,00,
22655476,00000100,false,Rx,0,8,00,00,00,00,9A,01,C8,00,
22655736,00000101,false,Rx,0,8,00,FF,FE,00,00,00,00,00,
22655975,00000102,false,Rx,0,8,01,90,01,00,00,01,00,00,
22682243,00000522,false,Rx,0,6,01,06,2A,B6,05,00,00,00,
22695370,00000521,false,Rx,0,6,00,06,F5,FF,FF,FF,00,00,
22698472,00000527,false,Rx,0,6,06,0D,B8,2A,01,00,00,00,
22755477,00000100,false,Rx,0,8,00,00,00,00,9A,01,C8,00,
22755731,00000101,false,Rx,0,8,00,FF,FE,00,00,00,00,00,
22755985,00000102,false,Rx,0,8,01,90,01,00,00,01,00,00,
22855473,00000100,false,Rx,0,8,00,00,00,00,9A,01,C8,00,
22855725,00000101,false,Rx,0,8,00,FF,FE,00,00,00,00,00,
22855971,00000102,false,Rx,0,8,01,90,01,00,00,01,00,00,
22955477,00000100,false,Rx,0,8,00,00,00,00,9A,01,C8,00,
22955722,00000101,false,Rx,0,8,00,FF,FE,00,00,00,00,00,
22955968,00000102,false,Rx,0,8,01,90,01,00,00,01,00,00,
22960823,00000525,false,Rx,0,6,04,04,5E,00,00,00,00,00,
23055476,00000100,false,Rx,0,8,00,00,00,00,9A,01,C8,00,
23055722,00000101,false,Rx,0,8,00,FF,FE,00,00,00,00,00,
23055968,00000102,false,Rx,0,8,01,90,01,00,00,01,00,00,
23114528,00000524,false,Rx,0,6,03,05,EC,FF,FF,FF,00,00,
23144729,00000526,false,Rx,0,6,05,07,05,00,00,00,00,00,
23155475,00000100,false,Rx,0,8,00,00,00,00,9A,01,C8,00,
23155721,00000101,false,Rx,0,8,00,FF,FE,00,00,00,00,00,
23155967,00000102,false,Rx,0,8,01,90,01,00,00,01,00,00,
23255474,00000100,false,Rx,0,8,00,00,00,00,9A,01,C8,00,
23255714,00000101,false,Rx,0,8,00,FF,FE,00,00,00,00,00,
23255966,00000102,false,Rx,0,8,01,90,01,00,00,01,00,00,
23267686,00000528,false,Rx,0,6,07,08,A6,1E,00,00,00,00,
23299915,00000523,false,Rx,0,6,02,0C,EB,FF,FF,FF,00,00,
23308973,00000521,false,Rx,0,6,00,07,FA,FF,FF,FF,00,00,
23314025,00000522,false,Rx,0,6,01,07,25,B6,05,00,00,00,
23355470,00000100,false,Rx,0,8,00,00,00,00,9A,01,C8,00,
23355715,00000101,false,Rx,0,8,00,FF,FE,00,00,00,00,00,
23355960,00000102,false,Rx,0,8,01,90,01,00,00,01,00,00,
23421077,00000527,false,Rx,0,6,06,0E,B8,2A,01,00,00,00,
23455470,00000100,false,Rx,0,8,00,00,00,00,9A,01,C8,00,
23455713,00000101,false,Rx,0,8,00,FF,FE,00,00,00,00,00,
23455959,00000102,false,Rx,0,8,01,90,01,00,00,01,00,00,
23555457,00000100,false,Rx,0,8,00,00,00,00,9A,01,C8,00,
23555709,00000101,false,Rx,0,8,00,FF,FE,00,00,00,00,00,
23555955,00000102,false,Rx,0,8,01,90,01,00,00,01,00,00,
23647099,00000525,false,Rx,0,6,04,05,5E,00,00,00,00,00,
23655458,00000100,false,Rx,0,8,00,00,00,00,9A,01,C8,00,
23655708,00000101,false,Rx,0,8,00,FF,FE,00,00,00,00,00,
23655954,00000102,false,Rx,0,8,01,90,01,00,00,01,00,00,
23755467,00000100,false,Rx,0,8,00,00,00,00,9A,01,C8,00,
23755707,00000101,false,Rx,0,8,00,FF,FE,00,00,00,00,00,
23755952,00000102,false,Rx,0,8,01,90,01,00,00,01,00,00,
23782327,00000524,false,Rx,0,6,03,06,F4,FF,FF,FF,00,00,
23848997,00000526,false,Rx,0,6,05,08,00,00,00,00,00,00,
23855453,00000100,false,Rx,0,8,00,00,00,00,9A,01,C8,00,
23855720,00000101,false,Rx,0,8,00,FF,FE,00,00,00,00,00,
23855948,00000102,false,Rx,0,8,01,90,01,00,00,01,00,00,
23922593,00000521,false,Rx,0,6,00,08,F5,FF,FF,FF,00,00,
23945803,00000522,false,Rx,0,6,01,08,2B,B6,05,00,00,00,
23949849,00000523,false,Rx,0,6,02,0D,E2,FF,FF,FF,00,00,
23955451,00000100,false,Rx,0,8,00,00,00,00,9A,01,C8,00,
23955698,00000101,false,Rx,0,8,00,FF,FE,00,00,00,00,00,
23955949,00000102,false,Rx,0,8,01,90,01,00,00,01,00,00,
24008452,00000528,false,Rx,0,6,07,09,A6,1E,00,00,00,00,
24055451,00000100,false,Rx,0,8,00,00,00,00,9A,01,C8,00,
24055699,00000101,false,Rx,0,8,00,FF,FE,00,00,00,00,00,
24055943,00000102,false,Rx,0,8,01,90,01,00,00,01,00,00,
24143997,00000527,false,Rx,0,6,06,0F,B8,2A,01,00,00,00,
24155444,00000100,false,Rx,0,8,00,00,00,00,9A,01,C8,00,
24155697,00000101,false,Rx,0,8,00,FF,FE,00,00,00,00,00,
24155942,00000102,false,Rx,0,8,01,90,01,00,00,01,00,00,
24255444,00000100,false,Rx,0,8,00,00,00,00,9A,01,C8,00,
24255692,00000101,false,Rx,0,8,00,FF,FE,00,00,00,00,00,
24255940,00000102,false,Rx,0,8,01,90,01,00,00,01,00,00,
24333364,00000525,false,Rx,0,6,04,06,5E,00,00,00,00,00,
24355443,00000100,false,Rx,0,8,00,00,00,00,9A,01,C8,00,
24355689,00000101,false,Rx,0,8,00,FF,FE,00,00,00,00,00,
24355941,00000102,false,Rx,0,8,01,90,01,00,00,01,00,00,
24450426,00000524,false,Rx,0,6,03,07,EE,FF,FF,FF,00,00,
24455441,00000100,false,Rx,0,8,00,00,00,00,9A,01,C8,00,
24455689,00000101,false,Rx,0,8,00,FF,FE,00,00,00,00,00,
24455957,00000102,false,Rx,0,8,01,90,01,00,00,01,00,00,
24536219,00000521,false,Rx,0,6,00,09,F9,FF,FF,FF,00,00,
24553503,00000526,false,Rx,0,6,05,09,04,00,00,00,00,00,
24555441,00000100,false,Rx,0,8,00,00,00,00,9A,01,C8,00,
24555688,00000101,false,Rx,0,8,00,FF,FE,00,00,00,00,00,
24555934,00000102,false,Rx,0,8,01,90,01,00,00,01,00,00,
24577574,00000522,false,Rx,0,6,01,09,31,B6,05,00,00,00,
24599784,00000523,false,Rx,0,6,02,0E,E2,FF,FF,FF,00,00,
24655439,00000100,false,Rx,0,8,00,00,00,00,9A,01,C8,00,
24655686,00000101,false,Rx,0,8,00,FF,FE,00,00,00,00,00,
24655931,00000102,false,Rx,0,8,01,90,01,00,00,01,00,00,
24749526,00000528,false,Rx,0,6,07,0A,A6,1E,00,00,00,00,
24755435,00000100,false,Rx,0,8,00,00,00,00,9A,01,C8,00,
24755683,00000101,false,Rx,0,8,00,FF,FE,00,00,00,00,00,
24755935,00000102,false,Rx,0,8,01,90,01,00,00,01,00,00,
24855434,00000100,false,Rx,0,8,00,00,00,00,9A,01,C8,00,
24855681,00000101,false,Rx,0,8,00,FF,FE,00,00,00,00,00,
24855933,00000102,false,Rx,0,8,01,90,01,00,00,01,00,00,
24866560,00000527,false,Rx,0,6,06,00,B8,2A,01,00,00,00,
24955432,00000100,false,Rx,0,8,00,00,00,00,9A,01,C8,00,
24955680,00000101,false,Rx,0,8,00,FF,FE,00,00,00,00,00,
24955926,00000102,false,Rx,0,8,01,90,01,00,00,01,00,00,
25019639,00000525,false,Rx,0,6,04,07,5E,00,00,00,00,00,
25055425,00000100,false,Rx,0,8,00,00,00,00,9A,01,C8,00,
25055675,00000101,false,Rx,0,8,00,FF,FE,00,00,00,00,00,
25055927,00000102,false,Rx,0,8,01,90,01,00,00,01,00,00,
25118531,00000524,false,Rx,0,6,03,08,F2,FF,FF,FF,00,00,
25149797,00000521,false,Rx,0,6,00,0A,F8,FF,FF,FF,00,00,
25155423,00000100,false,Rx,0,8,00,00,00,00,9A,01,C8,00,
25155675,00000101,false,Rx,0,8,00,FF,FE,00,00,00,00,00,
25155921,00000102,false,Rx,0,8,01,90,01,00,00,01,00,00,
25209330,00000522,false,Rx,0,6,01,0A,35,B6,05,00,00,00,
25249723,00000523,false,Rx,0,6,02,0F,FC,FF,FF,FF,00,00,
25255423,00000100,false,Rx,0,8,00,00,00,00,9A,01,C8,00,
25255676,00000101,false,Rx,0,8,00,FF,FE,00,00,00,00,00,
25255921,00000102,false,Rx,0,8,01,90,01,00,00,01,00,00,
25258124,00000526,false,Rx,0,6,05,0A,04,00,00,00,00,00,
25355419,00000100,false,Rx,0,8,00,00,00,00,9A,01,C8,00,
25355674,00000101,false,Rx,0,8,00,FF,FE,00,00,00,00,00,
25355920,00000102,false,Rx,0,8,01,90,01,00,00,01,00,00,
25455419,00000100,false,Rx,0,8,00,00,00,00,9A,01,C8,00,
25455684,00000101,false,Rx,0,8,00,FF,FE,00,00,00,00,00,
25455919,00000102,false,Rx,0,8,01,90,01,00,00,01,00,00,
25489969,00000528,false,Rx,0,6,07,0B,A6,1E,00,00,00,00,
25555419,00000100,false,Rx,0,8,00,00,00,00,9A,01,C8,00,
25555667,00000101,false,Rx,0,8,00,FF,FE,00,00,00,00,00,
25555916,00000102,false,Rx,0,8,01,90,01,00,00,01,00,00,
25588876,00000527,false,Rx,0,6,06,01,B8,2A,01,00,00,00,
25655416,00000100,false,Rx,0,8,00,00,00,00,9A,01,C8,00,
25655664,00000101,false,Rx,0,8,00,FF,FE,00,00,00,00,00,
25655913,00000102,false,Rx,0,8,01,90,01,00,00,01,00,00,
25705892,00000525,false,Rx,0,6,04,08,5E,00,00,00,00,00,
25755416,00000100,false,Rx,0,8,00,00,00,00,9A,01,C8,00,
25755662,00000101,false,Rx,0,8,00,FF,FE,00,00,00,00,00,
25755914,00000102,false,Rx,0,8,01,90,01,00,00,01,00,00,
25763388,00000521,false,Rx,0,6,00,0B,F7,FF,FF,FF,00,00,
25786612,00000524,false,Rx,0,6,03,09,EA,FF,FF,FF,00,00,
25841089,00000522,false,Rx,0,6,01,0B,33,B6,05,00,00,00,
25855414,00000100,false,Rx,0,8,00,00,00,00,9A,01,C8,00,
25855662,00000101,false,Rx,0,8,00,FF,FE,00,00,00,00,00,
25855907,00000102,false,Rx,0,8,01,90,01,00,00,01,00,00,
25899951,00000523,false,Rx,0,6,02,00,EF,FF,FF,FF,00,00,
25955407,00000100,false,Rx,0,8,00,00,00,00,9A,01,C8,00,
25955660,00000101,false,Rx,0,8,00,FF,FE,00,00,00,00,00,
25955910,00000102,false,Rx,0,8,01,90,01,00,00,01,00,00,
25962538,00000526,false,Rx,0,6,05,0B,03,00,00,00,00,00,
26055407,00000100,false,Rx,0,8,00,00,00,00,9A,01,C8,00,
26055655,00000101,false,Rx,0,8,00,FF,FE,00,00,00,00,00,
26055914,00000102,false,Rx,0,8,01,90,01,00,00,01,00,00,
26155405,00000100,false,Rx,0,8,00,00,00,00,9A,01,C8,00,
26155653,00000101,false,Rx,0,8,00,FF,FE,00,00,00,00,00,
26155905,00000102,false,Rx,0,8,01,90,01,00,00,01,00,00,
26230723,00000528,false,Rx,0,6,07,0C,A6,1E,00,00,00,00,
26255401,00000100,false,Rx,0,8,00,00,00,00,9A,01,C8,00,
26255655,00000101,false,Rx,0,8,00,FF,FE,00,00,00,00,00,
26255902,00000102,false,Rx,0,8,01,90,01,00,00,01,00,00,
26311447,00000527,false,Rx,0,6,06,02,B8,2A,01,00,00,00,
26355402,00000100,false,Rx,0,8,00,00,00,00,9A,01,C8,00,
26355649,00000101,false,Rx,0,8,00,FF,FE,00,00,00,00,00,
26355901,00000102,false,Rx,0,8,01,90,01,00,00,01,00,00,
26376968,00000521,false,Rx,0,6,00,0C,F6,FF,FF,FF,00,00,
26392133,00000525,false,Rx,0,6,04,09,5E,00,00,00,00,00,
26454696,00000524,false,Rx,0,6,03,0A,F5,FF,FF,FF,00,00,
26455397,00000100,false,Rx,0,8,00,00,00,00,9A,01,C8,00,
26455650,00000101,false,Rx,0,8,00,FF,FE,00,00,00,00,00,
26455896,00000102,false,Rx,0,8,01,90,01,00,00,01,00,00,
26472828,00000522,false,Rx,0,6,01,0C,32,B6,05,00,00,00,
26549558,00000523,false,Rx,0,6,02,01,EF,FF,FF,FF,00,00,
26555395,00000100,false,Rx,0,8,00,00,00,00,9A,01,C8,00,
26555648,00000101,false,Rx,0,8,00,FF,FE,00,00,00,00,00,
26555895,00000102,false,Rx,0,8,01,90,01,00,00,01,00,00,
26655397,00000100,false,Rx,0,8,00,00,00,00,9A,01,C8,00,
26655645,00000101,false,Rx,0,8,00,FF,FE,00,00,00,00,00,
26655890,00000102,false,Rx,0,8,01,90,01,00,00,01,00,00,
26666908,00000526,false,Rx,0,6,05,0C,05,00,00,00,00,00,
26755395,00000100,false,Rx,0,8,00,00,00,00,9A,01,C8,00,
26755643,00000101,false,Rx,0,8,00,FF,FE,00,00,00,00,00,
26755889,00000102,false,Rx,0,8,01,90,01,00,00,01,00,00,
26855394,00000100,false,Rx,0,8,00,00,00,00,9A,01,C8,00,
26855641,00000101,false,Rx,0,8,00,FF,FE,00,00,00,00,00,
26855887,00000102,false,Rx,0,8,01,90,01,00,00,01,00,00,
26955389,00000100,false,Rx,0,8,00,00,00,00,9A,01,C8,00,
26955637,00000101,false,Rx,0,8,00,FF,FE,00,00,00,00,00,
26955890,00000102,false,Rx,0,8,01,90,01,00,00,01,00,00,
26971457,00000528,false,Rx,0,6,07,0D,A6,1E,00,00,00,00,
26990592,00000521,false,Rx,0,6,00,0D,F7,FF,FF,FF,00,00,
27034030,00000527,false,Rx,0,6,06,03,B8,2A,01,00,00,00,
27055388,00000100,false,Rx,0,8,00,00,00,00,9A,01,C8,00,
27055638,00000101,false,Rx,0,8,00,FF,FE,00,00,00,00,00,
27055885,00000102,false,Rx,0,8,01,90,01,00,00,01,00,00,
27078377,00000525,false,Rx,0,6,04,0A,5E,00,00,00,00,00,
27104591,00000522,false,Rx,0,6,01,0D,41,B6,05,00,00,00,
27122778,00000524,false,Rx,0,6,03,0B,F5,FF,FF,FF,00,00,
27155383,00000100,false,Rx,0,8,00,00,00,00,9A,01,C8,00,
27155633,00000101,false,Rx,0,8,00,FF,FE,00,00,00,00,00,
27155885,00000102,false,Rx,0,8,01,90,01,00,00,01,00,00,
27199470,00000523,false,Rx,0,6,02,02,E9,FF,FF,FF,00,00,
27255383,00000100,false,Rx,0,8,00,00,00,00,9A,01,C8,00,
27255630,00000101,false,Rx,0,8,00,FF,FE,00,00,00,00,00,
27255879,00000102,false,Rx,0,8,01,90,01,00,00,01,00,00,
27355382,00000100,false,Rx,0,8,00,00,00,00,9A,01,C8,00,
27355631,00000101,false,Rx,0,8,00,FF,FE,00,00,00,00,00,
27355879,00000102,false,Rx,0,8,01,90,01,00,00,01,00,00,
27371169,00000526,false,Rx,0,6,05,0D,07,00,00,00,00,00,
27455379,00000100,false,Rx,0,8,00,00,00,00,9A,01,C8,00,
27455626,00000101,false,Rx,0,8,00,FF,FE,00,00,00,00,00,
27455875,00000102,false,Rx,0,8,01,90,01,00,00,01,00,00,
27555380,00000100,false,Rx,0,8,00,00,00,00,9A,01,C8,00,
27555628,00000101,false,Rx,0,8,00,FF,FE,00,00,00,00,00,
27555877,00000102,false,Rx,0,8,01,90,01,00,00,01,00,00,
27604146,00000521,false,Rx,0,6,00,0E,F1,FF,FF,FF,00,00,
27655377,00000100,false,Rx,0,8,00,00,00,00,9A,01,C8,00,
27655625,00000101,false,Rx,0,8,00,FF,FE,00,00,00,00,00,
27655873,00000102,false,Rx,0,8,01,90,01,00,00,01,00,00,
27712500,00000528,false,Rx,0,6,07,0E,A6,1E,00,00,00,00,
27736358,00000522,false,Rx,0,6,01,0E,39,B6,05,00,00,00,
27755372,00000100,false,Rx,0,8,00,00,00,00,9A,01,C8,00,
27755619,00000101,false,Rx,0,8,00,FF,FE,00,00,00,00,00,
27755867,00000102,false,Rx,0,8,01,90,01,00,00,01,00,00,
27756614,00000527,false,Rx,0,6,06,04,B8,2A,01,00,00,00,
27764638,00000525,false,Rx,0,6,04,0B,5E,00,00,00,00,00,
27790869,00000524,false,Rx,0,6,03,0C,F7,FF,FF,FF,00,00,
27849397,00000523,false,Rx,0,6,02,03,EA,FF,FF,FF,00,00,
27855371,00000100,false,Rx,0,8,00,00,00,00,9A,01,C8,00,
27855618,00000101,false,Rx,0,8,00,FF,FE,00,00,00,00,00,
27855887,00000102,false,Rx,0,8,01,90,01,00,00,01,00,00,
27955366,00000100,false,Rx,0,8,00,00,00,00,9A,01,C8,00,
27955620,00000101,false,Rx,0,8,00,FF,FE,00,00,00,00,00,
27955866,00000102,false,Rx,0,8,01,90,01,00,00,01,00,00,
28055368,00000100,false,Rx,0,8,00,00,00,00,9A,01,C8,00,
28055615,00000101,false,Rx,0,8,00,FF,FE,00,00,00,00,00,
28055861,00000102,false,Rx,0,8,01,90,01,00,00,01,00,00,
28075813,00000526,false,Rx,0,6,05,0E,05,00,00,00,00,00,
28155363,00000100,false,Rx,0,8,00,00,00,00,9A,01,C8,00,
28155616,00000101,false,Rx,0,8,00,FF,FE,00,00,00,00,00,
28155862,00000102,false,Rx,0,8,01,90,01,00,00,01,00,00,
28217750,00000521,false,Rx,0,6,00,0F,F8,FF,FF,FF,00,00,
28255365,00000100,false,Rx,0,8,00,00,00,00,9A,01,C8,00,
28255614,00000101,false,Rx,0,8,00,FF,FE,00,00,00,00,00,
28255860,00000102,false,Rx,0,8,01,90,01,00,00,01,00,00,
28355361,00000100,false,Rx,0,8,00,00,00,00,9A,01,C8,00,
28355609,00000101,false,Rx,0,8,00,FF,FE,00,00,00,00,00,
28355861,00000102,false,Rx,0,8,01,90,01,00,00,01,00,00,
28368111,00000522,false,Rx,0,6,01,0F,37,B6,05,00,00,00,
28450898,00000525,false,Rx,0,6,04,0C,5E,00,00,00,00,00,
28452954,00000528,false,Rx,0,6,07,0F,A6,1E,00,00,00,00,
28455355,00000100,false,Rx,0,8,00,00,00,00,9A,01,C8,00,
28455608,00000101,false,Rx,0,8,00,FF,FE,00,00,00,00,00,
28455854,00000102,false,Rx,0,8,01,90,01,00,00,01,00,00,
28458960,00000524,false,Rx,0,6,03,0D,F3,FF,FF,FF,00,00,
28479194,00000527,false,Rx,0,6,06,05,B8,2A,01,00,00,00,
28499358,00000523,false,Rx,0,6,02,04,EA,FF,FF,FF,00,00,
28555354,00000100,false,Rx,0,8,00,00,00,00,9A,01,C8,00,
28555608,00000101,false,Rx,0,8,00,FF,FE,00,00,00,00,00,
28555854,00000102,false,Rx,0,8,01,90,01,00,00,01,00,00,
28655355,00000100,false,Rx,0,8,00,00,00,00,9A,01,C8,00,
28655604,00000101,false,Rx,0,8,00,FF,FE,00,00,00,00,00,
28655853,00000102,false,Rx,0,8,01,90,01,00,00,01,00,00,
28755352,00000100,false,Rx,0,8,00,00,00,00,9A,01,C8,00,
28755599,00000101,false,Rx,0,8,00,FF,FE,00,00,00,00,00,
28755847,00000102,false,Rx,0,8,01,90,01,00,00,01,00,00,
28780012,00000526,false,Rx,0,6,05,0F,07,00,00,00,00,00,
28831335,00000521,false,Rx,0,6,00,00,F4,FF,FF,FF,00,00,
28855348,00000100,false,Rx,0,8,00,00,00,00,9A,01,C8,00,
28855603,00000101,false,Rx,0,8,00,FF,FE,00,00,00,00,00,
28855848,00000102,false,Rx,0,8,01,90,01,00,00,01,00,00,
28955346,00000100,false,Rx,0,8,00,00,00,00,9A,01,C8,00,
28955593,00000101,false,Rx,0,8,00,FF,FE,00,00,00,00,00,
28955842,00000102,false,Rx,0,8,01,90,01,00,00,01,00,00,
28999864,00000522,false,Rx,0,6,01,00,39,B6,05,00,00,00,
29055348,00000100,false,Rx,0,8,00,00,00,00,9A,01,C8,00,
29055595,00000101,false,Rx,0,8,00,FF,FE,00,00,00,00,00,
29055844,00000102,false,Rx,0,8,01,90,01,00,00,01,00,00,
29127030,00000524,false,Rx,0,6,03,0E,EA,FF,FF,FF,00,00,
29137142,00000525,false,Rx,0,6,04,0D,5E,00,00,00,00,00,
29149240,00000523,false,Rx,0,6,02,05,E6,FF,FF,FF,00,00,
29155342,00000100,false,Rx,0,8,00,00,00,00,9A,01,C8,00,
29155595,00000101,false,Rx,0,8,00,FF,FE,00,00,00,00,00,
29155845,00000102,false,Rx,0,8,01,90,01,00,00,01,00,00,
29193711,00000528,false,Rx,0,6,07,00,A6,1E,00,00,00,00,
29201779,00000527,false,Rx,0,6,06,06,B8,2A,01,00,00,00,
29255339,00000100,false,Rx,0,8,00,00,00,00,9A,01,C8,00,
29255593,00000101,false,Rx,0,8,00,FF,FE,00,00,00,00,00,
29255838,00000102,false,Rx,0,8,01,90,01,00,00,01,00,00,
29355342,00000100,false,Rx,0,8,00,00,00,00,9A,01,C8,00,
29355589,00000101,false,Rx,0,8,00,FF,FE,00,00,00,00,00,
29355841,00000102,false,Rx,0,8,01,90,01,00,00,01,00,00,
29444931,00000521,false,Rx,0,6,00,01,F8,FF,FF,FF,00,00,
29455340,00000100,false,Rx,0,8,00,00,00,00,9A,01,C8,00,
29455584,00000101,false,Rx,0,8,00,FF,FE,00,00,00,00,00,
29455836,00000102,false,Rx,0,8,01,90,01,00,00,01,00,00,
29484630,00000526,false,Rx,0,6,05,00,FC,FF,FF,FF,00,00,
29555337,00000100,false,Rx,0,8,00,00,00,00,9A,01,C8,00,
29555584,00000101,false,Rx,0,8,00,FF,FE,00,00,00,00,00,
29555830,00000102,false,Rx,0,8,01,90,01,00,00,01,00,00,
29631638,00000522,false,Rx,0,6,01,01,32,B6,05,00,00,00,
29655330,00000100,false,Rx,0,8,00,00,00,00,9A,01,C8,00,
29655586,00000101,false,Rx,0,8,00,FF,FE,00,00,00,00,00,
29655832,00000102,false,Rx,0,8,01,90,01,00,00,01,00,00,
29721599,00000108,false,Rx,0,8,01,F4,01,7D,00,00,00,00,
29721863,00000109,false,Rx,0,8,02,00,00,00,00,20,00,00,
29755334,00000100,false,Rx,0,8,00,00,00,00,9A,01,C8,00,
29755581,00000101,false,Rx,0,8,00,FF,FE,00,00,00,00,00,
29755827,00000102,false,Rx,0,8,01,90,01,00,00,01,00,00,
29795142,00000524,false,Rx,0,6,03,0F,E7,FF,FF,FF,00,00,
29799175,00000523,false,Rx,0,6,02,06,FA,FF,FF,FF,00,00,
29821596,00000108,false,Rx,0,8,01,F4,01,7D,9A,01,00,00,
29822138,00000109,false,Rx,0,8,02,00,00,00,00,24,00,00,
29823416,00000525,false,Rx,0,6,04,0E,5E,00,00,00,00,00,
29855326,00000100,false,Rx,0,8,00,00,00,00,9A,01,C8,00,
29855582,00000101,false,Rx,0,8,00,FF,FE,00,00,00,00,00,
29855828,00000102,false,Rx,0,8,01,90,01,00,00,01,00,00,
29921602,00000108,false,Rx,0,8,01,F4,01,7D,9A,01,00,00,
29922162,00000109,false,Rx,0,8,02,00,00,00,00,24,00,00,
29924373,00000527,false,Rx,0,6,06,07,B8,2A,01,00,00,00,
29934480,00000528,false,Rx,0,6,07,01,A6,1E,00,00,00,00,
29955328,00000100,false,Rx,0,8,00,00,00,00,9A,01,C8,00,
29955575,00000101,false,Rx,0,8,00,FF,FE,00,00,00,00,00,
29955822,00000102,false,Rx,0,8,01,90,01,00,00,01,00,00,
30021603,00000108,false,Rx,0,8,01,F4,01,7D,9A,01,00,00,
30022162,00000109,false,Rx,0,8,02,00,00,00,00,24,00,00,
30055328,00000100,false,Rx,0,8,00,00,00,00,9A,01,C8,00,
30055575,00000101,false,Rx,0,8,00,FF,FE,00,00,00,00,00,
30055823,00000102,false,Rx,0,8,01,90,01,00,00,01,00,00,
30058536,00000521,false,Rx,0,6,00,02,FC,FF,FF,FF,00,00,
30121597,00000108,false,Rx,0,8,01,F4,01,7D,9A,01,00,00,
30122164,00000109,false,Rx,0,8,02,00,00,00,00,24,00,00,
30155324,00000100,false,Rx,0,8,00,00,00,00,9A,01,C8,00,
30155573,00000101,false,Rx,0,8,00,FF,FE,00,00,00,00,00,
30155820,00000102,false,Rx,0,8,01,90,01,00,00,01,00,00,
30189037,00000526,false,Rx,0,6,05,01,0D,00,00,00,00,00,
30221597,00000108,false,Rx,0,8,01,F4,01,7D,9A,01,00,00,
30222201,00000109,false,Rx,0,8,02,01,00,00,00,24,00,00,
30255318,00000100,false,Rx,0,8,00,00,00,00,9A,01,C8,00,
30255572,00000101,false,Rx,0,8,00,FF,FE,00,00,00,00,00,
30255820,00000102,false,Rx,0,8,01,90,01,00,00,01,00,00,
30263381,00000522,false,Rx,0,6,01,02,40,B6,05,00,00,00,
30321600,00000108,false,Rx,0,8,01,F4,01,7D,9A,01,00,00,
30322148,00000109,false,Rx,0,8,02,00,00,00,00,24,00,00,
30355321,00000100,false,Rx,0,8,00,00,00,00,9A,01,C8,00,
30355569,00000101,false,Rx,0,8,00,FF,FE,00,00,00,00,00,
30355817,00000102,false,Rx,0,8,01,90,01,00,00,01,00,00,
30421602,00000108,false,Rx,0,8,01,F4,01,7D,9A,01,00,00,
30422156,00000109,false,Rx,0,8,02,00,00,00,00,24,00,00,
30449086,00000523,false,Rx,0,6,02,07,FA,FF,FF,FF,00,00,
30455319,00000100,false,Rx,0,8,00,00,00,00,9A,01,C8,00,
30455566,00000101,false,Rx,0,8,00,FF,FE,00,00,00,00,00,
30455821,00000102,false,Rx,0,8,01,90,01,00,00,01,00,00,
30463229,00000524,false,Rx,0,6,03,00,F5,FF,FF,FF,00,00,
30509658,00000525,false,Rx,0,6,04,0F,5E,00,00,00,00,00,
30521600,00000108,false,Rx,0,8,01,F4,01,7D,9A,01,00,00,
30522167,00000109,false,Rx,0,8,02,00,00,00,00,24,00,00,
30555312,00000100,false,Rx,0,8,00,00,00,00,9A,01,C8,00,
30555566,00000101,false,Rx,0,8,00,FF,FE,00,00,00,00,00,
30555812,00000102,false,Rx,0,8,01,90,01,00,00,01,00,00,
30621602,00000108,false,Rx,0,8,01,F4,01,7D,9A,01,00,00,
30622143,00000109,false,Rx,0,8,02,00,00,00,00,24,00,00,
30646951,00000527,false,Rx,0,6,06,08,B8,2A,01,00,00,00,
30655313,00000100,false,Rx,0,8,00,00,00,00,9A,01,C8,00,
30655559,00000101,false,Rx,0,8,00,FF,FE,00,00,00,00,00,
30655811,00000102,false,Rx,0,8,01,90,01,00,00,01,00,00,
30672117,00000521,false,Rx,0,6,00,03,F8,FF,FF,FF,00,00,
30675222,00000528,false,Rx,0,6,07,02,A6,1E,00,00,00,00,
30721599,00000108,false,Rx,0,8,01,F4,01,7D,9A,01,00,00,
30722146,00000109,false,Rx,0,8,02,00,00,00,00,24,00,00,
30755311,00000100,false,Rx,0,8,00,00,00,00,9A,01,C8,00,
30755557,00000101,false,Rx,0,8,00,FF,FE,00,00,00,00,00,
30755810,00000102,false,Rx,0,8,01,90,01,00,00,01,00,00,
30821599,00000108,false,Rx,0,8,01,F4,01,7D,9A,01,00,00,
30822110,00000109,false,Rx,0,8,02,00,00,00,00,24,00,00,
30855309,00000100,false,Rx,0,8,00,00,00,00,9A,01,C8,00,
30855557,00000101,false,Rx,0,8,00,FF,FE,00,00,00,00,00,
30855809,00000102,false,Rx,0,8,01,90,01,00,00,01,00,00,
30893426,00000526,false,Rx,0,6,05,02,09,00,00,00,00,00,
30895173,00000522,false,Rx,0,6,01,03,3F,B6,05,00,00,00,
30921602,00000108,false,Rx,0,8,01,F4,01,7D,9A,01,00,00,
30922212,00000109,false,Rx,0,8,02,00,00,00,00,24,00,00,
30955310,00000100,false,Rx,0,8,00,00,00,00,9A,01,C8,00,
30955557,00000101,false,Rx,0,8,00,FF,FE,00,00,00,00,00,
30955803,00000102,false,Rx,0,8,01,90,01,00,00,01,00,00,
31021604,00000108,false,Rx,0,8,01,F4,01,7D,9A,01,00,00,
31022207,00000109,false,Rx,0,8,02,0B,00,00,00,24,00,00,
31055304,00000100,false,Rx,0,8,00,00,00,00,9A,01,C8,00,
31055551,00000101,false,Rx,0,8,00,FF,FE,00,00,00,00,00,
31055803,00000102,false,Rx,0,8,01,90,01,00,00,01,00,00,
31098991,00000523,false,Rx,0,6,02,08,DA,FF,FF,FF,00,00,
31121603,00000108,false,Rx,0,8,01,F4,01,7D,9A,01,00,00,
31122228,00000109,false,Rx,0,8,02,3E,00,00,00,24,00,00,
31131302,00000524,false,Rx,0,6,03,01,EF,FF,FF,FF,00,00,
31155299,00000100,false,Rx,0,8,00,00,00,00,9A,01,C8,00,
31155552,00000101,false,Rx,0,8,00,FF,FE,00,00,00,00,00,
31155797,00000102,false,Rx,0,8,01,90,01,00,00,01,00,00,
31195902,00000525,false,Rx,0,6,04,00,5E,00,00,00,00,00,
31221606,00000108,false,Rx,0,8,01,F4,01,7D,9A,01,00,00,
31222144,00000109,false,Rx,0,8,02,6D,00,00,00,24,00,00,
31255298,00000100,false,Rx,0,8,00,00,00,00,9A,01,C8,00,
31255552,00000101,false,Rx,0,8,00,FF,FE,00,00,00,00,00,
31255798,00000102,false,Rx,0,8,01,90,01,00,00,01,00,00,
31285808,00000521,false,Rx,0,6,00,04,F7,FF,FF,FF,00,00,
31321604,00000108,false,Rx,0,8,01,F4,01,7D,9A,01,00,00,
31322124,00000109,false,Rx,0,8,02,A0,00,00,00,24,00,00,
31355300,00000100,false,Rx,0,8,00,00,00,00,9A,01,C8,00,
31355547,00000101,false,Rx,0,8,00,FF,FE,00,00,00,00,00,
31355793,00000102,false,Rx,0,8,01,90,01,00,00,01,00,00,
31369514,00000527,false,Rx,0,6,06,09,B8,2A,01,00,00,00,
31415944,00000528,false,Rx,0,6,07,03,A6,1E,00,00,00,00,
31421599,00000108,false,Rx,0,8,01,F4,01,7D,9A,01,00,00,
31422150,00000109,false,Rx,0,8,02,D3,00,00,00,24,00,00,
31455297,00000100,false,Rx,0,8,00,00,00,00,9A,01,C8,00,
31455544,00000101,false,Rx,0,8,00,FF,FE,00,00,00,00,00,
31455796,00000102,false,Rx,0,8,01,90,01,00,00,01,00,00,
31521606,00000108,false,Rx,0,8,01,F4,01,7D,9A,01,00,00,
31522123,00000109,false,Rx,0,8,02,02,01,00,00,24,00,00,
31527250,00000522,false,Rx,0,6,01,04,48,B6,05,00,00,00,
31555297,00000100,false,Rx,0,8,00,00,00,00,9A,01,C8,00,
31555544,00000101,false,Rx,0,8,00,FF,FE,00,00,00,00,00,
31555790,00000102,false,Rx,0,8,01,90,01,00,00,01,00,00,
31597686,00000526,false,Rx,0,6,05,03,05,00,00,00,00,00,
31621606,00000108,false,Rx,0,8,01,F4,01,7D,9A,01,00,00,
31622138,00000109,false,Rx,0,8,02,36,01,00,00,24,00,00,
31655293,00000100,false,Rx,0,8,00,00,00,00,9A,01,C8,00,
31655541,00000101,false,Rx,0,8,00,FF,FE,00,00,00,00,00,
31655787,00000102,false,Rx,0,8,01,90,01,00,00,01,00,00,
31721606,00000108,false,Rx,0,8,01,F4,01,7D,9A,01,00,00,
31722222,00000109,false,Rx,0,8,02,65,01,00,00,24,00,00,
31748920,00000523,false,Rx,0,6,02,09,F8,FF,FF,FF,00,00,
31755295,00000100,false,Rx,0,8,00,00,00,00,9A,01,C8,00,
31755536,00000101,false,Rx,0,8,00,FF,FE,00,00,00,00,00,
31755788,00000102,false,Rx,0,8,01,90,01,00,00,01,00,00,
31799692,00000524,false,Rx,0,6,03,02,F0,FF,FF,FF,00,00,
31821606,00000108,false,Rx,0,8,01,F4,01,7D,9A,01,00,00,
31822231,00000109,false,Rx,0,8,02,98,01,00,00,24,00,00,
31855295,00000100,false,Rx,0,8,00,00,00,00,9A,01,C8,00,
31855536,00000101,false,Rx,0,8,00,FF,FE,00,00,00,00,00,
31855789,00000102,false,Rx,0,8,01,90,01,00,00,01,00,00,
31882147,00000525,false,Rx,0,6,04,01,5E,00,00,00,00,00,
31899277,00000521,false,Rx,0,6,00,05,F5,FF,FF,FF,00,00,
31921603,00000108,false,Rx,0,8,01,F4,01,7D,9A,01,00,00,
31921985,00000109,false,Rx,0,8,02,CC,01,00,00,24,00,00,
31955288,00000100,false,Rx,0,8,00,00,00,00,9A,01,C8,00,
31955536,00000101,false,Rx,0,8,00,FF,FE,00,00,00,00,00,
31955782,00000102,false,Rx,0,8,01,90,01,00,00,01,00,00,
32021604,00000108,false,Rx,0,8,01,F4,01,7D,9A,01,00,00,
32022144,00000109,false,Rx,0,8,02,F1,01,00,00,24,00,00,
32055285,00000100,false,Rx,0,8,00,00,00,00,9A,01,C8,00,
32055532,00000101,false,Rx,0,8,00,FF,FE,00,00,00,00,00,
32055784,00000102,false,Rx,0,8,01,90,01,00,00,01,00,00,
32092110,00000527,false,Rx,0,6,06,0A,B8,2A,01,00,00,00,
32121604,00000108,false,Rx,0,8,01,F4,01,7D,9A,01,00,00,
32122227,00000109,false,Rx,0,8,02,F2,01,00,00,24,00,00,
32155287,00000100,false,Rx,0,8,00,00,00,00,9A,01,C8,00,
32155528,00000101,false,Rx,0,8,00,FF,FE,00,00,00,00,00,
32155780,00000102,false,Rx,0,8,01,90,01,00,00,01,00,00,
32156703,00000528,false,Rx,0,6,07,04,A6,1E,00,00,00,00,
32158649,00000522,false,Rx,0,6,01,05,4A,B6,05,00,00,00,
32221606,00000108,false,Rx,0,8,01,F4,01,7D,9A,01,00,00,
32222228,00000109,false,Rx,0,8,02,F2,01,00,00,24,00,00,
32255286,00000100,false,Rx,0,8,00,00,00,00,9A,01,C8,00,
32255526,00000101,false,Rx,0,8,00,FF,FE,00,00,00,00,00,
32255778,00000102,false,Rx,0,8,01,90,01,00,00,01,00,00,
32302277,00000526,false,Rx,0,6,05,04,0B,00,00,00,00,00,
32321603,00000108,false,Rx,0,8,01,F4,01,7D,9A,01,00,00,
32322144,00000109,false,Rx,0,8,02,F5,01,00,00,24,00,00,
32355277,00000100,false,Rx,0,8,00,00,00,00,9A,01,C8,00,
32355524,00000101,false,Rx,0,8,00,FF,FE,00,00,00,00,00,
32355777,00000102,false,Rx,0,8,01,90,01,00,00,01,00,00,
32398845,00000523,false,Rx,0,6,02,0A,F8,FF,FF,FF,00,00,
32421607,00000108,false,Rx,0,8,01,F4,01,7D,9A,01,00,00,
32422155,00000109,false,Rx,0,8,02,F5,01,00,00,24,00,00,
32455274,00000100,false,Rx,0,8,00,00,00,00,9A,01,C8,00,
32455527,00000101,false,Rx,0,8,00,FF,FE,00,00,00,00,00,
32455773,00000102,false,Rx,0,8,01,90,01,00,00,01,00,00,
32467497,00000524,false,Rx,0,6,03,03,F2,FF,FF,FF,00,00,
32512875,00000521,false,Rx,0,6,00,06,F6,FF,FF,FF,00,00,
32521605,00000108,false,Rx,0,8,01,F4,01,7D,9A,01,00,00,
32522214,00000109,false,Rx,0,8,02,F5,01,00,00,24,00,00,
32555273,00000100,false,Rx,0,8,00,00,00,00,9A,01,C8,00,
32555520,00000101,false,Rx,0,8,00,FF,FE,00,00,00,00,00,
32555772,00000102,false,Rx,0,8,01,90,01,00,00,01,00,00,
32568412,00000525,false,Rx,0,6,04,02,5E,00,00,00,00,00,
32621604,00000108,false,Rx,0,8,01,F4,01,7D,9A,01,00,00,
32622127,00000109,false,Rx,0,8,02,F4,01,00,00,24,00,00,
32655274,00000100,false,Rx,0,8,00,00,00,00,9A,01,C8,00,
32655521,00000101,false,Rx,0,8,00,FF,FE,00,00,00,00,00,
32655767,00000102,false,Rx,0,8,01,90,01,00,00,01,00,00,
32721608,00000108,false,Rx,0,8,01,F4,01,7D,9A,01,00,00,
32722212,00000109,false,Rx,0,8,02,F3,01,00,00,24,00,00,
32755272,00000100,false,Rx,0,8,00,00,00,00,9A,01,C8,00,
32755520,00000101,false,Rx,0,8,00,FF,FE,00,00,00,00,00,
32755765,00000102,false,Rx,0,8,01,90,01,00,00,01,00,00,
32790409,00000522,false,Rx,0,6,01,06,3F,B6,05,00,00,00,
32814703,00000527,false,Rx,0,6,06,0B,B8,2A,01,00,00,00,
32821606,00000108,false,Rx,0,8,01,F4,01,7D,9A,01,00,00,
32822129,00000109,false,Rx,0,8,02,F2,01,00,00,24,00,00,
32855266,00000100,false,Rx,0,8,00,00,00,00,9A,01,C8,00,
32855520,00000101,false,Rx,0,8,00,FF,FE,00,00,00,00,00,
32855766,00000102,false,Rx,0,8,01,90,01,00,00,01,00,00,
32897456,00000528,false,Rx,0,6,07,05,A6,1E,00,00,00,00,
32921606,00000108,false,Rx,0,8,01,F4,01,7D,9A,01,00,00,
32922136,00000109,false,Rx,0,8,02,F1,01,00,00,24,00,00,
32955263,00000100,false,Rx,0,8,00,00,00,00,9A,01,C8,00,
32955517,00000101,false,Rx,0,8,00,FF,FE,00,00,00,00,00,
32955763,00000102,false,Rx,0,8,01,90,01,00,00,01,00,00,
33006535,00000526,false,Rx,0,6,05,05,04,00,00,00,00,00,
33021609,00000108,false,Rx,0,8,01,F4,01,7D,9A,01,00,00,
33022219,00000109,false,Rx,0,8,02,F0,01,00,00,24,00,00,
33048786,00000523,false,Rx,0,6,02,0B,F8,FF,FF,FF,00,00,
33055267,00000100,false,Rx,0,8,00,00,00,00,9A,01,C8,00,
33055515,00000101,false,Rx,0,8,00,FF,FE,00,00,00,00,00,
33055761,00000102,false,Rx,0,8,01,90,01,00,00,01,00,00,
33121605,00000108,false,Rx,0,8,01,F4,01,7D,9A,01,00,00,
33122134,00000109,false,Rx,0,8,02,F0,01,00,00,24,00,00,
33126473,00000521,false,Rx,0,6,00,07,F7,FF,FF,FF,00,00,
33135614,00000524,false,Rx,0,6,03,04,E8,FF,FF,FF,00,00,
33155259,00000100,false,Rx,0,8,00,00,00,00,9A,01,C8,00,
33155514,00000101,false,Rx,0,8,00,FF,FE,00,00,00,00,00,
33155760,00000102,false,Rx,0,8,01,90,01,00,00,01,00,00,
33221604,00000108,false,Rx,0,8,01,F4,01,7D,9A,01,00,00,
33222213,00000109,false,Rx,0,8,02,EF,01,00,00,24,00,00,
33254667,00000525,false,Rx,0,6,04,03,5E,00,00,00,00,00,
33255258,00000100,false,Rx,0,8,00,00,00,00,9A,01,C8,00,
33255506,00000101,false,Rx,0,8,00,FF,FE,00,00,00,00,00,
33255758,00000102,false,Rx,0,8,01,90,01,00,00,01,00,00,
33321606,00000108,false,Rx,0,8,01,F4,01,7D,9A,01,00,00,
33322136,00000109,false,Rx,0,8,02,F0,01,00,00,24,00,00,
33355256,00000100,false,Rx,0,8,00,00,00,00,9A,01,C8,00,
33355504,00000101,false,Rx,0,8,00,FF,FE,00,00,00,00,00,
33355756,00000102,false,Rx,0,8,01,90,01,00,00,01,00,00,
33421608,00000108,false,Rx,0,8,01,F4,01,7D,9A,01,00,00,
33422143,00000109,false,Rx,0,8,02,F0,01,00,00,24,00,00,
33422347,00000522,false,Rx,0,6,01,07,4B,B6,05,00,00,00,
33455257,00000100,false,Rx,0,8,00,00,00,00,9A,01,C8,00,
33455503,00000101,false,Rx,0,8,00,FF,FE,00,00,00,00,00,
33455749,00000102,false,Rx,0,8,01,90,01,00,00,01,00,00,
33521606,00000108,false,Rx,0,8,01,F4,01,7D,9A,01,00,00,
33522148,00000109,false,Rx,0,8,02,F0,01,00,00,24,00,00,
33537295,00000527,false,Rx,0,6,06,0C,B8,2A,01,00,00,00,
33555254,00000100,false,Rx,0,8,00,00,00,00,9A,01,C8,00,
33555502,00000101,false,Rx,0,8,00,FF,FE,00,00,00,00,00,
33555748,00000102,false,Rx,0,8,01,90,01,00,00,01,00,00,
33621606,00000108,false,Rx,0,8,01,F4,01,7D,9A,01,00,00,
33622154,00000109,false,Rx,0,8,02,F0,01,00,00,24,00,00,
33638223,00000528,false,Rx,0,6,07,06,A6,1E,00,00,00,00,
33655253,00000100,false,Rx,0,8,00,00,00,00,9A,01,C8,00,
33655507,00000101,false,Rx,0,8,00,FF,FE,00,00,00,00,00,
33655746,00000102,false,Rx,0,8,01,90,01,00,00,01,00,00,
33698703,00000523,false,Rx,0,6,02,0C,EE,FF,FF,FF,00,00,
33711203,00000526,false,Rx,0,6,05,06,00,00,00,00,00,00,
33721605,00000108,false,Rx,0,8,01,F4,01,7D,9A,01,00,00,
33722153,00000109,false,Rx,0,8,02,F1,01,00,00,24,00,00,
33740093,00000521,false,Rx,0,6,00,08,F6,FF,FF,FF,00,00,
33755246,00000100,false,Rx,0,8,00,00,00,00,9A,01,C8,00,
33755501,00000101,false,Rx,0,8,00,FF,FE,00,00,00,00,00,
33755746,00000102,false,Rx,0,8,01,90,01,00,00,01,00,00,
33803680,00000524,false,Rx,0,6,03,05,DB,FF,FF,FF,00,00,
33821605,00000108,false,Rx,0,8,01,F4,01,7D,9A,01,00,00,
33822153,00000109,false,Rx,0,8,02,F1,01,00,00,24,00,00,
33855247,00000100,false,Rx,0,8,00,00,00,00,9A,01,C8,00,
33855494,00000101,false,Rx,0,8,00,FF,FE,00,00,00,00,00,
33855747,00000102,false,Rx,0,8,01,90,01,00,00,01,00,00,
33921607,00000108,false,Rx,0,8,01,F4,01,7D,9A,01,00,00,
33922155,00000109,false,Rx,0,8,02,F1,01,00,00,24,00,00,
33940932,00000525,false,Rx,0,6,04,04,5E,00,00,00,00,00,
33955244,00000100,false,Rx,0,8,00,00,00,00,9A,01,C8,00,
33955498,00000101,false,Rx,0,8,00,FF,FE,00,00,00,00,00,
33955743,00000102,false,Rx,0,8,01,90,01,00,00,01,00,00,
34021606,00000108,false,Rx,0,8,01,F4,01,7D,9A,01,00,00,
34022154,00000109,false,Rx,0,8,02,F0,01,00,00,24,00,00,
34053938,00000522,false,Rx,0,6,01,08,54,B6,05,00,00,00,
34055239,00000100,false,Rx,0,8,00,00,00,00,9A,01,C8,00,
34055494,00000101,false,Rx,0,8,00,FF,FE,00,00,00,00,00,
34055740,00000102,false,Rx,0,8,01,90,01,00,00,01,00,00,
34121611,00000108,false,Rx,0,8,01,F4,01,7D,9A,01,00,00,
34122214,00000109,false,Rx,0,8,02,F1,01,00,00,24,00,00,
34155241,00000100,false,Rx,0,8,00,00,00,00,9A,01,C8,00,
34155494,00000101,false,Rx,0,8,00,FF,FE,00,00,00,00,00,
34155740,00000102,false,Rx,0,8,01,90,01,00,00,01,00,00,
34221612,00000108,false,Rx,0,8,01,F4,01,7D,9A,01,00,00,
34222234,00000109,false,Rx,0,8,02,F2,01,00,00,24,00,00,
34255235,00000100,false,Rx,0,8,00,00,00,00,9A,01,C8,00,
34255495,00000101,false,Rx,0,8,00,FF,FE,00,00,00,00,00,
34255734,00000102,false,Rx,0,8,01,90,01,00,00,01,00,00,
34260100,00000527,false,Rx,0,6,06,0D,B8,2A,01,00,00,00,
34321610,00000108,false,Rx,0,8,01,F4,01,7D,9A,01,00,00,
34322139,00000109,false,Rx,0,8,02,F1,01,00,00,24,00,00,
34348618,00000523,false,Rx,0,6,02,0D,EE,FF,FF,FF,00,00,
34353670,00000521,false,Rx,0,6,00,09,F2,FF,FF,FF,00,00,
34355238,00000100,false,Rx,0,8,00,00,00,00,9A,01,C8,00,
34355490,00000101,false,Rx,0,8,00,FF,FE,00,00,00,00,00,
34355737,00000102,false,Rx,0,8,01,90,01,00,00,01,00,00,
34378979,00000528,false,Rx,0,6,07,07,A6,1E,00,00,00,00,
34415567,00000526,false,Rx,0,6,05,07,01,00,00,00,00,00,
34421607,00000108,false,Rx,0,8,01,F4,01,7D,9A,01,00,00,
34422168,00000109,false,Rx,0,8,02,F1,01,00,00,24,00,00,
34455234,00000100,false,Rx,0,8,00,00,00,00,9A,01,C8,00,
34455494,00000101,false,Rx,0,8,00,FF,FE,00,00,00,00,00,
34455734,00000102,false,Rx,0,8,01,90,01,00,00,01,00,00,
34471760,00000524,false,Rx,0,6,03,06,F8,FF,FF,FF,00,00,
34521606,00000108,false,Rx,0,8,01,F4,01,7D,9A,01,00,00,
34522215,00000109,false,Rx,0,8,02,F0,01,00,00,24,00,00,
34555234,00000100,false,Rx,0,8,00,00,00,00,9A,01,C8,00,
34555488,00000101,false,Rx,0,8,00,FF,FE,00,00,00,00,00,
34555727,00000102,false,Rx,0,8,01,90,01,00,00,01,00,00,
34621613,00000108,false,Rx,0,8,01,F4,01,7D,9A,01,00,00,
34622135,00000109,false,Rx,0,8,02,F1,01,00,00,24,00,00,
34627182,00000525,false,Rx,0,6,04,05,5E,00,00,00,00,00,
34655230,00000100,false,Rx,0,8,00,00,00,00,9A,01,C8,00,
34655484,00000101,false,Rx,0,8,00,FF,FE,00,00,00,00,00,
34655730,00000102,false,Rx,0,8,01,90,01,00,00,01,00,00,
34685686,00000522,false,Rx,0,6,01,09,4B,B6,05,00,00,00,
34721611,00000108,false,Rx,0,8,01,F4,01,7D,9A,01,00,00,
34722135,00000109,false,Rx,0,8,02,F3,01,00,00,24,00,00,
34755231,00000100,false,Rx,0,8,00,00,00,00,9A,01,C8,00,
34755477,00000101,false,Rx,0,8,00,FF,FE,00,00,00,00,00,
34755731,00000102,false,Rx,0,8,01,90,01,00,00,01,00,00,
34821612,00000108,false,Rx,0,8,01,F4,01,7D,9A,01,00,00,
34822134,00000109,false,Rx,0,8,02,F4,01,00,00,24,00,00,
34855224,00000100,false,Rx,0,8,00,00,00,00,9A,01,C8,00,
34855476,00000101,false,Rx,0,8,00,FF,FE,00,00,00,00,00,
34855730,00000102,false,Rx,0,8,01,90,01,00,00,01,00,00,
34921610,00000108,false,Rx,0,8,01,F4,01,7D,9A,01,00,00,
34922152,00000109,false,Rx,0,8,02,F4,01,00,00,24,00,00,
34955221,00000100,false,Rx,0,8,00,00,00,00,9A,01,C8,00,
34955476,00000101,false,Rx,0,8,00,FF,FE,00,00,00,00,00,
34955722,00000102,false,Rx,0,8,01,90,01,00,00,01,00,00,
34967260,00000521,false,Rx,0,6,00,0A,F7,FF,FF,FF,00,00,
34982791,00000527,false,Rx,0,6,06,0E,B8,2A,01,00,00,00,
34998556,00000523,false,Rx,0,6,02,0E,E7,FF,FF,FF,00,00,
35021612,00000108,false,Rx,0,8,01,F4,01,7D,9A,01,00,00,
35022043,00000109,false,Rx,0,8,02,F4,01,00,00,24,00,00,
35055222,00000100,false,Rx,0,8,00,00,00,00,9A,01,C8,00,
35055476,00000101,false,Rx,0,8,00,FF,FE,00,00,00,00,00,
35055722,00000102,false,Rx,0,8,01,90,01,00,00,01,00,00,
35120039,00000526,false,Rx,0,6,05,08,01,00,00,00,00,00,
35120261,00000528,false,Rx,0,6,07,08,A6,1E,00,00,00,00,
35121614,00000108,false,Rx,0,8,01,F4,01,7D,9A,01,00,00,
35121922,00000109,false,Rx,0,8,02,6E,00,00,00,24,00,00,
35139858,00000524,false,Rx,0,6,03,07,F4,FF,FF,FF,00,00,
35155222,00000100,false,Rx,0,8,00,00,00,00,9A,01,C8,00,
35155476,00000101,false,Rx,0,8,00,FF,FE,00,00,00,00,00,
35155715,00000102,false,Rx,0,8,01,90,01,00,00,01,00,00,
35221611,00000108,false,Rx,0,8,01,F4,01,7D,9A,01,00,00,
35222030,00000109,false,Rx,0,8,02,01,00,00,00,24,00,00,
35255220,00000100,false,Rx,0,8,00,00,00,00,9A,01,C8,00,
35255474,00000101,false,Rx,0,8,00,FF,FE,00,00,00,00,00,
35255713,00000102,false,Rx,0,8,01,90,01,00,00,01,00,00,
35313451,00000525,false,Rx,0,6,04,06,5E,00,00,00,00,00,
35317467,00000522,false,Rx,0,6,01,0A,56,B6,05,00,00,00,
35321612,00000108,false,Rx,0,8,01,F4,01,7D,9A,01,00,00,
35322018,00000109,false,Rx,0,8,02,00,00,00,00,24,00,00,
35355216,00000100,false,Rx,0,8,00,00,00,00,9A,01,C8,00,
35355470,00000101,false,Rx,0,8,00,FF,FE,00,00,00,00,00,
35355716,00000102,false,Rx,0,8,01,90,01,00,00,01,00,00,
35421612,00000108,false,Rx,0,8,01,F4,01,7D,9A,01,00,00,
35422049,00000109,false,Rx,0,8,02,00,00,00,00,24,00,00,
35455216,00000100,false,Rx,0,8,00,00,00,00,9A,01,C8,00,
35455470,00000101,false,Rx,0,8,00,FF,FE,00,00,00,00,00,
35455709,00000102,false,Rx,0,8,01,90,01,00,00,01,00,00,
35521614,00000108,false,Rx,0,8,01,F4,01,7D,9A,01,00,00,
35522032,00000109,false,Rx,0,8,02,00,00,00,00,24,00,00,
35555209,00000100,false,Rx,0,8,00,00,00,00,9A,01,C8,00,
35555469,00000101,false,Rx,0,8,00,FF,FE,00,00,00,00,00,
35555709,00000102,false,Rx,0,8,01,90,01,00,00,01,00,00,
35580870,00000521,false,Rx,0,6,00,0B,F8,FF,FF,FF,00,00,
35621611,00000108,false,Rx,0,8,01,F4,01,7D,9A,01,00,00,
35622178,00000109,false,Rx,0,8,02,00,00,00,00,24,00,00,
35648803,00000523,false,Rx,0,6,02,0F,E7,FF,FF,FF,00,00,
35655208,00000100,false,Rx,0,8,00,00,00,00,9A,01,C8,00,
35655455,00000101,false,Rx,0,8,00,FF,FE,00,00,00,00,00,
35655708,00000102,false,Rx,0,8,01,90,01,00,00,01,00,00,
35705345,00000527,false,Rx,0,6,06,0F,B8,2A,01,00,00,00,
35721613,00000108,false,Rx,0,8,01,F4,01,7D,9A,01,00,00,
35722180,00000109,false,Rx,0,8,02,00,00,00,00,24,00,00,
35755207,00000100,false,Rx,0,8,00,00,00,00,9A,01,C8,00,
35755453,00000101,false,Rx,0,8,00,FF,FE,00,00,00,00,00,
35755708,00000102,false,Rx,0,8,01,90,01,00,00,01,00,00,
35807954,00000524,false,Rx,0,6,03,08,E8,FF,FF,FF,00,00,
35821611,00000108,false,Rx,0,8,01,F4,01,7D,9A,01,00,00,
35822177,00000109,false,Rx,0,8,02,00,00,00,00,24,00,00,
35824159,00000526,false,Rx,0,6,05,09,07,00,00,00,00,00,
35855205,00000100,false,Rx,0,8,00,00,00,00,9A,01,C8,00,
35855465,00000101,false,Rx,0,8,00,FF,FE,00,00,00,00,00,
35855705,00000102,false,Rx,0,8,01,90,01,00,00,01,00,00,
35860660,00000528,false,Rx,0,6,07,09,A6,1E,00,00,00,00,
35921612,00000108,false,Rx,0,8,01,F4,01,7D,9A,01,00,00,
35922160,00000109,false,Rx,0,8,02,00,00,00,00,24,00,00,
35949222,00000522,false,Rx,0,6,01,0B,3F,B6,05,00,00,00,
35955202,00000100,false,Rx,0,8,00,00,00,00,9A,01,C8,00,
35955449,00000101,false,Rx,0,8,00,FF,FE,00,00,00,00,00,
35955697,00000102,false,Rx,0,8,01,90,01,00,00,01,00,00,
35999710,00000525,false,Rx,0,6,04,07,5E,00,00,00,00,00,
36021615,00000108,false,Rx,0,8,01,F4,01,7D,9A,01,00,00,
36022213,00000109,false,Rx,0,8,02,00,00,00,00,24,00,00,
36055204,00000100,false,Rx,0,8,00,00,00,00,9A,01,C8,00,
36055451,00000101,false,Rx,0,8,00,FF,FE,00,00,00,00,00,
36055699,00000102,false,Rx,0,8,01,90,01,00,00,01,00,00,
36121613,00000108,false,Rx,0,8,01,F4,01,7D,9A,01,00,00,
36122179,00000109,false,Rx,0,8,02,00,00,00,00,24,00,00,
36155197,00000100,false,Rx,0,8,00,00,00,00,9A,01,C8,00,
36155450,00000101,false,Rx,0,8,00,FF,FE,00,00,00,00,00,
36155698,00000102,false,Rx,0,8,01,90,01,00,00,01,00,00,
36194773,00000521,false,Rx,0,6,00,0C,F8,FF,FF,FF,00,00,
36221611,00000108,false,Rx,0,8,01,F4,01,7D,9A,01,00,00,
36222122,00000109,false,Rx,0,8,02,00,00,00,00,24,00,00,
36255193,00000100,false,Rx,0,8,00,00,00,00,9A,01,C8,00,
36255446,00000101,false,Rx,0,8,00,FF,FE,00,00,00,00,00,
36255694,00000102,false,Rx,0,8,01,90,01,00,00,01,00,00,
36298434,00000523,false,Rx,0,6,02,00,E7,FF,FF,FF,00,00,
36321615,00000108,false,Rx,0,8,01,F4,01,7D,9A,01,00,00,
36322206,00000109,false,Rx,0,8,02,F9,00,00,00,24,00,00,
36355195,00000100,false,Rx,0,8,00,00,00,00,9A,01,C8,00,
36355441,00000101,false,Rx,0,8,00,FF,FE,00,00,00,00,00,
36355688,00000102,false,Rx,0,8,01,90,01,00,00,01,00,00,
36421616,00000108,false,Rx,0,8,01,F4,01,7D,9A,01,00,00,
36422047,00000109,false,Rx,0,8,02,74,01,00,00,24,00,00,
36427680,00000527,false,Rx,0,6,06,00,B8,2A,01,00,00,00,
36455190,00000100,false,Rx,0,8,00,00,00,00,9A,01,C8,00,
36455444,00000101,false,Rx,0,8,00,FF,FE,00,00,00,00,00,
36455691,00000102,false,Rx,0,8,01,90,01,00,00,01,00,00,
36476058,00000524,false,Rx,0,6,03,09,E6,FF,FF,FF,00,00,
36521618,00000108,false,Rx,0,8,01,F4,01,7D,9A,01,00,00,
36522049,00000109,false,Rx,0,8,02,74,01,00,00,24,00,00,
36528850,00000526,false,Rx,0,6,05,0A,0B,00,00,00,00,00,
36555191,00000100,false,Rx,0,8,00,00,00,00,9A,01,C8,00,
36555437,00000101,false,Rx,0,8,00,FF,FE,00,00,00,00,00,
36555692,00000102,false,Rx,0,8,01,90,01,00,00,01,00,00,
36580991,00000522,false,Rx,0,6,01,0C,4D,B6,05,00,00,00,
36601267,00000528,false,Rx,0,6,07,0A,A6,1E,00,00,00,00,
36621618,00000108,false,Rx,0,8,01,F4,01,7D,9A,01,00,00,
36622049,00000109,false,Rx,0,8,02,74,01,00,00,24,00,00,
36655191,00000100,false,Rx,0,8,00,00,00,00,9A,01,C8,00,
36655437,00000101,false,Rx,0,8,00,FF,FE,00,00,00,00,00,
36655685,00000102,false,Rx,0,8,01,90,01,00,00,01,00,00,
36685987,00000525,false,Rx,0,6,04,08,5E,00,00,00,00,00,
36721618,00000108,false,Rx,0,8,01,F4,01,7D,9A,01,00,00,
36722049,00000109,false,Rx,0,8,02,74,01,00,00,24,00,00,
36755184,00000100,false,Rx,0,8,00,00,00,00,9A,01,C8,00,
36755437,00000101,false,Rx,0,8,00,FF,FE,00,00,00,00,00,
36755683,00000102,false,Rx,0,8,01,90,01,00,00,01,00,00,
36808082,00000521,false,Rx,0,6,00,0D,F5,FF,FF,FF,00,00,
36821614,00000108,false,Rx,0,8,01,F4,01,7D,9A,01,00,00,
36822039,00000109,false,Rx,0,8,02,74,01,00,00,24,00,00,
36855185,00000100,false,Rx,0,8,00,00,00,00,9A,01,C8,00,
36855431,00000101,false,Rx,0,8,00,FF,FE,00,00,00,00,00,
36855679,00000102,false,Rx,0,8,01,90,01,00,00,01,00,00,
36921618,00000108,false,Rx,0,8,01,F4,01,7D,9A,01,00,00,
36922037,00000109,false,Rx,0,8,02,74,01,00,00,24,00,00,
36948371,00000523,false,Rx,0,6,02,01,EA,FF,FF,FF,00,00,
36955185,00000100,false,Rx,0,8,00,00,00,00,9A,01,C8,00,
36955432,00000101,false,Rx,0,8,00,FF,FE,00,00,00,00,00,
36955680,00000102,false,Rx,0,8,01,90,01,00,00,01,00,00,
37021619,00000108,false,Rx,0,8,01,F4,01,7D,9A,01,00,00,
37021926,00000109,false,Rx,0,8,02,74,01,00,00,24,00,00,
37055178,00000100,false,Rx,0,8,00,00,00,00,9A,01,C8,00,
37055430,00000101,false,Rx,0,8,00,FF,FE,00,00,00,00,00,
37055678,00000102,false,Rx,0,8,01,90,01,00,00,01,00,00,
37121618,00000108,false,Rx,0,8,01,F4,01,7D,9A,01,00,00,
37121993,00000109,false,Rx,0,8,02,74,01,00,00,24,00,00,
37144163,00000524,false,Rx,0,6,03,0A,F4,FF,FF,FF,00,00,
37150274,00000527,false,Rx,0,6,06,01,B8,2A,01,00,00,00,
37155178,00000100,false,Rx,0,8,00,00,00,00,9A,01,C8,00,
37155432,00000101,false,Rx,0,8,00,FF,FE,00,00,00,00,00,
37155678,00000102,false,Rx,0,8,01,90,01,00,00,01,00,00,
37212779,00000522,false,Rx,0,6,01,0D,5D,B6,05,00,00,00,
37221618,00000108,false,Rx,0,8,01,F4,01,7D,9A,01,00,00,
37221950,00000109,false,Rx,0,8,02,74,01,00,00,24,00,00,
37233115,00000526,false,Rx,0,6,05,0B,FF,FF,FF,FF,00,00,
37255177,00000100,false,Rx,0,8,00,00,00,00,9A,01,C8,00,
37255424,00000101,false,Rx,0,8,00,FF,FE,00,00,00,00,00,
37255671,00000102,false,Rx,0,8,01,90,01,00,00,01,00,00,
37321618,00000108,false,Rx,0,8,01,F4,01,7D,9A,01,00,00,
37321975,00000109,false,Rx,0,8,02,74,01,00,00,24,00,00,
37342033,00000528,false,Rx,0,6,07,0B,A6,1E,00,00,00,00,
37355175,00000100,false,Rx,0,8,00,00,00,00,9A,01,C8,00,
37355421,00000101,false,Rx,0,8,00,FF,FE,00,00,00,00,00,
37355669,00000102,false,Rx,0,8,01,90,01,00,00,01,00,00,
37372263,00000525,false,Rx,0,6,04,09,5E,00,00,00,00,00,
37421613,00000108,false,Rx,0,8,01,F4,01,7D,9A,01,00,00,
37421822,00000521,false,Rx,0,6,00,0E,FA,FF,FF,FF,00,00,
37422062,00000109,false,Rx,0,8,02,74,01,00,00,24,00,00,
37455171,00000100,false,Rx,0,8,00,00,00,00,9A,01,C8,00,
37455418,00000101,false,Rx,0,8,00,FF,FE,00,00,00,00,00,
37455673,00000102,false,Rx,0,8,01,90,01,00,00,01,00,00,
37521619,00000108,false,Rx,0,8,01,F4,01,7D,9A,01,00,00,
37522056,00000109,false,Rx,0,8,02,74,01,00,00,24,00,00,
37555167,00000100,false,Rx,0,8,00,00,00,00,9A,01,C8,00,
37555420,00000101,false,Rx,0,8,00,FF,FE,00,00,00,00,00,
37555667,00000102,false,Rx,0,8,01,90,01,00,00,01,00,00,
37598308,00000523,false,Rx,0,6,02,02,F1,FF,FF,FF,00,00,
37621619,00000108,false,Rx,0,8,01,F4,01,7D,9A,01,00,00,
37622038,00000109,false,Rx,0,8,02,74,01,00,00,24,00,00,
37655166,00000100,false,Rx,0,8,00,00,00,00,9A,01,C8,00,
37655419,00000101,false,Rx,0,8,00,FF,FE,00,00,00,00,00,
37655666,00000102,false,Rx,0,8,01,90,01,00,00,01,00,00,
37721620,00000108,false,Rx,0,8,01,F4,01,7D,9A,01,00,00,
37722038,00000109,false,Rx,0,8,02,74,01,00,00,24,00,00,
37755167,00000100,false,Rx,0,8,00,00,00,00,9A,01,C8,00,
37755413,00000101,false,Rx,0,8,00,FF,FE,00,00,00,00,00,
37755661,00000102,false,Rx,0,8,01,90,01,00,00,01,00,00,
37812295,00000524,false,Rx,0,6,03,0B,EF,FF,FF,FF,00,00,
37821618,00000108,false,Rx,0,8,01,F4,01,7D,9A,01,00,00,
37822043,00000109,false,Rx,0,8,02,74,01,00,00,24,00,00,
37844558,00000522,false,Rx,0,6,01,0E,47,B6,05,00,00,00,
37855164,00000100,false,Rx,0,8,00,00,00,00,9A,01,C8,00,
37855411,00000101,false,Rx,0,8,00,FF,FE,00,00,00,00,00,
37855659,00000102,false,Rx,0,8,01,90,01,00,00,01,00,00,
37872895,00000527,false,Rx,0,6,06,02,B8,2A,01,00,00,00,
37921618,00000108,false,Rx,0,8,01,F4,01,7D,9A,01,00,00,
37922054,00000109,false,Rx,0,8,02,74,01,00,00,24,00,00,
37937748,00000526,false,Rx,0,6,05,0C,07,00,00,00,00,00,
37955162,00000100,false,Rx,0,8,00,00,00,00,9A,01,C8,00,
37955409,00000101,false,Rx,0,8,00,FF,FE,00,00,00,00,00,
37955656,00000102,false,Rx,0,8,01,90,01,00,00,01,00,00,
38021615,00000108,false,Rx,0,8,01,F4,01,7D,9A,01,00,00,
38022058,00000109,false,Rx,0,8,02,74,01,00,00,24,00,00,
38035308,00000521,false,Rx,0,6,00,0F,F5,FF,FF,FF,00,00,
38055158,00000100,false,Rx,0,8,00,00,00,00,9A,01,C8,00,
38055410,00000101,false,Rx,0,8,00,FF,FE,00,00,00,00,00,
38055658,00000102,false,Rx,0,8,01,90,01,00,00,01,00,00,
38058549,00000525,false,Rx,0,6,04,0A,5E,00,00,00,00,00,
38082813,00000528,false,Rx,0,6,07,0C,A6,1E,00,00,00,00,
38121619,00000108,false,Rx,0,8,01,F4,01,7D,9A,01,00,00,
38122036,00000109,false,Rx,0,8,02,74,01,00,00,24,00,00,
38155161,00000100,false,Rx,0,8,00,00,00,00,9A,01,C8,00,
38155408,00000101,false,Rx,0,8,00,FF,FE,00,00,00,00,00,
38155655,00000102,false,Rx,0,8,01,90,01,00,00,01,00,00,
38221619,00000108,false,Rx,0,8,01,F4,01,7D,9A,01,00,00,
38222037,00000109,false,Rx,0,8,02,74,01,00,00,24,00,00,
38248297,00000523,false,Rx,0,6,02,03,F1,FF,FF,FF,00,00,
38255158,00000100,false,Rx,0,8,00,00,00,00,9A,01,C8,00,
38255405,00000101,false,Rx,0,8,00,FF,FE,00,00,00,00,00,
38255652,00000102,false,Rx,0,8,01,90,01,00,00,01,00,00,
38321622,00000108,false,Rx,0,8,01,F4,01,7D,9A,01,00,00,
38322059,00000109,false,Rx,0,8,02,74,01,00,00,24,00,00,
38355155,00000100,false,Rx,0,8,00,00,00,00,9A,01,C8,00,
38355401,00000101,false,Rx,0,8,00,FF,FE,00,00,00,00,00,
38355647,00000102,false,Rx,0,8,01,90,01,00,00,01,00,00,
38421619,00000108,false,Rx,0,8,01,F4,01,7D,9A,01,00,00,
38422068,00000109,false,Rx,0,8,02,74,01,00,00,24,00,00,
38455152,00000100,false,Rx,0,8,00,00,00,00,9A,01,C8,00,
38455405,00000101,false,Rx,0,8,00,FF,FE,00,00,00,00,00,
38455653,00000102,false,Rx,0,8,01,90,01,00,00,01,00,00,
38476324,00000522,false,Rx,0,6,01,0F,5B,B6,05,00,00,00,
38480376,00000524,false,Rx,0,6,03,0C,E8,FF,FF,FF,00,00,
38521620,00000108,false,Rx,0,8,01,F4,01,7D,9A,01,00,00,
38522057,00000109,false,Rx,0,8,02,74,01,00,00,24,00,00,
38555152,00000100,false,Rx,0,8,00,00,00,00,9A,01,C8,00,
38555398,00000101,false,Rx,0,8,00,FF,FE,00,00,00,00,00,
38555646,00000102,false,Rx,0,8,01,90,01,00,00,01,00,00,
38595500,00000527,false,Rx,0,6,06,03,B8,2A,01,00,00,00,
38621617,00000108,false,Rx,0,8,01,F4,01,7D,9A,01,00,00,
38622041,00000109,false,Rx,0,8,02,74,01,00,00,24,00,00,
38642229,00000526,false,Rx,0,6,05,0D,0A,00,00,00,00,00,
38648918,00000521,false,Rx,0,6,00,00,F3,FF,FF,FF,00,00,
38655144,00000100,false,Rx,0,8,00,00,00,00,9A,01,C8,00,
38655397,00000101,false,Rx,0,8,00,FF,FE,00,00,00,00,00,
38655644,00000102,false,Rx,0,8,01,90,01,00,00,01,00,00,
38721618,00000108,false,Rx,0,8,01,F4,01,7D,9A,01,00,00,
38722054,00000109,false,Rx,0,8,02,74,01,00,00,24,00,00,
38744812,00000525,false,Rx,0,6,04,0B,5E,00,00,00,00,00,
38755148,00000100,false,Rx,0,8,00,00,00,00,9A,01,C8,00,
38755394,00000101,false,Rx,0,8,00,FF,FE,00,00,00,00,00,
38755642,00000102,false,Rx,0,8,01,90,01,00,00,01,00,00,
38821620,00000108,false,Rx,0,8,01,F4,01,7D,9A,01,00,00,
38822056,00000109,false,Rx,0,8,02,74,01,00,00,24,00,00,
38823876,00000528,false,Rx,0,6,07,0D,A6,1E,00,00,00,00,
38855146,00000100,false,Rx,0,8,00,00,00,00,9A,01,C8,00,
38855392,00000101,false,Rx,0,8,00,FF,FE,00,00,00,00,00,
38855639,00000102,false,Rx,0,8,01,90,01,00,00,01,00,00,
38898197,00000523,false,Rx,0,6,02,04,F6,FF,FF,FF,00,00,
38921624,00000108,false,Rx,0,8,01,F4,01,7D,9A,01,00,00,
38922043,00000109,false,Rx,0,8,02,74,01,00,00,24,00,00,
38955139,00000100,false,Rx,0,8,00,00,00,00,9A,01,C8,00,
38955392,00000101,false,Rx,0,8,00,FF,FE,00,00,00,00,00,
38955640,00000102,false,Rx,0,8,01,90,01,00,00,01,00,00,
39021624,00000108,false,Rx,0,8,01,F4,01,7D,9A,01,00,00,
39022062,00000109,false,Rx,0,8,02,74,01,00,00,24,00,00,
39055139,00000100,false,Rx,0,8,00,00,00,00,9A,01,C8,00,
39055392,00000101,false,Rx,0,8,00,FF,FE,00,00,00,00,00,
39055633,00000102,false,Rx,0,8,01,90,01,00,00,01,00,00,
39108099,00000522,false,Rx,0,6,01,00,55,B6,05,00,00,00,
39121624,00000108,false,Rx,0,8,01,F4,01,7D,9A,01,00,00,
39122061,00000109,false,Rx,0,8,02,74,01,00,00,24,00,00,
39148490,00000524,false,Rx,0,6,03,0D,E2,FF,FF,FF,00,00,
39155136,00000100,false,Rx,0,8,00,00,00,00,9A,01,C8,00,
39155389,00000101,false,Rx,0,8,00,FF,FE,00,00,00,00,00,
39155637,00000102,false,Rx,0,8,01,90,01,00,00,01,00,00,
39221621,00000108,false,Rx,0,8,01,F4,01,7D,9A,01,00,00,
39222039,00000109,false,Rx,0,8,02,74,01,00,00,24,00,00,
39255131,00000100,false,Rx,0,8,00,00,00,00,9A,01,C8,00,
39255385,00000101,false,Rx,0,8,00,FF,FE,00,00,00,00,00,
39255632,00000102,false,Rx,0,8,01,90,01,00,00,01,00,00,
39262515,00000521,false,Rx,0,6,00,01,EE,FF,FF,FF,00,00,
39318086,00000527,false,Rx,0,6,06,04,B8,2A,01,00,00,00,
39321620,00000108,false,Rx,0,8,01,F4,01,7D,9A,01,00,00,
39322056,00000109,false,Rx,0,8,02,74,01,00,00,24,00,00,
39346581,00000526,false,Rx,0,6,05,0E,0D,00,00,00,00,00,
39355129,00000100,false,Rx,0,8,00,00,00,00,9A,01,C8,00,
39355382,00000101,false,Rx,0,8,00,FF,FE,00,00,00,00,00,
39355630,00000102,false,Rx,0,8,01,90,01,00,00,01,00,00,
39421621,00000108,false,Rx,0,8,01,F4,01,7D,9A,01,00,00,
39422070,00000109,false,Rx,0,8,02,74,01,00,00,24,00,00,
39431086,00000525,false,Rx,0,6,04,0C,5E,00,00,00,00,00,
39455130,00000100,false,Rx,0,8,00,00,00,00,9A,01,C8,00,
39455383,00000101,false,Rx,0,8,00,FF,FE,00,00,00,00,00,
39455631,00000102,false,Rx,0,8,01,90,01,00,00,01,00,00,
39521624,00000108,false,Rx,0,8,01,F4,01,7D,9A,01,00,00,
39522042,00000109,false,Rx,0,8,02,74,01,00,00,24,00,00,
39548133,00000523,false,Rx,0,6,02,05,E7,FF,FF,FF,00,00,
39555129,00000100,false,Rx,0,8,00,00,00,00,9A,01,C8,00,
39555376,00000101,false,Rx,0,8,00,FF,FE,00,00,00,00,00,
39555623,00000102,false,Rx,0,8,01,90,01,00,00,01,00,00,
39564352,00000528,false,Rx,0,6,07,0E,A6,1E,00,00,00,00,
39621625,00000108,false,Rx,0,8,01,F4,01,7D,9A,01,00,00,
39622056,00000109,false,Rx,0,8,02,74,01,00,00,24,00,00,
39655128,00000100,false,Rx,0,8,00,00,00,00,9A,01,C8,00,
39655375,00000101,false,Rx,0,8,00,FF,FE,00,00,00,00,00,
39655622,00000102,false,Rx,0,8,01,90,01,00,00,01,00,00,
39721624,00000108,false,Rx,0,8,01,F4,01,7D,9A,01,00,00,
39722061,00000109,false,Rx,0,8,02,74,01,00,00,24,00,00,
39739870,00000522,false,Rx,0,6,01,01,5D,B6,05,00,00,00,
39755126,00000100,false,Rx,0,8,00,00,00,00,9A,01,C8,00,
39755372,00000101,false,Rx,0,8,00,FF,FE,00,00,00,00,00,
39755626,00000102,false,Rx,0,8,01,90,01,00,00,01,00,00,
39816590,00000524,false,Rx,0,6,03,0E,F5,FF,FF,FF,00,00,
39821624,00000108,false,Rx,0,8,01,F4,01,7D,9A,01,00,00,
39822042,00000109,false,Rx,0,8,02,74,01,00,00,24,00,00,
39855124,00000100,false,Rx,0,8,00,00,00,00,9A,01,C8,00,
39855370,00000101,false,Rx,0,8,00,FF,FE,00,00,00,00,00,
39855617,00000102,false,Rx,0,8,01,90,01,00,00,01,00,00,
39876115,00000521,false,Rx,0,6,00,02,F2,FF,FF,FF,00,00,
39921625,00000108,false,Rx,0,8,01,F4,01,7D,9A,01,00,00,
39922043,00000109,false,Rx,0,8,02,74,01,00,00,24,00,00,
39955117,00000100,false,Rx,0,8,00,00,00,00,9A,01,C8,00,
39955370,00000101,false,Rx,0,8,00,FF,FE,00,00,00,00,00,
39955618,00000102,false,Rx,0,8,01,90,01,00,00,01,00,00,
40021624,00000108,false,Rx,0,8,01,F4,01,7D,9A,01,00,00,
40022043,00000109,false,Rx,0,8,02,74,01,00,00,24,00,00,
40040697,00000527,false,Rx,0,6,06,05,B8,2A,01,00,00,00,
40050865,00000526,false,Rx,0,6,05,0F,08,00,00,00,00,00,
40055120,00000100,false,Rx,0,8,00,00,00,00,9A,01,C8,00,
40055366,00000101,false,Rx,0,8,00,FF,FE,00,00,00,00,00,
40055613,00000102,false,Rx,0,8,01,90,01,00,00,01,00,00,
40117349,00000525,false,Rx,0,6,04,0D,5E,00,00,00,00,00,
40121625,00000108,false,Rx,0,8,01,F4,01,7D,9A,01,00,00,
40122062,00000109,false,Rx,0,8,02,74,01,00,00,24,00,00,
40155117,00000100,false,Rx,0,8,00,00,00,00,9A,01,C8,00,
40155364,00000101,false,Rx,0,8,00,FF,FE,00,00,00,00,00,
40155617,00000102,false,Rx,0,8,01,90,01,00,00,01,00,00,
40198081,00000523,false,Rx,0,6,02,06,E7,FF,FF,FF,00,00,
40221621,00000108,false,Rx,0,8,01,F4,01,7D,9A,01,00,00,
40222063,00000109,false,Rx,0,8,02,74,01,00,00,24,00,00,
40255111,00000100,false,Rx,0,8,00,00,00,00,9A,01,C8,00,
40255364,00000101,false,Rx,0,8,00,FF,FE,00,00,00,00,00,
40255612,00000102,false,Rx,0,8,01,90,01,00,00,01,00,00,
40305121,00000528,false,Rx,0,6,07,0F,A6,1E,00,00,00,00,
40321625,00000108,false,Rx,0,8,01,F4,01,7D,9A,01,00,00,
40322043,00000109,false,Rx,0,8,02,74,01,00,00,24,00,00,
40355113,00000100,false,Rx,0,8,00,00,00,00,9A,01,C8,00,
40355360,00000101,false,Rx,0,8,00,FF,FE,00,00,00,00,00,
40355607,00000102,false,Rx,0,8,01,90,01,00,00,01,00,00,
40371963,00000522,false,Rx,0,6,01,02,58,B6,05,00,00,00,
40421619,00000108,false,Rx,0,8,01,F4,01,7D,9A,01,00,00,
40422056,00000109,false,Rx,0,8,02,74,01,00,00,24,00,00,
40455109,00000100,false,Rx,0,8,00,00,00,00,9A,01,C8,00,
40455356,00000101,false,Rx,0,8,00,FF,FE,00,00,00,00,00,
40455610,00000102,false,Rx,0,8,01,90,01,00,00,01,00,00,
40484704,00000524,false,Rx,0,6,03,0F,F4,FF,FF,FF,00,00,
40489851,00000521,false,Rx,0,6,00,03,F0,FF,FF,FF,00,00,
40521626,00000108,false,Rx,0,8,01,F4,01,7D,9A,01,00,00,
40522044,00000109,false,Rx,0,8,02,74,01,00,00,24,00,00,
40555107,00000100,false,Rx,0,8,00,00,00,00,9A,01,C8,00,
40555360,00000101,false,Rx,0,8,00,FF,FE,00,00,00,00,00,
40555607,00000102,false,Rx,0,8,01,90,01,00,00,01,00,00,
40621621,00000108,false,Rx,0,8,01,F4,01,7D,9A,01,00,00,
40622046,00000109,false,Rx,0,8,02,74,01,00,00,24,00,00,
40655105,00000100,false,Rx,0,8,00,00,00,00,9A,01,C8,00,
40655358,00000101,false,Rx,0,8,00,FF,FE,00,00,00,00,00,
40655606,00000102,false,Rx,0,8,01,90,01,00,00,01,00,00,
40721629,00000108,false,Rx,0,8,01,F4,01,7D,9A,01,00,00,
40722059,00000109,false,Rx,0,8,02,74,01,00,00,24,00,00,
40755103,00000100,false,Rx,0,8,00,00,00,00,9A,01,C8,00,
40755356,00000101,false,Rx,0,8,00,FF,FE,00,00,00,00,00,
40755604,00000102,false,Rx,0,8,01,90,01,00,00,01,00,00,
40755813,00000526,false,Rx,0,6,05,00,08,00,00,00,00,00,
40763309,00000527,false,Rx,0,6,06,06,B8,2A,01,00,00,00,
40803637,00000525,false,Rx,0,6,04,0E,5E,00,00,00,00,00,
40821624,00000108,false,Rx,0,8,01,F4,01,7D,9A,01,00,00,
40822049,00000109,false,Rx,0,8,02,74,01,00,00,24,00,00,
40848028,00000523,false,Rx,0,6,02,07,F0,FF,FF,FF,00,00,
40855100,00000100,false,Rx,0,8,00,00,00,00,9A,01,C8,00,
40855353,00000101,false,Rx,0,8,00,FF,FE,00,00,00,00,00,
40855601,00000102,false,Rx,0,8,01,90,01,00,00,01,00,00,
40921625,00000108,false,Rx,0,8,01,F4,01,7D,9A,01,00,00,
40922049,00000109,false,Rx,0,8,02,74,01,00,00,24,00,00,
40955098,00000100,false,Rx,0,8,00,00,00,00,9A,01,C8,00,
40955352,00000101,false,Rx,0,8,00,FF,FE,00,00,00,00,00,
40955600,00000102,false,Rx,0,8,01,90,01,00,00,01,00,00,
41003930,00000522,false,Rx,0,6,01,03,53,B6,05,00,00,00,
41021625,00000108,false,Rx,0,8,01,F4,01,7D,9A,01,00,00,
41022043,00000109,false,Rx,0,8,02,74,01,00,00,24,00,00,
41045901,00000528,false,Rx,0,6,07,00,A6,1E,00,00,00,00,
41055099,00000100,false,Rx,0,8,00,00,00,00,9A,01,C8,00,
41055345,00000101,false,Rx,0,8,00,FF,FE,00,00,00,00,00,
41055593,00000102,false,Rx,0,8,01,90,01,00,00,01,00,00,
41103346,00000521,false,Rx,0,6,00,04,F2,FF,FF,FF,00,00,
41121624,00000108,false,Rx,0,8,01,F4,01,7D,9A,01,00,00,
41122048,00000109,false,Rx,0,8,02,74,01,00,00,24,00,00,
41152815,00000524,false,Rx,0,6,03,00,ED,FF,FF,FF,00,00,
41155092,00000100,false,Rx,0,8,00,00,00,00,9A,01,C8,00,
41155345,00000101,false,Rx,0,8,00,FF,FE,00,00,00,00,00,
41155593,00000102,false,Rx,0,8,01,90,01,00,00,01,00,00,
41221628,00000108,false,Rx,0,8,01,F4,01,7D,9A,01,00,00,
41222065,00000109,false,Rx,0,8,02,74,01,00,00,24,00,00,
41255096,00000100,false,Rx,0,8,00,00,00,00,9A,01,C8,00,
41255342,00000101,false,Rx,0,8,00,FF,FE,00,00,00,00,00,
41255595,00000102,false,Rx,0,8,01,90,01,00,00,01,00,00,
41321628,00000108,false,Rx,0,8,01,F4,01,7D,9A,01,00,00,
41322046,00000109,false,Rx,0,8,02,74,01,00,00,24,00,00,
41355093,00000100,false,Rx,0,8,00,00,00,00,9A,01,C8,00,
41355339,00000101,false,Rx,0,8,00,FF,FE,00,00,00,00,00,
41355593,00000102,false,Rx,0,8,01,90,01,00,00,01,00,00,
41421626,00000108,false,Rx,0,8,01,F4,01,7D,9A,01,00,00,
41422057,00000109,false,Rx,0,8,02,74,01,00,00,24,00,00,
41455088,00000100,false,Rx,0,8,00,00,00,00,9A,01,C8,00,
41455341,00000101,false,Rx,0,8,00,FF,FE,00,00,00,00,00,
41455589,00000102,false,Rx,0,8,01,90,01,00,00,01,00,00,
41459727,00000526,false,Rx,0,6,05,01,0D,00,00,00,00,00,
41485902,00000527,false,Rx,0,6,06,07,B8,2A,01,00,00,00,
41489885,00000525,false,Rx,0,6,04,0F,5E,00,00,00,00,00,
41497946,00000523,false,Rx,0,6,02,08,E7,FF,FF,FF,00,00,
41521628,00000108,false,Rx,0,8,01,F4,01,7D,9A,01,00,00,
41522065,00000109,false,Rx,0,8,02,74,01,00,00,24,00,00,
41555083,00000100,false,Rx,0,8,00,00,00,00,9A,01,C8,00,
41555337,00000101,false,Rx,0,8,00,FF,FE,00,00,00,00,00,
41555584,00000102,false,Rx,0,8,01,90,01,00,00,01,00,00,
41621625,00000108,false,Rx,0,8,01,F4,01,7D,9A,01,00,00,
41622063,00000109,false,Rx,0,8,02,74,01,00,00,24,00,00,
41635188,00000522,false,Rx,0,6,01,04,5D,B6,05,00,00,00,
41655081,00000100,false,Rx,0,8,00,00,00,00,9A,01,C8,00,
41655335,00000101,false,Rx,0,8,00,FF,FE,00,00,00,00,00,
41655583,00000102,false,Rx,0,8,01,90,01,00,00,01,00,00,
41716932,00000521,false,Rx,0,6,00,05,F5,FF,FF,FF,00,00,
41721628,00000108,false,Rx,0,8,01,F4,01,7D,9A,01,00,00,
41722065,00000109,false,Rx,0,8,02,74,01,00,00,24,00,00,
41755084,00000100,false,Rx,0,8,00,00,00,00,9A,01,C8,00,
41755330,00000101,false,Rx,0,8,00,FF,FE,00,00,00,00,00,
41755578,00000102,false,Rx,0,8,01,90,01,00,00,01,00,00,
41786652,00000528,false,Rx,0,6,07,01,A6,1E,00,00,00,00,
41820944,00000524,false,Rx,0,6,03,01,00,00,00,00,00,00,
41821740,00000108,false,Rx,0,8,01,F4,01,7D,9A,01,00,00,
41822165,00000109,false,Rx,0,8,02,74,01,00,00,24,00,00,
41855081,00000100,false,Rx,0,8,00,00,00,00,9A,01,C8,00,
41855327,00000101,false,Rx,0,8,00,FF,FE,00,00,00,00,00,
41855575,00000102,false,Rx,0,8,01,90,01,00,00,01,00,00,
41921629,00000108,false,Rx,0,8,01,F4,01,7D,9A,01,00,00,
41922066,00000109,false,Rx,0,8,02,74,01,00,00,24,00,00,
41955080,00000100,false,Rx,0,8,00,00,00,00,9A,01,C8,00,
41955326,00000101,false,Rx,0,8,00,FF,FE,00,00,00,00,00,
41955574,00000102,false,Rx,0,8,01,90,01,00,00,01,00,00,
42021631,00000108,false,Rx,0,8,01,F4,01,7D,9A,01,00,00,
42022049,00000109,false,Rx,0,8,02,74,01,00,00,24,00,00,
42055074,00000100,false,Rx,0,8,00,00,00,00,9A,01,C8,00,
42055327,00000101,false,Rx,0,8,00,FF,FE,00,00,00,00,00,
42055574,00000102,false,Rx,0,8,01,90,01,00,00,01,00,00,
42121629,00000108,false,Rx,0,8,01,F4,01,7D,9A,01,00,00,
42122047,00000109,false,Rx,0,8,02,74,01,00,00,24,00,00,
42147880,00000523,false,Rx,0,6,02,09,E7,FF,FF,FF,00,00,
42155076,00000100,false,Rx,0,8,00,00,00,00,9A,01,C8,00,
42155323,00000101,false,Rx,0,8,00,FF,FE,00,00,00,00,00,
42155577,00000102,false,Rx,0,8,01,90,01,00,00,01,00,00,
42164354,00000526,false,Rx,0,6,05,02,01,00,00,00,00,00,
42176146,00000525,false,Rx,0,6,04,00,5E,00,00,00,00,00,
42208491,00000527,false,Rx,0,6,06,08,B8,2A,01,00,00,00,
42221625,00000108,false,Rx,0,8,01,F4,01,7D,9A,01,00,00,
42222050,00000109,false,Rx,0,8,02,74,01,00,00,24,00,00,
42255074,00000100,false,Rx,0,8,00,00,00,00,9A,01,C8,00,
42255320,00000101,false,Rx,0,8,00,FF,FE,00,00,00,00,00,
42255568,00000102,false,Rx,0,8,01,90,01,00,00,01,00,00,
42266958,00000522,false,Rx,0,6,01,05,61,B6,05,00,00,00,
42321624,00000108,false,Rx,0,8,01,F4,01,7D,9A,01,00,00,
42322067,00000109,false,Rx,0,8,02,74,01,00,00,24,00,00,
42330533,00000521,false,Rx,0,6,00,06,F5,FF,FF,FF,00,00,
42355068,00000100,false,Rx,0,8,00,00,00,00,9A,01,C8,00,
42355321,00000101,false,Rx,0,8,00,FF,FE,00,00,00,00,00,
42355569,00000102,false,Rx,0,8,01,90,01,00,00,01,00,00,
42421629,00000108,false,Rx,0,8,01,F4,01,7D,9A,01,00,00,
42422060,00000109,false,Rx,0,8,02,74,01,00,00,24,00,00,
42455071,00000100,false,Rx,0,8,00,00,00,00,9A,01,C8,00,
42455318,00000101,false,Rx,0,8,00,FF,FE,00,00,00,00,00,
42455567,00000102,false,Rx,0,8,01,90,01,00,00,01,00,00,
42488993,00000524,false,Rx,0,6,03,02,FA,FF,FF,FF,00,00,
42521626,00000108,false,Rx,0,8,01,F4,01,7D,9A,01,00,00,
42522063,00000109,false,Rx,0,8,02,74,01,00,00,24,00,00,
42527419,00000528,false,Rx,0,6,07,02,A6,1E,00,00,00,00,
42555068,00000100,false,Rx,0,8,00,00,00,00,9A,01,C8,00,
42555315,00000101,false,Rx,0,8,00,FF,FE,00,00,00,00,00,
42555562,00000102,false,Rx,0,8,01,90,01,00,00,01,00,00,
42621629,00000108,false,Rx,0,8,01,F4,01,7D,9A,01,00,00,
42622053,00000109,false,Rx,0,8,02,74,01,00,00,24,00,00,
42655061,00000100,false,Rx,0,8,00,00,00,00,9A,01,C8,00,
42655314,00000101,false,Rx,0,8,00,FF,FE,00,00,00,00,00,
42655562,00000102,false,Rx,0,8,01,90,01,00,00,01,00,00,
42721631,00000108,false,Rx,0,8,01,F4,01,7D,9A,01,00,00,
42722068,00000109,false,Rx,0,8,02,74,01,00,00,24,00,00,
42755059,00000100,false,Rx,0,8,00,00,00,00,9A,01,C8,00,
42755312,00000101,false,Rx,0,8,00,FF,FE,00,00,00,00,00,
42755560,00000102,false,Rx,0,8,01,90,01,00,00,01,00,00,
42797810,00000523,false,Rx,0,6,02,0A,E4,FF,FF,FF,00,00,
42821632,00000108,false,Rx,0,8,01,F4,01,7D,9A,01,00,00,
42822069,00000109,false,Rx,0,8,02,74,01,00,00,24,00,00,
42855062,00000100,false,Rx,0,8,00,00,00,00,9A,01,C8,00,
42855308,00000101,false,Rx,0,8,00,FF,FE,00,00,00,00,00,
42855555,00000102,false,Rx,0,8,01,90,01,00,00,01,00,00,
42862430,00000525,false,Rx,0,6,04,01,5E,00,00,00,00,00,
42868787,00000526,false,Rx,0,6,05,03,04,00,00,00,00,00,
42898727,00000522,false,Rx,0,6,01,06,54,B6,05,00,00,00,
42921630,00000108,false,Rx,0,8,01,F4,01,7D,9A,01,00,00,
42922049,00000109,false,Rx,0,8,02,74,01,00,00,24,00,00,
42931092,00000527,false,Rx,0,6,06,09,B8,2A,01,00,00,00,
42944152,00000521,false,Rx,0,6,00,07,F6,FF,FF,FF,00,00,
42955056,00000100,false,Rx,0,8,00,00,00,00,9A,01,C8,00,
42955308,00000101,false,Rx,0,8,00,FF,FE,00,00,00,00,00,
42955555,00000102,false,Rx,0,8,01,90,01,00,00,01,00,00,
43021630,00000108,false,Rx,0,8,01,F4,01,7D,9A,01,00,00,
43022048,00000109,false,Rx,0,8,02,74,01,00,00,24,00,00,
43055055,00000100,false,Rx,0,8,00,00,00,00,9A,01,C8,00,
43055302,00000101,false,Rx,0,8,00,FF,FE,00,00,00,00,00,
43055556,00000102,false,Rx,0,8,01,90,01,00,00,01,00,00,
43121631,00000108,false,Rx,0,8,01,F4,01,7D,9A,01,00,00,
43122049,00000109,false,Rx,0,8,02,74,01,00,00,24,00,00,
43155056,00000100,false,Rx,0,8,00,00,00,00,9A,01,C8,00,
43155302,00000101,false,Rx,0,8,00,FF,FE,00,00,00,00,00,
43155550,00000102,false,Rx,0,8,01,90,01,00,00,01,00,00,
43157420,00000524,false,Rx,0,6,03,03,F4,FF,FF,FF,00,00,
43221632,00000108,false,Rx,0,8,01,F4,01,7D,9A,01,00,00,
43222050,00000109,false,Rx,0,8,02,74,01,00,00,24,00,00,
43255050,00000100,false,Rx,0,8,00,00,00,00,9A,01,C8,00,
43255303,00000101,false,Rx,0,8,00,FF,FE,00,00,00,00,00,
43255550,00000102,false,Rx,0,8,01,90,01,00,00,01,00,00,
43268184,00000528,false,Rx,0,6,07,03,A6,1E,00,00,00,00,
43321629,00000108,false,Rx,0,8,01,F4,01,7D,9A,01,00,00,
43322066,00000109,false,Rx,0,8,02,74,01,00,00,24,00,00,
43355048,00000100,false,Rx,0,8,00,00,00,00,9A,01,C8,00,
43355301,00000101,false,Rx,0,8,00,FF,FE,00,00,00,00,00,
43355548,00000102,false,Rx,0,8,01,90,01,00,00,01,00,00,
43421631,00000108,false,Rx,0,8,01,F4,01,7D,9A,01,00,00,
43422062,00000109,false,Rx,0,8,02,74,01,00,00,24,00,00,
43447753,00000523,false,Rx,0,6,02,0B,EB,FF,FF,FF,00,00,
43455047,00000100,false,Rx,0,8,00,00,00,00,9A,01,C8,00,
43455301,00000101,false,Rx,0,8,00,FF,FE,00,00,00,00,00,
43455542,00000102,false,Rx,0,8,01,90,01,00,00,01,00,00,
43521627,00000108,false,Rx,0,8,01,F4,01,7D,9A,01,00,00,
43522052,00000109,false,Rx,0,8,02,74,01,00,00,24,00,00,
43530509,00000522,false,Rx,0,6,01,07,57,B6,05,00,00,00,
43548692,00000525,false,Rx,0,6,04,02,5E,00,00,00,00,00,
43555047,00000100,false,Rx,0,8,00,00,00,00,9A,01,C8,00,
43555295,00000101,false,Rx,0,8,00,FF,FE,00,00,00,00,00,
43555541,00000102,false,Rx,0,8,01,90,01,00,00,01,00,00,
43557746,00000521,false,Rx,0,6,00,08,F2,FF,FF,FF,00,00,
43573195,00000526,false,Rx,0,6,05,04,04,00,00,00,00,00,
43621627,00000108,false,Rx,0,8,01,F4,01,7D,9A,01,00,00,
43622070,00000109,false,Rx,0,8,02,74,01,00,00,24,00,00,
43653703,00000527,false,Rx,0,6,06,0A,B8,2A,01,00,00,00,
43655043,00000100,false,Rx,0,8,00,00,00,00,9A,01,C8,00,
43655297,00000101,false,Rx,0,8,00,FF,FE,00,00,00,00,00,
43655538,00000102,false,Rx,0,8,01,90,01,00,00,01,00,00,
43721628,00000108,false,Rx,0,8,01,F4,01,7D,9A,01,00,00,
43722065,00000109,false,Rx,0,8,02,74,01,00,00,24,00,00,
43755043,00000100,false,Rx,0,8,00,00,00,00,9A,01,C8,00,
43755292,00000101,false,Rx,0,8,00,FF,FE,00,00,00,00,00,
43755539,00000102,false,Rx,0,8,01,90,01,00,00,01,00,00,
43821633,00000108,false,Rx,0,8,01,F4,01,7D,9A,01,00,00,
43822070,00000109,false,Rx,0,8,02,74,01,00,00,24,00,00,
43825212,00000524,false,Rx,0,6,03,04,E9,FF,FF,FF,00,00,
43855037,00000100,false,Rx,0,8,00,00,00,00,9A,01,C8,00,
43855292,00000101,false,Rx,0,8,00,FF,FE,00,00,00,00,00,
43855539,00000102,false,Rx,0,8,01,90,01,00,00,01,00,00,
43921631,00000108,false,Rx,0,8,01,F4,01,7D,9A,01,00,00,
43922056,00000109,false,Rx,0,8,02,74,01,00,00,24,00,00,
43955036,00000100,false,Rx,0,8,00,00,00,00,9A,01,C8,00,
43955294,00000101,false,Rx,0,8,00,FF,FE,00,00,00,00,00,
43955536,00000102,false,Rx,0,8,01,90,01,00,00,01,00,00,
44008951,00000528,false,Rx,0,6,07,04,A6,1E,00,00,00,00,
44021628,00000108,false,Rx,0,8,01,F4,01,7D,9A,01,00,00,
44022052,00000109,false,Rx,0,8,02,74,01,00,00,24,00,00,
44055034,00000100,false,Rx,0,8,00,00,00,00,9A,01,C8,00,
44055288,00000101,false,Rx,0,8,00,FF,FE,00,00,00,00,00,
44055535,00000102,false,Rx,0,8,01,90,01,00,00,01,00,00,
44097698,00000523,false,Rx,0,6,02,0C,EB,FF,FF,FF,00,00,
44121631,00000108,false,Rx,0,8,01,F4,01,7D,9A,01,00,00,
44122067,00000109,false,Rx,0,8,02,74,01,00,00,24,00,00,
44155034,00000100,false,Rx,0,8,00,00,00,00,9A,01,C8,00,
44155289,00000101,false,Rx,0,8,00,FF,FE,00,00,00,00,00,
44155529,00000102,false,Rx,0,8,01,90,01,00,00,01,00,00,
44162269,00000522,false,Rx,0,6,01,08,66,B6,05,00,00,00,
44171357,00000521,false,Rx,0,6,00,09,F6,FF,FF,FF,00,00,
44221631,00000108,false,Rx,0,8,01,F4,01,7D,9A,01,00,00,
44221927,00000109,false,Rx,0,8,02,74,01,00,00,34,00,00,
44234950,00000525,false,Rx,0,6,04,03,5E,00,00,00,00,00,
44255033,00000100,false,Rx,0,8,00,00,00,00,9A,01,C8,00,
44255290,00000101,false,Rx,0,8,00,FF,FE,00,00,00,00,00,
44255531,00000102,false,Rx,0,8,01,90,01,00,00,01,00,00,
44277573,00000526,false,Rx,0,6,05,05,04,00,00,00,00,00,
44321630,00000108,false,Rx,0,8,01,F4,01,7D,9A,01,00,00,
44322017,00000109,false,Rx,0,8,02,74,01,00,00,34,00,00,
44355031,00000100,false,Rx,0,8,00,00,00,00,9A,01,C8,00,
44355284,00000101,false,Rx,0,8,00,FF,FE,00,00,00,00,00,
44355525,00000102,false,Rx,0,8,01,90,01,00,00,01,00,00,
44376303,00000527,false,Rx,0,6,06,0B,B8,2A,01,00,00,00,
44421630,00000108,false,Rx,0,8,01,F4,01,7D,9A,01,00,00,
44422037,00000109,false,Rx,0,8,02,75,00,00,00,30,00,00,
44455028,00000100,false,Rx,0,8,00,00,00,00,9A,01,C8,00,
44455288,00000101,false,Rx,0,8,00,FF,FE,00,00,00,00,00,
44455522,00000102,false,Rx,0,8,01,90,01,00,00,01,00,00,
44493308,00000524,false,Rx,0,6,03,05,EB,FF,FF,FF,00,00,
44521630,00000108,false,Rx,0,8,01,F4,01,7D,9A,01,00,00,
44522023,00000109,false,Rx,0,8,02,00,00,00,00,30,00,00,
44555024,00000100,false,Rx,0,8,00,00,00,00,9A,01,C8,00,
44555276,00000101,false,Rx,0,8,00,FF,FE,00,00,00,00,00,
44555522,00000102,false,Rx,0,8,01,90,01,00,00,01,00,00,
44621630,00000108,false,Rx,0,8,01,F4,01,7D,9A,01,00,00,
44622178,00000109,false,Rx,0,8,02,00,00,00,00,30,00,00,
44655025,00000100,false,Rx,0,8,00,00,00,00,9A,01,C8,00,
44655272,00000101,false,Rx,0,8,00,FF,FE,00,00,00,00,00,
44655519,00000102,false,Rx,0,8,01,90,01,00,00,01,00,00,
44721630,00000108,false,Rx,0,8,01,F4,01,7D,9A,01,00,00,
44722140,00000109,false,Rx,0,8,02,00,00,00,00,30,00,00,
44747622,00000523,false,Rx,0,6,02,0D,E9,FF,FF,FF,00,00,
44749716,00000528,false,Rx,0,6,07,05,A6,1E,00,00,00,00,
44755018,00000100,false,Rx,0,8,00,00,00,00,9A,01,C8,00,
44755272,00000101,false,Rx,0,8,00,FF,FE,00,00,00,00,00,
44755520,00000102,false,Rx,0,8,01,90,01,00,00,01,00,00,
44784956,00000521,false,Rx,0,6,00,0A,F7,FF,FF,FF,00,00,
44794043,00000522,false,Rx,0,6,01,09,56,B6,05,00,00,00,
44821630,00000108,false,Rx,0,8,01,F4,01,7D,9A,01,00,00,
44822147,00000109,false,Rx,0,8,02,00,00,00,00,30,00,00,
44855018,00000100,false,Rx,0,8,00,00,00,00,9A,01,C8,00,
44855271,00000101,false,Rx,0,8,00,FF,FE,00,00,00,00,00,
44855519,00000102,false,Rx,0,8,01,90,01,00,00,01,00,00,
44921240,00000525,false,Rx,0,6,04,04,5E,00,00,00,00,00,
44921765,00000108,false,Rx,0,8,01,F4,01,7D,9A,01,00,00,
44922297,00000109,false,Rx,0,8,02,00,00,00,00,30,00,00,
44955015,00000100,false,Rx,0,8,00,00,00,00,9A,01,C8,00,
44955268,00000101,false,Rx,0,8,00,FF,FE,00,00,00,00,00,
44955515,00000102,false,Rx,0,8,01,90,01,00,00,01,00,00,
44982089,00000526,false,Rx,0,6,05,06,0D,00,00,00,00,00,
45021637,00000108,false,Rx,0,8,01,F4,01,7D,9A,01,00,00,
45022148,00000109,false,Rx,0,8,02,00,00,00,00,30,00,00,
45055014,00000100,false,Rx,0,8,00,00,00,00,9A,01,C8,00,
45055268,00000101,false,Rx,0,8,00,FF,FE,00,00,00,00,00,
45055515,00000102,false,Rx,0,8,01,90,01,00,00,01,00,00,
45098909,00000527,false,Rx,0,6,06,0C,B8,2A,01,00,00,00,
45121637,00000108,false,Rx,0,8,01,F4,01,7D,9A,01,00,00,
45122148,00000109,false,Rx,0,8,02,00,00,00,00,30,00,00,
45155015,00000100,false,Rx,0,8,00,00,00,00,9A,01,C8,00,
45155261,00000101,false,Rx,0,8,00,FF,FE,00,00,00,00,00,
45155508,00000102,false,Rx,0,8,01,90,01,00,00,01,00,00,
45161419,00000524,false,Rx,0,6,03,06,FC,FF,FF,FF,00,00,
45221634,00000108,false,Rx,0,8,01,F4,01,7D,9A,01,00,00,
45222164,00000109,false,Rx,0,8,02,00,00,00,00,30,00,00,
45255010,00000100,false,Rx,0,8,00,00,00,00,9A,01,C8,00,
45255264,00000101,false,Rx,0,8,00,FF,FE,00,00,00,00,00,
45255505,00000102,false,Rx,0,8,01,90,01,00,00,01,00,00,
45321634,00000108,false,Rx,0,8,01,F4,01,7D,9A,01,00,00,
45322146,00000109,false,Rx,0,8,02,00,00,00,00,30,00,00,
45355010,00000100,false,Rx,0,8,00,00,00,00,9A,01,C8,00,
45355263,00000101,false,Rx,0,8,00,FF,FE,00,00,00,00,00,
45355510,00000102,false,Rx,0,8,01,90,01,00,00,01,00,00,
45397878,00000523,false,Rx,0,6,02,0E,F4,FF,FF,FF,00,00,
45398922,00000521,false,Rx,0,6,00,0B,F5,FF,FF,FF,00,00,
45421637,00000108,false,Rx,0,8,01,F4,01,7D,9A,01,00,00,
45422160,00000109,false,Rx,0,8,02,00,00,00,00,30,00,00,
45425823,00000522,false,Rx,0,6,01,0A,61,B6,05,00,00,00,
45455004,00000100,false,Rx,0,8,00,00,00,00,9A,01,C8,00,
45455256,00000101,false,Rx,0,8,00,FF,FE,00,00,00,00,00,
45455504,00000102,false,Rx,0,8,01,90,01,00,00,01,00,00,
45490734,00000528,false,Rx,0,6,07,06,A6,1E,00,00,00,00,
45521631,00000108,false,Rx,0,8,01,F4,01,7D,9A,01,00,00,
45522167,00000109,false,Rx,0,8,02,00,00,00,00,30,00,00,
45555006,00000100,false,Rx,0,8,00,00,00,00,9A,01,C8,00,
45555252,00000101,false,Rx,0,8,00,FF,FE,00,00,00,00,00,
45555505,00000102,false,Rx,0,8,01,90,01,00,00,01,00,00,
45607514,00000525,false,Rx,0,6,04,05,5E,00,00,00,00,00,
45621633,00000108,false,Rx,0,8,01,F4,01,7D,9A,01,00,00,
45622163,00000109,false,Rx,0,8,02,00,00,00,00,30,00,00,
45655000,00000100,false,Rx,0,8,00,00,00,00,9A,01,C8,00,
45655252,00000101,false,Rx,0,8,00,FF,FE,00,00,00,00,00,
45655505,00000102,false,Rx,0,8,01,90,01,00,00,01,00,00,
45686339,00000526,false,Rx,0,6,05,07,06,00,00,00,00,00,
45721633,00000108,false,Rx,0,8,01,F4,01,7D,9A,01,00,00,
45722150,00000109,false,Rx,0,8,02,00,00,00,00,30,00,00,
45755002,00000100,false,Rx,0,8,00,00,00,00,9A,01,C8,00,
45755248,00000101,false,Rx,0,8,00,FF,FE,00,00,00,00,00,
45755496,00000102,false,Rx,0,8,01,90,01,00,00,01,00,00,
45821634,00000108,false,Rx,0,8,01,F4,01,7D,9A,01,00,00,
45821837,00000527,false,Rx,0,6,06,0D,B8,2A,01,00,00,00,
45822175,00000109,false,Rx,0,8,02,00,00,00,00,30,00,00,
45829533,00000524,false,Rx,0,6,03,07,E7,FF,FF,FF,00,00,
45855001,00000100,false,Rx,0,8,00,00,00,00,9A,01,C8,00,
45855247,00000101,false,Rx,0,8,00,FF,FE,00,00,00,00,00,
45855501,00000102,false,Rx,0,8,01,90,01,00,00,01,00,00,
45921637,00000108,false,Rx,0,8,01,F4,01,7D,9A,01,00,00,
45922166,00000109,false,Rx,0,8,02,00,00,00,00,30,00,00,
45954994,00000100,false,Rx,0,8,00,00,00,00,9A,01,C8,00,
45955246,00000101,false,Rx,0,8,00,FF,FE,00,00,00,00,00,
45955493,00000102,false,Rx,0,8,01,90,01,00,00,01,00,00,
46012171,00000521,false,Rx,0,6,00,0C,F6,FF,FF,FF,00,00,
46021637,00000108,false,Rx,0,8,01,F4,01,7D,9A,01,00,00,
46022148,00000109,false,Rx,0,8,02,00,00,00,00,30,00,00,
46047513,00000523,false,Rx,0,6,02,0F,F4,FF,FF,FF,00,00,
46054994,00000100,false,Rx,0,8,00,00,00,00,9A,01,C8,00,
46055245,00000101,false,Rx,0,8,00,FF,FE,00,00,00,00,00,
46055494,00000102,false,Rx,0,8,01,90,01,00,00,01,00,00,
46057593,00000522,false,Rx,0,6,01,0B,6A,B6,05,00,00,00,
46121635,00000108,false,Rx,0,8,01,F4,01,7D,9A,01,00,00,
46122164,00000109,false,Rx,0,8,02,00,00,00,00,30,00,00,
46154994,00000100,false,Rx,0,8,00,00,00,00,9A,01,C8,00,
46155239,00000101,false,Rx,0,8,00,FF,FE,00,00,00,00,00,
46155493,00000102,false,Rx,0,8,01,90,01,00,00,01,00,00,
46221637,00000108,false,Rx,0,8,01,F4,01,7D,9A,01,00,00,
46222148,00000109,false,Rx,0,8,02,00,00,00,00,30,00,00,
46231263,00000528,false,Rx,0,6,07,07,A6,1E,00,00,00,00,
46254987,00000100,false,Rx,0,8,00,00,00,00,9A,01,C8,00,
46255239,00000101,false,Rx,0,8,00,FF,FE,00,00,00,00,00,
46255493,00000102,false,Rx,0,8,01,90,01,00,00,01,00,00,
46293776,00000525,false,Rx,0,6,04,06,5E,00,00,00,00,00,
46321638,00000108,false,Rx,0,8,01,F4,01,7D,9A,01,00,00,
46322167,00000109,false,Rx,0,8,02,00,00,00,00,30,00,00,
46354984,00000100,false,Rx,0,8,00,00,00,00,9A,01,C8,00,
46355236,00000101,false,Rx,0,8,00,FF,FE,00,00,00,00,00,
46355490,00000102,false,Rx,0,8,01,90,01,00,00,01,00,00,
46390975,00000526,false,Rx,0,6,05,08,09,00,00,00,00,00,
46421637,00000108,false,Rx,0,8,01,F4,01,7D,9A,01,00,00,
46422159,00000109,false,Rx,0,8,02,00,00,00,00,30,00,00,
46454984,00000100,false,Rx,0,8,00,00,00,00,9A,01,C8,00,
46455236,00000101,false,Rx,0,8,00,FF,FE,00,00,00,00,00,
46455491,00000102,false,Rx,0,8,01,90,01,00,00,01,00,00,
46497633,00000524,false,Rx,0,6,03,08,F1,FF,FF,FF,00,00,
46521637,00000108,false,Rx,0,8,01,F4,01,7D,9A,01,00,00,
46522147,00000109,false,Rx,0,8,02,00,00,00,00,30,00,00,
46544394,00000527,false,Rx,0,6,06,0E,B8,2A,01,00,00,00,
46554983,00000100,false,Rx,0,8,00,00,00,00,9A,01,C8,00,
46555235,00000101,false,Rx,0,8,00,FF,FE,00,00,00,00,00,
46555489,00000102,false,Rx,0,8,01,90,01,00,00,01,00,00,
46621638,00000108,false,Rx,0,8,01,F4,01,7D,9A,01,00,00,
46622168,00000109,false,Rx,0,8,02,00,00,00,00,30,00,00,
46625775,00000521,false,Rx,0,6,00,0D,F6,FF,FF,FF,00,00,
46654982,00000100,false,Rx,0,8,00,00,00,00,9A,01,C8,00,
46655234,00000101,false,Rx,0,8,00,FF,FE,00,00,00,00,00,
46655489,00000102,false,Rx,0,8,01,90,01,00,00,01,00,00,
46689358,00000522,false,Rx,0,6,01,0C,6C,B6,05,00,00,00,
46697443,00000523,false,Rx,0,6,02,00,EA,FF,FF,FF,00,00,
46721636,00000108,false,Rx,0,8,01,F4,01,7D,9A,01,00,00,
46722166,00000109,false,Rx,0,8,02,00,00,00,00,30,00,00,
