Time Stamp,ID,Extended,Dir,Bus,LEN,D1,D2,D3,D4,D5,D6,D7,D8
4050352,00000523,false,Rx,0,6,02,0B,ED,FF,FF,FF,00,00,
4152748,00000522,false,Rx,0,6,01,01,CB,C1,05,00,00,00,
4348080,00000527,false,Rx,0,6,06,07,12,00,00,00,00,00,
4396315,00000524,false,Rx,0,6,03,06,E4,FF,FF,FF,00,00,
4545583,00000526,false,Rx,0,6,05,0C,09,00,00,00,00,00,
4561398,00000525,false,Rx,0,6,04,01,C3,00,00,00,00,00,
4662017,00000521,false,Rx,0,6,00,08,12,00,00,00,00,00,
4698258,00000523,false,Rx,0,6,02,0C,ED,FF,FF,FF,00,00,
4708390,00000528,false,Rx,0,6,07,03,01,00,00,00,00,00,
4782789,00000522,false,Rx,0,6,01,02,D0,C1,05,00,00,00,
5062598,00000524,false,Rx,0,6,03,07,FE,FF,FF,FF,00,00,
5068682,00000527,false,Rx,0,6,06,08,12,00,00,00,00,00,
5245769,00000525,false,Rx,0,6,04,02,C2,00,00,00,00,00,
5247914,00000526,false,Rx,0,6,05,0D,01,00,00,00,00,00,
5274934,00000521,false,Rx,0,6,00,09,00,00,00,00,00,00,
5346402,00000523,false,Rx,0,6,02,0D,ED,FF,FF,FF,00,00,
5413401,00000522,false,Rx,0,6,01,03,D7,C1,05,00,00,00,
5447116,00000528,false,Rx,0,6,07,04,01,00,00,00,00,00,
5728860,00000524,false,Rx,0,6,03,08,E9,FF,FF,FF,00,00,
5789298,00000527,false,Rx,0,6,06,09,12,00,00,00,00,00,
5887850,00000521,false,Rx,0,6,00,0A,0E,00,00,00,00,00,
5930159,00000525,false,Rx,0,6,04,03,C2,00,00,00,00,00,
5950596,00000526,false,Rx,0,6,05,0E,FF,FF,FF,FF,00,00,
5994547,00000523,false,Rx,0,6,02,0E,E8,FF,FF,FF,00,00,
6042834,00000522,false,Rx,0,6,01,04,D5,C1,05,00,00,00,
6185838,00000528,false,Rx,0,6,07,05,01,00,00,00,00,00,
6395115,00000524,false,Rx,0,6,03,09,EC,FF,FF,FF,00,00,
6500341,00000521,false,Rx,0,6,00,0B,10,00,00,00,00,00,
6509907,00000527,false,Rx,0,6,06,0A,12,00,00,00,00,00,
6614538,00000525,false,Rx,0,6,04,04,C2,00,00,00,00,00,
6642699,00000523,false,Rx,0,6,02,0F,F4,FF,FF,FF,00,00,
6653086,00000526,false,Rx,0,6,05,0F,08,00,00,00,00,00,
6672884,00000522,false,Rx,0,6,01,05,DB,C1,05,00,00,00,
6924588,00000528,false,Rx,0,6,07,06,01,00,00,00,00,00,
7061390,00000524,false,Rx,0,6,03,0A,F4,FF,FF,FF,00,00,
7112704,00000521,false,Rx,0,6,00,0C,03,00,00,00,00,00,
7230532,00000527,false,Rx,0,6,06,0B,12,00,00,00,00,00,
7290850,00000523,false,Rx,0,6,02,00,F4,FF,FF,FF,00,00,
7298917,00000525,false,Rx,0,6,04,05,C3,00,00,00,00,00,
7302926,00000522,false,Rx,0,6,01,06,D9,C1,05,00,00,00,
7355301,00000526,false,Rx,0,6,05,00,00,00,00,00,00,00,
7663314,00000528,false,Rx,0,6,07,07,01,00,00,00,00,00,
7724618,00000521,false,Rx,0,6,00,0D,05,00,00,00,00,00,
7727656,00000524,false,Rx,0,6,03,0B,EF,FF,FF,FF,00,00,
7932953,00000522,false,Rx,0,6,01,07,CD,C1,05,00,00,00,
7939014,00000523,false,Rx,0,6,02,01,F7,FF,FF,FF,00,00,
7951146,00000527,false,Rx,0,6,06,0C,12,00,00,00,00,00,
7983298,00000525,false,Rx,0,6,04,06,C3,00,00,00,00,00,
8058050,00000526,false,Rx,0,6,05,01,11,00,00,00,00,00,
8336526,00000521,false,Rx,0,6,00,0E,03,00,00,00,00,00,
8393906,00000524,false,Rx,0,6,03,0C,F0,FF,FF,FF,00,00,
8402024,00000528,false,Rx,0,6,07,08,01,00,00,00,00,00,
8562975,00000522,false,Rx,0,6,01,08,D5,C1,05,00,00,00,
8587144,00000523,false,Rx,0,6,02,02,F8,FF,FF,FF,00,00,
8667681,00000525,false,Rx,0,6,04,07,C2,00,00,00,00,00,
8671745,00000527,false,Rx,0,6,06,0D,12,00,00,00,00,00,
8760563,00000526,false,Rx,0,6,05,02,01,00,00,00,00,00,
8948431,00000521,false,Rx,0,6,00,0F,06,00,00,00,00,00,
9060159,00000524,false,Rx,0,6,03,0D,ED,FF,FF,FF,00,00,
9140733,00000528,false,Rx,0,6,07,09,01,00,00,00,00,00,
9192996,00000522,false,Rx,0,6,01,09,D8,C1,05,00,00,00,
9235278,00000523,false,Rx,0,6,02,03,F8,FF,FF,FF,00,00,
9352036,00000525,false,Rx,0,6,04,08,C2,00,00,00,00,00,
9392341,00000527,false,Rx,0,6,06,0E,12,00,00,00,00,00,
9462868,00000526,false,Rx,0,6,05,03,0E,00,00,00,00,00,
9560345,00000521,false,Rx,0,6,00,00,07,00,00,00,00,00,
9726421,00000524,false,Rx,0,6,03,0E,F8,FF,FF,FF,00,00,
9823018,00000522,false,Rx,0,6,01,0A,DF,C1,05,00,00,00,
9879463,00000528,false,Rx,0,6,07,0A,01,00,00,00,00,00,
9883415,00000523,false,Rx,0,6,02,04,FF,FF,FF,FF,00,00,
10036411,00000525,false,Rx,0,6,04,09,C2,00,00,00,00,00,
10113190,00000527,false,Rx,0,6,06,0F,12,00,00,00,00,00,
10165561,00000526,false,Rx,0,6,05,04,04,00,00,00,00,00,
10172258,00000521,false,Rx,0,6,00,01,0F,00,00,00,00,00,
10392683,00000524,false,Rx,0,6,03,0F,F9,FF,FF,FF,00,00,
10453058,00000522,false,Rx,0,6,01,0B,DC,C1,05,00,00,00,
10531557,00000523,false,Rx,0,6,02,05,EC,FF,FF,FF,00,00,
10618178,00000528,false,Rx,0,6,07,0B,01,00,00,00,00,00,
10720777,00000525,false,Rx,0,6,04,0A,C2,00,00,00,00,00,
10784148,00000521,false,Rx,0,6,00,02,0C,00,00,00,00,00,
10833548,00000527,false,Rx,0,6,06,00,12,00,00,00,00,00,
10868028,00000526,false,Rx,0,6,05,05,03,00,00,00,00,00,
11059517,00000524,false,Rx,0,6,03,00,FB,FF,FF,FF,00,00,
11083064,00000522,false,Rx,0,6,01,0C,ED,C1,05,00,00,00,
11179691,00000523,false,Rx,0,6,02,06,EC,FF,FF,FF,00,00,
11356903,00000528,false,Rx,0,6,07,0C,01,00,00,00,00,00,
11396060,00000521,false,Rx,0,6,00,03,03,00,00,00,00,00,
11405162,00000525,false,Rx,0,6,04,0B,C3,00,00,00,00,00,
11554142,00000527,false,Rx,0,6,06,01,12,00,00,00,00,00,
11570519,00000526,false,Rx,0,6,05,06,04,00,00,00,00,00,
11713086,00000522,false,Rx,0,6,01,0D,E5,C1,05,00,00,00,
11725180,00000524,false,Rx,0,6,03,01,EB,FF,FF,FF,00,00,
11827832,00000523,false,Rx,0,6,02,07,E5,FF,FF,FF,00,00,
12007968,00000521,false,Rx,0,6,00,04,08,00,00,00,00,00,
12089507,00000525,false,Rx,0,6,04,0C,C2,00,00,00,00,00,
12095599,00000528,false,Rx,0,6,07,0D,01,00,00,00,00,00,
12272954,00000526,false,Rx,0,6,05,07,F8,FF,FF,FF,00,00,
12274737,00000527,false,Rx,0,6,06,02,12,00,00,00,00,00,
12343099,00000522,false,Rx,0,6,01,0E,DE,C1,05,00,00,00,
12391437,00000524,false,Rx,0,6,03,02,F0,FF,FF,FF,00,00,
12475962,00000523,false,Rx,0,6,02,08,ED,FF,FF,FF,00,00,
12619919,00000521,false,Rx,0,6,00,05,06,00,00,00,00,00,
12773880,00000525,false,Rx,0,6,04,0D,C2,00,00,00,00,00,
12834320,00000528,false,Rx,0,6,07,0E,01,00,00,00,00,00,
12973124,00000522,false,Rx,0,6,01,0F,D9,C1,05,00,00,00,
12975215,00000526,false,Rx,0,6,05,08,05,00,00,00,00,00,
12995342,00000527,false,Rx,0,6,06,03,12,00,00,00,00,00,
13057694,00000524,false,Rx,0,6,03,03,F8,FF,FF,FF,00,00,
13124106,00000523,false,Rx,0,6,02,09,ED,FF,FF,FF,00,00,
13231776,00000521,false,Rx,0,6,00,06,09,00,00,00,00,00,
13458258,00000525,false,Rx,0,6,04,0E,C2,00,00,00,00,00,
13573044,00000528,false,Rx,0,6,07,0F,01,00,00,00,00,00,
13603156,00000522,false,Rx,0,6,01,00,DD,C1,05,00,00,00,
13677783,00000526,false,Rx,0,6,05,09,08,00,00,00,00,00,
13715945,00000527,false,Rx,0,6,06,04,12,00,00,00,00,00,
13723935,00000524,false,Rx,0,6,03,04,F4,FF,FF,FF,00,00,
13772238,00000523,false,Rx,0,6,02,0A,F2,FF,FF,FF,00,00,
13844686,00000521,false,Rx,0,6,00,07,07,00,00,00,00,00,
14142625,00000525,false,Rx,0,6,04,0F,C2,00,00,00,00,00,
14233176,00000522,false,Rx,0,6,01,01,ED,C1,05,00,00,00,
14311763,00000528,false,Rx,0,6,07,00,01,00,00,00,00,00,
14380707,00000526,false,Rx,0,6,05,0A,06,00,00,00,00,00,
14390203,00000524,false,Rx,0,6,03,05,E9,FF,FF,FF,00,00,
14420398,00000523,false,Rx,0,6,02,0B,F1,FF,FF,FF,00,00,
14436554,00000527,false,Rx,0,6,06,05,12,00,00,00,00,00,
14456599,00000521,false,Rx,0,6,00,08,0C,00,00,00,00,00,
14827012,00000525,false,Rx,0,6,04,00,C2,00,00,00,00,00,
14863232,00000522,false,Rx,0,6,01,02,F2,C1,05,00,00,00,
15050479,00000528,false,Rx,0,6,07,01,01,00,00,00,00,00,
15056459,00000524,false,Rx,0,6,03,06,EB,FF,FF,FF,00,00,
15068554,00000521,false,Rx,0,6,00,09,08,00,00,00,00,00,
15068774,00000523,false,Rx,0,6,02,0C,F1,FF,FF,FF,00,00,
15082947,00000526,false,Rx,0,6,05,0B,01,00,00,00,00,00,
15157157,00000527,false,Rx,0,6,06,06,12,00,00,00,00,00,
15493232,00000522,false,Rx,0,6,01,03,F4,C1,05,00,00,00,
15511375,00000525,false,Rx,0,6,04,01,C2,00,00,00,00,00,
15680416,00000521,false,Rx,0,6,00,0A,08,00,00,00,00,00,
15716662,00000523,false,Rx,0,6,02,0D,EF,FF,FF,FF,00,00,
15722703,00000524,false,Rx,0,6,03,07,0A,00,00,00,00,00,
15785440,00000526,false,Rx,0,6,05,0C,0E,00,00,00,00,00,
15789196,00000528,false,Rx,0,6,07,02,01,00,00,00,00,00,
15877768,00000527,false,Rx,0,6,06,07,12,00,00,00,00,00,
16123259,00000522,false,Rx,0,6,01,04,E4,C1,05,00,00,00,
16195743,00000525,false,Rx,0,6,04,02,C2,00,00,00,00,00,
16292669,00000521,false,Rx,0,6,00,0B,06,00,00,00,00,00,
16364804,00000523,false,Rx,0,6,02,0E,E8,FF,FF,FF,00,00,
16388976,00000524,false,Rx,0,6,03,08,F7,FF,FF,FF,00,00,
16487880,00000526,false,Rx,0,6,05,0D,08,00,00,00,00,00,
16527920,00000528,false,Rx,0,6,07,03,01,00,00,00,00,00,
16598373,00000527,false,Rx,0,6,06,08,12,00,00,00,00,00,
16753278,00000522,false,Rx,0,6,01,05,E2,C1,05,00,00,00,
16880125,00000525,false,Rx,0,6,04,03,C2,00,00,00,00,00,
16904261,00000521,false,Rx,0,6,00,0C,05,00,00,00,00,00,
17012969,00000523,false,Rx,0,6,02,0F,E8,FF,FF,FF,00,00,
17055243,00000524,false,Rx,0,6,03,09,EC,FF,FF,FF,00,00,
17190415,00000526,false,Rx,0,6,05,0E,11,00,00,00,00,00,
17266679,00000528,false,Rx,0,6,07,04,01,00,00,00,00,00,
17319260,00000527,false,Rx,0,6,06,09,12,00,00,00,00,00,
17383330,00000522,false,Rx,0,6,01,06,E5,C1,05,00,00,00,
17395561,00000100,false,Rx,0,8,00,00,00,00,8E,01,C8,00,
17395812,00000101,false,Rx,0,8,00,FF,FE,00,00,00,00,00,
17396053,00000102,false,Rx,0,8,01,84,01,00,00,00,00,00,
17495557,00000100,false,Rx,0,8,00,00,00,00,8E,01,C8,00,
17495804,00000101,false,Rx,0,8,00,FF,FE,00,00,00,00,00,
17496052,00000102,false,Rx,0,8,01,84,01,00,00,00,00,00,
17516175,00000521,false,Rx,0,6,00,0D,0D,00,00,00,00,00,
17564528,00000525,false,Rx,0,6,04,04,C3,00,00,00,00,00,
17595555,00000100,false,Rx,0,8,00,00,00,00,8E,01,C8,00,
17595809,00000101,false,Rx,0,8,00,FF,FE,00,00,00,00,00,
17596050,00000102,false,Rx,0,8,01,84,01,00,00,00,00,00,
17661122,00000523,false,Rx,0,6,02,00,F9,FF,FF,FF,00,00,
17695554,00000100,false,Rx,0,8,00,00,00,00,8E,01,C8,00,
17695808,00000101,false,Rx,0,8,00,FF,FE,00,00,00,00,00,
17696050,00000102,false,Rx,0,8,01,84,01,00,00,00,00,00,
17721517,00000524,false,Rx,0,6,03,0A,F5,FF,FF,FF,00,00,
17795548,00000100,false,Rx,0,8,00,00,00,00,8E,01,C8,00,
17795808,00000101,false,Rx,0,8,00,FF,FE,00,00,00,00,00,
17796042,00000102,false,Rx,0,8,01,84,01,00,00,00,00,00,
17892675,00000526,false,Rx,0,6,05,0F,08,00,00,00,00,00,
17895547,00000100,false,Rx,0,8,00,00,00,00,8E,01,C8,00,
17895794,00000101,false,Rx,0,8,00,FF,FE,00,00,00,00,00,
17896040,00000102,false,Rx,0,8,01,84,01,00,00,00,00,00,
17995542,00000100,false,Rx,0,8,00,00,00,00,8E,01,C8,00,
17995794,00000101,false,Rx,0,8,00,FF,FE,00,00,00,00,00,
17996041,00000102,false,Rx,0,8,01,84,01,00,00,00,00,00,
18005399,00000528,false,Rx,0,6,07,05,01,00,00,00,00,00,
18013379,00000522,false,Rx,0,6,01,07,03,C2,05,00,00,00,
18039623,00000527,false,Rx,0,6,06,0A,12,00,00,00,00,00,
18095544,00000100,false,Rx,0,8,00,00,00,00,8E,01,C8,00,
18095792,00000101,false,Rx,0,8,00,FF,FE,00,00,00,00,00,
18096036,00000102,false,Rx,0,8,01,84,01,00,00,00,00,00,
18128119,00000521,false,Rx,0,6,00,0E,0F,00,00,00,00,00,
18195538,00000100,false,Rx,0,8,00,00,00,00,8E,01,C8,00,
18195793,00000101,false,Rx,0,8,00,FF,FE,00,00,00,00,00,
18196038,00000102,false,Rx,0,8,01,84,01,00,00,00,00,00,
18248920,00000525,false,Rx,0,6,04,05,C2,00,00,00,00,00,
18295539,00000100,false,Rx,0,8,00,00,00,00,8E,01,C8,00,
18295792,00000101,false,Rx,0,8,00,FF,FE,00,00,00,00,00,
18296032,00000102,false,Rx,0,8,01,84,01,00,00,00,00,00,
18309298,00000523,false,Rx,0,6,02,01,F2,FF,FF,FF,00,00,
18387817,00000524,false,Rx,0,6,03,0B,F1,FF,FF,FF,00,00,
18395535,00000100,false,Rx,0,8,00,00,00,00,8E,01,C8,00,
18395789,00000101,false,Rx,0,8,00,FF,FE,00,00,00,00,00,
18396035,00000102,false,Rx,0,8,01,84,01,00,00,01,00,00,
18495532,00000100,false,Rx,0,8,00,00,00,00,8E,01,C8,00,
18495787,00000101,false,Rx,0,8,00,FF,FE,00,00,00,00,00,
18496032,00000102,false,Rx,0,8,01,84,01,00,00,01,00,00,
18595475,00000526,false,Rx,0,6,05,00,01,00,00,00,00,00,
18595728,00000100,false,Rx,0,8,00,00,00,00,8E,01,C8,00,
18595975,00000101,false,Rx,0,8,00,FF,FE,00,00,00,00,00,
18596221,00000102,false,Rx,0,8,01,84,01,00,00,01,00,00,
18643440,00000522,false,Rx,0,6,01,08,F2,C1,05,00,00,00,
18695528,00000100,false,Rx,0,8,00,00,00,00,8E,01,C8,00,
18695780,00000101,false,Rx,0,8,00,FF,FE,00,00,00,00,00,
18696028,00000102,false,Rx,0,8,01,84,01,00,00,01,00,00,
18740052,00000521,false,Rx,0,6,00,0F,09,00,00,00,00,00,
18744169,00000528,false,Rx,0,6,07,06,01,00,00,00,00,00,
18760271,00000527,false,Rx,0,6,06,0B,12,00,00,00,00,00,
18795526,00000100,false,Rx,0,8,00,00,00,00,8E,01,C8,00,
18795779,00000101,false,Rx,0,8,00,FF,FE,00,00,00,00,00,
18796026,00000102,false,Rx,0,8,01,84,01,00,00,01,00,00,
18895527,00000100,false,Rx,0,8,00,00,00,00,8E,01,C8,00,
18895780,00000101,false,Rx,0,8,00,FF,FE,00,00,00,00,00,
18896020,00000102,false,Rx,0,8,01,84,01,00,00,01,00,00,
18933335,00000525,false,Rx,0,6,04,06,C2,00,00,00,00,00,
18957468,00000523,false,Rx,0,6,02,02,F2,FF,FF,FF,00,00,
18995520,00000100,false,Rx,0,8,00,00,00,00,8E,01,C8,00,
18995774,00000101,false,Rx,0,8,00,FF,FE,00,00,00,00,00,
18996021,00000102,false,Rx,0,8,01,84,01,00,00,01,00,00,
19054093,00000524,false,Rx,0,6,03,0C,F6,FF,FF,FF,00,00,
19095522,00000100,false,Rx,0,8,00,00,00,00,8E,01,C8,00,
19095771,00000101,false,Rx,0,8,00,FF,FE,00,00,00,00,00,
19096019,00000102,false,Rx,0,8,01,84,01,00,00,01,00,00,
19195518,00000100,false,Rx,0,8,00,00,00,00,8E,01,C8,00,
19195770,00000101,false,Rx,0,8,00,FF,FE,00,00,00,00,00,
19196018,00000102,false,Rx,0,8,01,84,01,00,00,01,00,00,
19273498,00000522,false,Rx,0,6,01,09,EE,C1,05,00,00,00,
19295520,00000100,false,Rx,0,8,00,00,00,00,8E,01,C8,00,
19295769,00000101,false,Rx,0,8,00,FF,FE,00,00,00,00,00,
19296017,00000102,false,Rx,0,8,01,84,01,00,00,01,00,00,
19298012,00000526,false,Rx,0,6,05,01,03,00,00,00,00,00,
19352011,00000521,false,Rx,0,6,00,00,07,00,00,00,00,00,
19395517,00000100,false,Rx,0,8,00,00,00,00,8E,01,C8,00,
19395766,00000101,false,Rx,0,8,00,FF,FE,00,00,00,00,00,
19396014,00000102,false,Rx,0,8,01,84,01,00,00,01,00,00,
19480910,00000527,false,Rx,0,6,06,0C,12,00,00,00,00,00,
19483424,00000528,false,Rx,0,6,07,07,01,00,00,00,00,00,
19495514,00000100,false,Rx,0,8,00,00,00,00,8E,01,C8,00,
19495784,00000101,false,Rx,0,8,00,FF,FE,00,00,00,00,00,
19496019,00000102,false,Rx,0,8,01,84,01,00,00,01,00,00,
19595509,00000100,false,Rx,0,8,00,00,00,00,8E,01,C8,00,
19595761,00000101,false,Rx,0,8,00,FF,FE,00,00,00,00,00,
19596018,00000102,false,Rx,0,8,01,84,01,00,00,01,00,00,
19605653,00000523,false,Rx,0,6,02,03,F1,FF,FF,FF,00,00,
19617749,00000525,false,Rx,0,6,04,07,C3,00,00,00,00,00,
19695509,00000100,false,Rx,0,8,00,00,00,00,8E,01,C8,00,
19695762,00000101,false,Rx,0,8,00,FF,FE,00,00,00,00,00,
19696013,00000102,false,Rx,0,8,01,84,01,00,00,01,00,00,
19720398,00000524,false,Rx,0,6,03,0D,F9,FF,FF,FF,00,00,
19795505,00000100,false,Rx,0,8,00,00,00,00,8E,01,C8,00,
19795756,00000101,false,Rx,0,8,00,FF,FE,00,00,00,00,00,
19796008,00000102,false,Rx,0,8,01,84,01,00,00,01,00,00,
19895503,00000100,false,Rx,0,8,00,00,00,00,8E,01,C8,00,
19895755,00000101,false,Rx,0,8,00,FF,FE,00,00,00,00,00,
19896004,00000102,false,Rx,0,8,01,84,01,00,00,01,00,00,
19903565,00000522,false,Rx,0,6,01,0A,F8,C1,05,00,00,00,
19963945,00000521,false,Rx,0,6,00,01,07,00,00,00,00,00,
19995502,00000100,false,Rx,0,8,00,00,00,00,8E,01,C8,00,
19995754,00000101,false,Rx,0,8,00,FF,FE,00,00,00,00,00,
19996007,00000102,false,Rx,0,8,01,84,01,00,00,01,00,00,
20000528,00000526,false,Rx,0,6,05,02,01,00,00,00,00,00,
20095498,00000100,false,Rx,0,8,00,00,00,00,8E,01,C8,00,
20095750,00000101,false,Rx,0,8,00,FF,FE,00,00,00,00,00,
20096009,00000102,false,Rx,0,8,01,84,01,00,00,01,00,00,
20195506,00000100,false,Rx,0,8,00,00,00,00,8E,01,C8,00,
20195745,00000101,false,Rx,0,8,00,FF,FE,00,00,00,00,00,
20195993,00000102,false,Rx,0,8,01,84,01,00,00,01,00,00,
20201533,00000527,false,Rx,0,6,06,0D,12,00,00,00,00,00,
20221680,00000528,false,Rx,0,6,07,08,01,00,00,00,00,00,
20253805,00000523,false,Rx,0,6,02,04,EE,FF,FF,FF,00,00,
20295495,00000100,false,Rx,0,8,00,00,00,00,8E,01,C8,00,
20295747,00000101,false,Rx,0,8,00,FF,FE,00,00,00,00,00,
20295995,00000102,false,Rx,0,8,01,84,01,00,00,01,00,00,
20302131,00000525,false,Rx,0,6,04,08,C2,00,00,00,00,00,
20386667,00000524,false,Rx,0,6,03,0E,EC,FF,FF,FF,00,00,
20395495,00000100,false,Rx,0,8,00,00,00,00,8E,01,C8,00,
20395748,00000101,false,Rx,0,8,00,FF,FE,00,00,00,00,00,
20395995,00000102,false,Rx,0,8,01,84,01,00,00,01,00,00,
20495495,00000100,false,Rx,0,8,00,00,00,00,8E,01,C8,00,
20495741,00000101,false,Rx,0,8,00,FF,FE,00,00,00,00,00,
20495994,00000102,false,Rx,0,8,01,84,01,00,00,01,00,00,
20533596,00000522,false,Rx,0,6,01,0B,F3,C1,05,00,00,00,
20575865,00000521,false,Rx,0,6,00,02,09,00,00,00,00,00,
20595493,00000100,false,Rx,0,8,00,00,00,00,8E,01,C8,00,
20595739,00000101,false,Rx,0,8,00,FF,FE,00,00,00,00,00,
20595992,00000102,false,Rx,0,8,01,84,01,00,00,01,00,00,
20695490,00000100,false,Rx,0,8,00,00,00,00,8E,01,C8,00,
20695742,00000101,false,Rx,0,8,00,FF,FE,00,00,00,00,00,
20695989,00000102,false,Rx,0,8,01,84,01,00,00,01,00,00,
20702974,00000526,false,Rx,0,6,05,03,FD,FF,FF,FF,00,00,
20795487,00000100,false,Rx,0,8,00,00,00,00,8E,01,C8,00,
20795739,00000101,false,Rx,0,8,00,FF,FE,00,00,00,00,00,
20795994,00000102,false,Rx,0,8,01,84,01,00,00,01,00,00,
20895483,00000100,false,Rx,0,8,00,00,00,00,8E,01,C8,00,
20895735,00000101,false,Rx,0,8,00,FF,FE,00,00,00,00,00,
20895989,00000102,false,Rx,0,8,01,84,01,00,00,01,00,00,
20901958,00000523,false,Rx,0,6,02,05,EE,FF,FF,FF,00,00,
20922159,00000527,false,Rx,0,6,06,0E,12,00,00,00,00,00,
20960409,00000528,false,Rx,0,6,07,09,01,00,00,00,00,00,
20986518,00000525,false,Rx,0,6,04,09,C2,00,00,00,00,00,
20995481,00000100,false,Rx,0,8,00,00,00,00,8E,01,C8,00,
20995732,00000101,false,Rx,0,8,00,FF,FE,00,00,00,00,00,
20995987,00000102,false,Rx,0,8,01,84,01,00,00,01,00,00,
21052957,00000524,false,Rx,0,6,03,0F,EB,FF,FF,FF,00,00,
21095483,00000100,false,Rx,0,8,00,00,00,00,8E,01,C8,00,
21095732,00000101,false,Rx,0,8,00,FF,FE,00,00,00,00,00,
21095987,00000102,false,Rx,0,8,01,84,01,00,00,01,00,00,
21163626,00000522,false,Rx,0,6,01,0C,F7,C1,05,00,00,00,
21187781,00000521,false,Rx,0,6,00,03,0F,00,00,00,00,00,
21195476,00000100,false,Rx,0,8,00,00,00,00,8E,01,C8,00,
21195728,00000101,false,Rx,0,8,00,FF,FE,00,00,00,00,00,
21195975,00000102,false,Rx,0,8,01,84,01,00,00,01,00,00,
21295474,00000100,false,Rx,0,8,00,00,00,00,8E,01,C8,00,
21295727,00000101,false,Rx,0,8,00,FF,FE,00,00,00,00,00,
21295974,00000102,false,Rx,0,8,01,84,01,00,00,01,00,00,
21395477,00000100,false,Rx,0,8,00,00,00,00,8E,01,C8,00,
21395733,00000101,false,Rx,0,8,00,FF,FE,00,00,00,00,00,
21395969,00000102,false,Rx,0,8,01,84,01,00,00,01,00,00,
21405501,00000526,false,Rx,0,6,05,04,02,00,00,00,00,00,
21495471,00000100,false,Rx,0,8,00,00,00,00,8E,01,C8,00,
21495724,00000101,false,Rx,0,8,00,FF,FE,00,00,00,00,00,
21495967,00000102,false,Rx,0,8,01,84,01,00,00,01,00,00,
21550110,00000523,false,Rx,0,6,02,06,EE,FF,FF,FF,00,00,
21595471,00000100,false,Rx,0,8,00,00,00,00,8E,01,C8,00,
21595723,00000101,false,Rx,0,8,00,FF,FE,00,00,00,00,00,
21595969,00000102,false,Rx,0,8,01,84,01,00,00,01,00,00,
21642773,00000527,false,Rx,0,6,06,0F,12,00,00,00,00,00,
21670899,00000525,false,Rx,0,6,04,0A,C3,00,00,00,00,00,
21695465,00000100,false,Rx,0,8,00,00,00,00,8E,01,C8,00,
21695717,00000101,false,Rx,0,8,00,FF,FE,00,00,00,00,00,
21695964,00000102,false,Rx,0,8,01,84,01,00,00,01,00,00,
21699144,00000528,false,Rx,0,6,07,0A,01,00,00,00,00,00,
21719203,00000524,false,Rx,0,6,03,00,EF,FF,FF,FF,00,00,
21793656,00000522,false,Rx,0,6,01,0D,01,C2,05,00,00,00,
21795466,00000100,false,Rx,0,8,00,00,00,00,8E,01,C8,00,
21795718,00000101,false,Rx,0,8,00,FF,FE,00,00,00,00,00,
21795964,00000102,false,Rx,0,8,01,84,01,00,00,01,00,00,
21799688,00000521,false,Rx,0,6,00,04,05,00,00,00,00,00,
21895462,00000100,false,Rx,0,8,00,00,00,00,8E,01,C8,00,
21895715,00000101,false,Rx,0,8,00,FF,FE,00,00,00,00,00,
21895958,00000102,false,Rx,0,8,01,84,01,00,00,01,00,00,
21995462,00000100,false,Rx,0,8,00,00,00,00,8E,01,C8,00,
21995715,00000101,false,Rx,0,8,00,FF,FE,00,00,00,00,00,
21995975,00000102,false,Rx,0,8,01,84,01,00,00,01,00,00,
22095456,00000100,false,Rx,0,8,00,00,00,00,8E,01,C8,00,
22095708,00000101,false,Rx,0,8,00,FF,FE,00,00,00,00,00,
22095955,00000102,false,Rx,0,8,01,84,01,00,00,01,00,00,
22107815,00000526,false,Rx,0,6,05,05,03,00,00,00,00,00,
22195455,00000100,false,Rx,0,8,00,00,00,00,8E,01,C8,00,
22195707,00000101,false,Rx,0,8,00,FF,FE,00,00,00,00,00,
22195953,00000102,false,Rx,0,8,01,84,01,00,00,01,00,00,
22198252,00000523,false,Rx,0,6,02,07,E7,FF,FF,FF,00,00,
22295452,00000100,false,Rx,0,8,00,00,00,00,8E,01,C8,00,
22295704,00000101,false,Rx,0,8,00,FF,FE,00,00,00,00,00,
22295951,00000102,false,Rx,0,8,01,84,01,00,00,01,00,00,
22355262,00000525,false,Rx,0,6,04,0B,C2,00,00,00,00,00,
22363360,00000527,false,Rx,0,6,06,00,12,00,00,00,00,00,
22385446,00000524,false,Rx,0,6,03,01,F2,FF,FF,FF,00,00,
22395452,00000100,false,Rx,0,8,00,00,00,00,8E,01,C8,00,
22395704,00000101,false,Rx,0,8,00,FF,FE,00,00,00,00,00,
22395951,00000102,false,Rx,0,8,01,84,01,00,00,01,00,00,
22411635,00000521,false,Rx,0,6,00,05,0C,00,00,00,00,00,
22423668,00000522,false,Rx,0,6,01,0E,04,C2,05,00,00,00,
22437838,00000528,false,Rx,0,6,07,0B,01,00,00,00,00,00,
22495452,00000100,false,Rx,0,8,00,00,00,00,8E,01,C8,00,
22495704,00000101,false,Rx,0,8,00,FF,FE,00,00,00,00,00,
22495945,00000102,false,Rx,0,8,01,84,01,00,00,01,00,00,
22595450,00000100,false,Rx,0,8,00,00,00,00,8E,01,C8,00,
22595702,00000101,false,Rx,0,8,00,FF,FE,00,00,00,00,00,
22595942,00000102,false,Rx,0,8,01,84,01,00,00,01,00,00,
22695450,00000100,false,Rx,0,8,00,00,00,00,8E,01,C8,00,
22695697,00000101,false,Rx,0,8,00,FF,FE,00,00,00,00,00,
22695945,00000102,false,Rx,0,8,01,84,01,00,00,01,00,00,
22795444,00000100,false,Rx,0,8,00,00,00,00,8E,01,C8,00,
22795696,00000101,false,Rx,0,8,00,FF,FE,00,00,00,00,00,
22795943,00000102,false,Rx,0,8,01,84,01,00,00,01,00,00,
22810477,00000526,false,Rx,0,6,05,06,01,00,00,00,00,00,
22846378,00000523,false,Rx,0,6,02,08,E7,FF,FF,FF,00,00,
22895440,00000100,false,Rx,0,8,00,00,00,00,8E,01,C8,00,
22895695,00000101,false,Rx,0,8,00,FF,FE,00,00,00,00,00,
22895935,00000102,false,Rx,0,8,01,84,01,00,00,01,00,00,
22995443,00000100,false,Rx,0,8,00,00,00,00,8E,01,C8,00,
22995689,00000101,false,Rx,0,8,00,FF,FE,00,00,00,00,00,
22995935,00000102,false,Rx,0,8,01,84,01,00,00,01,00,00,
23023502,00000521,false,Rx,0,6,00,06,03,00,00,00,00,00,
23039627,00000525,false,Rx,0,6,04,0C,C2,00,00,00,00,00,
23051694,00000524,false,Rx,0,6,03,02,E7,FF,FF,FF,00,00,
23053689,00000522,false,Rx,0,6,01,0F,00,C2,05,00,00,00,
23083955,00000527,false,Rx,0,6,06,01,12,00,00,00,00,00,
23095440,00000100,false,Rx,0,8,00,00,00,00,8E,01,C8,00,
23095687,00000101,false,Rx,0,8,00,FF,FE,00,00,00,00,00,
23095933,00000102,false,Rx,0,8,01,84,01,00,00,01,00,00,
23176557,00000528,false,Rx,0,6,07,0C,01,00,00,00,00,00,
23195437,00000100,false,Rx,0,8,00,00,00,00,8E,01,C8,00,
23195683,00000101,false,Rx,0,8,00,FF,FE,00,00,00,00,00,
23195929,00000102,false,Rx,0,8,01,84,01,00,00,01,00,00,
23295438,00000100,false,Rx,0,8,00,00,00,00,8E,01,C8,00,
23295683,00000101,false,Rx,0,8,00,FF,FE,00,00,00,00,00,
23295932,00000102,false,Rx,0,8,01,84,01,00,00,01,00,00,
23395433,00000100,false,Rx,0,8,00,00,00,00,8E,01,C8,00,
23395685,00000101,false,Rx,0,8,00,FF,FE,00,00,00,00,00,
23395929,00000102,false,Rx,0,8,01,84,01,00,00,01,00,00,
23494521,00000523,false,Rx,0,6,02,09,F3,FF,FF,FF,00,00,
23495434,00000100,false,Rx,0,8,00,00,00,00,8E,01,C8,00,
23495679,00000101,false,Rx,0,8,00,FF,FE,00,00,00,00,00,
23495925,00000102,false,Rx,0,8,01,84,01,00,00,01,00,00,
23512970,00000526,false,Rx,0,6,05,07,06,00,00,00,00,00,
23595429,00000100,false,Rx,0,8,00,00,00,00,8E,01,C8,00,
23595675,00000101,false,Rx,0,8,00,FF,FE,00,00,00,00,00,
23595924,00000102,false,Rx,0,8,01,84,01,00,00,01,00,00,
23635409,00000521,false,Rx,0,6,00,07,09,00,00,00,00,00,
23683720,00000522,false,Rx,0,6,01,00,01,C2,05,00,00,00,
23695428,00000100,false,Rx,0,8,00,00,00,00,8E,01,C8,00,
23695673,00000101,false,Rx,0,8,00,FF,FE,00,00,00,00,00,
23695919,00000102,false,Rx,0,8,01,84,01,00,00,01,00,00,
23717963,00000524,false,Rx,0,6,03,03,F7,FF,FF,FF,00,00,
23724015,00000525,false,Rx,0,6,04,0D,C2,00,00,00,00,00,
23795421,00000100,false,Rx,0,8,00,00,00,00,8E,01,C8,00,
23795674,00000101,false,Rx,0,8,00,FF,FE,00,00,00,00,00,
23795928,00000102,false,Rx,0,8,01,84,01,00,00,01,00,00,
23804563,00000527,false,Rx,0,6,06,02,12,00,00,00,00,00,
23895419,00000100,false,Rx,0,8,00,00,00,00,8E,01,C8,00,
23895671,00000101,false,Rx,0,8,00,FF,FE,00,00,00,00,00,
23895918,00000102,false,Rx,0,8,01,84,01,00,00,01,00,00,
23915273,00000528,false,Rx,0,6,07,0D,01,00,00,00,00,00,
23995422,00000100,false,Rx,0,8,00,00,00,00,8E,01,C8,00,
23995667,00000101,false,Rx,0,8,00,FF,FE,00,00,00,00,00,
23995914,00000102,false,Rx,0,8,01,84,01,00,00,01,00,00,
24095421,00000100,false,Rx,0,8,00,00,00,00,8E,01,C8,00,
24095666,00000101,false,Rx,0,8,00,FF,FE,00,00,00,00,00,
24095914,00000102,false,Rx,0,8,01,84,01,00,00,01,00,00,
24142659,00000523,false,Rx,0,6,02,0A,FB,FF,FF,FF,00,00,
24195417,00000100,false,Rx,0,8,00,00,00,00,8E,01,C8,00,
24195663,00000101,false,Rx,0,8,00,FF,FE,00,00,00,00,00,
24195910,00000102,false,Rx,0,8,01,84,01,00,00,01,00,00,
24215452,00000526,false,Rx,0,6,05,08,09,00,00,00,00,00,
24247316,00000521,false,Rx,0,6,00,08,0F,00,00,00,00,00,
24295411,00000100,false,Rx,0,8,00,00,00,00,8E,01,C8,00,
24295666,00000101,false,Rx,0,8,00,FF,FE,00,00,00,00,00,
24295906,00000102,false,Rx,0,8,01,84,01,00,00,01,00,00,
24314323,00000522,false,Rx,0,6,01,01,07,C2,05,00,00,00,
24384212,00000524,false,Rx,0,6,03,04,F1,FF,FF,FF,00,00,
24395411,00000100,false,Rx,0,8,00,00,00,00,8E,01,C8,00,
24395659,00000101,false,Rx,0,8,00,FF,FE,00,00,00,00,00,
24395905,00000102,false,Rx,0,8,01,84,01,00,00,01,00,00,
24408372,00000525,false,Rx,0,6,04,0E,C3,00,00,00,00,00,
24495410,00000100,false,Rx,0,8,00,00,00,00,8E,01,C8,00,
24495662,00000101,false,Rx,0,8,00,FF,FE,00,00,00,00,00,
24495902,00000102,false,Rx,0,8,01,84,01,00,00,01,00,00,
24525175,00000527,false,Rx,0,6,06,03,12,00,00,00,00,00,
24595406,00000100,false,Rx,0,8,00,00,00,00,8E,01,C8,00,
24595659,00000101,false,Rx,0,8,00,FF,FE,00,00,00,00,00,
24595906,00000102,false,Rx,0,8,01,84,01,00,00,01,00,00,
24654013,00000528,false,Rx,0,6,07,0E,01,00,00,00,00,00,
24695402,00000100,false,Rx,0,8,00,00,00,00,8E,01,C8,00,
24695654,00000101,false,Rx,0,8,00,FF,FE,00,00,00,00,00,
24695899,00000102,false,Rx,0,8,01,84,01,00,00,01,00,00,
24790805,00000523,false,Rx,0,6,02,0B,FB,FF,FF,FF,00,00,
24795401,00000100,false,Rx,0,8,00,00,00,00,8E,01,C8,00,
24795652,00000101,false,Rx,0,8,00,FF,FE,00,00,00,00,00,
24795898,00000102,false,Rx,0,8,01,84,01,00,00,01,00,00,
24860225,00000521,false,Rx,0,6,00,09,10,00,00,00,00,00,
24895403,00000100,false,Rx,0,8,00,00,00,00,8E,01,C8,00,
24895648,00000101,false,Rx,0,8,00,FF,FE,00,00,00,00,00,
24895894,00000102,false,Rx,0,8,01,84,01,00,00,01,00,00,
24918168,00000526,false,Rx,0,6,05,09,14,00,00,00,00,00,
24943766,00000522,false,Rx,0,6,01,02,0C,C2,05,00,00,00,
24995396,00000100,false,Rx,0,8,00,00,00,00,8E,01,C8,00,
24995649,00000101,false,Rx,0,8,00,FF,FE,00,00,00,00,00,
24995892,00000102,false,Rx,0,8,01,84,01,00,00,01,00,00,
25050464,00000524,false,Rx,0,6,03,05,E2,FF,FF,FF,00,00,
25092754,00000525,false,Rx,0,6,04,0F,C2,00,00,00,00,00,
25095399,00000100,false,Rx,0,8,00,00,00,00,8E,01,C8,00,
25095645,00000101,false,Rx,0,8,00,FF,FE,00,00,00,00,00,
25095893,00000102,false,Rx,0,8,01,84,01,00,00,01,00,00,
25195391,00000100,false,Rx,0,8,00,00,00,00,8E,01,C8,00,
25195643,00000101,false,Rx,0,8,00,FF,FE,00,00,00,00,00,
25195893,00000102,false,Rx,0,8,01,84,01,00,00,01,00,00,
25245770,00000527,false,Rx,0,6,06,04,12,00,00,00,00,00,
25295391,00000100,false,Rx,0,8,00,00,00,00,8E,01,C8,00,
25295643,00000101,false,Rx,0,8,00,FF,FE,00,00,00,00,00,
25295890,00000102,false,Rx,0,8,01,84,01,00,00,01,00,00,
25392719,00000528,false,Rx,0,6,07,0F,01,00,00,00,00,00,
25395388,00000100,false,Rx,0,8,00,00,00,00,8E,01,C8,00,
25395639,00000101,false,Rx,0,8,00,FF,FE,00,00,00,00,00,
25395886,00000102,false,Rx,0,8,01,84,01,00,00,01,00,00,
25438946,00000523,false,Rx,0,6,02,0C,F2,FF,FF,FF,00,00,
25472150,00000521,false,Rx,0,6,00,0A,0B,00,00,00,00,00,
25495390,00000100,false,Rx,0,8,00,00,00,00,8E,01,C8,00,
25495642,00000101,false,Rx,0,8,00,FF,FE,00,00,00,00,00,
25495883,00000102,false,Rx,0,8,01,84,01,00,00,01,00,00,
25573803,00000522,false,Rx,0,6,01,03,02,C2,05,00,00,00,
25595384,00000100,false,Rx,0,8,00,00,00,00,8E,01,C8,00,
25595637,00000101,false,Rx,0,8,00,FF,FE,00,00,00,00,00,
25595884,00000102,false,Rx,0,8,01,84,01,00,00,01,00,00,
25620416,00000526,false,Rx,0,6,05,0A,FA,FF,FF,FF,00,00,
25695387,00000100,false,Rx,0,8,00,00,00,00,8E,01,C8,00,
25695632,00000101,false,Rx,0,8,00,FF,FE,00,00,00,00,00,
25695878,00000102,false,Rx,0,8,01,84,01,00,00,01,00,00,
25716721,00000524,false,Rx,0,6,03,06,F3,FF,FF,FF,00,00,
25777122,00000525,false,Rx,0,6,04,00,C2,00,00,00,00,00,
25795380,00000100,false,Rx,0,8,00,00,00,00,8E,01,C8,00,
25795631,00000101,false,Rx,0,8,00,FF,FE,00,00,00,00,00,
25795877,00000102,false,Rx,0,8,01,84,01,00,00,01,00,00,
25895381,00000100,false,Rx,0,8,00,00,00,00,8E,01,C8,00,
25895627,00000101,false,Rx,0,8,00,FF,FE,00,00,00,00,00,
25895873,00000102,false,Rx,0,8,01,84,01,00,00,01,00,00,
25966379,00000527,false,Rx,0,6,06,05,12,00,00,00,00,00,
25995379,00000100,false,Rx,0,8,00,00,00,00,8E,01,C8,00,
25995627,00000101,false,Rx,0,8,00,FF,FE,00,00,00,00,00,
25995873,00000102,false,Rx,0,8,01,84,01,00,00,01,00,00,
26084373,00000521,false,Rx,0,6,00,0B,07,00,00,00,00,00,
26087091,00000523,false,Rx,0,6,02,0D,E7,FF,FF,FF,00,00,
26095372,00000100,false,Rx,0,8,00,00,00,00,8E,01,C8,00,
26095623,00000101,false,Rx,0,8,00,FF,FE,00,00,00,00,00,
26095871,00000102,false,Rx,0,8,01,84,01,00,00,01,00,00,
26131455,00000528,false,Rx,0,6,07,00,01,00,00,00,00,00,
26195371,00000100,false,Rx,0,8,00,00,00,00,8E,01,C8,00,
26195625,00000101,false,Rx,0,8,00,FF,FE,00,00,00,00,00,
26195871,00000102,false,Rx,0,8,01,84,01,00,00,01,00,00,
26203829,00000522,false,Rx,0,6,01,04,01,C2,05,00,00,00,
26295371,00000100,false,Rx,0,8,00,00,00,00,8E,01,C8,00,
26295623,00000101,false,Rx,0,8,00,FF,FE,00,00,00,00,00,
26295870,00000102,false,Rx,0,8,01,84,01,00,00,01,00,00,
26322744,00000526,false,Rx,0,6,05,0B,00,00,00,00,00,00,
26382996,00000524,false,Rx,0,6,03,07,F4,FF,FF,FF,00,00,
26395375,00000100,false,Rx,0,8,00,00,00,00,8E,01,C8,00,
26395617,00000101,false,Rx,0,8,00,FF,FE,00,00,00,00,00,
26395865,00000102,false,Rx,0,8,01,84,01,00,00,01,00,00,
26461520,00000525,false,Rx,0,6,04,01,C2,00,00,00,00,00,
26495369,00000100,false,Rx,0,8,00,00,00,00,8E,01,C8,00,
26495635,00000101,false,Rx,0,8,00,FF,FE,00,00,00,00,00,
26495865,00000102,false,Rx,0,8,01,84,01,00,00,01,00,00,
26595367,00000100,false,Rx,0,8,00,00,00,00,8E,01,C8,00,
26595613,00000101,false,Rx,0,8,00,FF,FE,00,00,00,00,00,
26595863,00000102,false,Rx,0,8,01,84,01,00,00,01,00,00,
26687015,00000527,false,Rx,0,6,06,06,12,00,00,00,00,00,
26695360,00000100,false,Rx,0,8,00,00,00,00,8E,01,C8,00,
26695611,00000101,false,Rx,0,8,00,FF,FE,00,00,00,00,00,
26695859,00000102,false,Rx,0,8,01,84,01,00,00,01,00,00,
26696063,00000521,false,Rx,0,6,00,0C,06,00,00,00,00,00,
26735243,00000523,false,Rx,0,6,02,0E,E7,FF,FF,FF,00,00,
26795364,00000100,false,Rx,0,8,00,00,00,00,8E,01,C8,00,
26795609,00000101,false,Rx,0,8,00,FF,FE,00,00,00,00,00,
26795859,00000102,false,Rx,0,8,01,84,01,00,00,01,00,00,
26833879,00000522,false,Rx,0,6,01,05,07,C2,05,00,00,00,
26870197,00000528,false,Rx,0,6,07,01,01,00,00,00,00,00,
26895360,00000100,false,Rx,0,8,00,00,00,00,8E,01,C8,00,
26895612,00000101,false,Rx,0,8,00,FF,FE,00,00,00,00,00,
26895858,00000102,false,Rx,0,8,01,84,01,00,00,01,00,00,
26995356,00000100,false,Rx,0,8,00,00,00,00,8E,01,C8,00,
26995608,00000101,false,Rx,0,8,00,FF,FE,00,00,00,00,00,
26995852,00000102,false,Rx,0,8,01,84,01,00,00,01,00,00,
27025440,00000526,false,Rx,0,6,05,0C,03,00,00,00,00,00,
27049265,00000524,false,Rx,0,6,03,08,F4,FF,FF,FF,00,00,
27095354,00000100,false,Rx,0,8,00,00,00,00,8E,01,C8,00,
27095606,00000101,false,Rx,0,8,00,FF,FE,00,00,00,00,00,
27095857,00000102,false,Rx,0,8,01,84,01,00,00,01,00,00,
27145900,00000525,false,Rx,0,6,04,02,C2,00,00,00,00,00,
27195356,00000100,false,Rx,0,8,00,00,00,00,8E,01,C8,00,
27195601,00000101,false,Rx,0,8,00,FF,FE,00,00,00,00,00,
27195847,00000102,false,Rx,0,8,01,84,01,00,00,01,00,00,
27295349,00000100,false,Rx,0,8,00,00,00,00,8E,01,C8,00,
27295601,00000101,false,Rx,0,8,00,FF,FE,00,00,00,00,00,
27295848,00000102,false,Rx,0,8,01,84,01,00,00,01,00,00,
27307913,00000521,false,Rx,0,6,00,0D,07,00,00,00,00,00,
27383409,00000523,false,Rx,0,6,02,0F,F7,FF,FF,FF,00,00,
27395349,00000100,false,Rx,0,8,00,00,00,00,8E,01,C8,00,
27395597,00000101,false,Rx,0,8,00,FF,FE,00,00,00,00,00,
27395844,00000102,false,Rx,0,8,01,84,01,00,00,01,00,00,
27407619,00000527,false,Rx,0,6,06,07,12,00,00,00,00,00,
27463910,00000522,false,Rx,0,6,01,06,0D,C2,05,00,00,00,
27495343,00000100,false,Rx,0,8,00,00,00,00,8E,01,C8,00,
27495598,00000101,false,Rx,0,8,00,FF,FE,00,00,00,00,00,
27495839,00000102,false,Rx,0,8,01,84,01,00,00,01,00,00,
27595345,00000100,false,Rx,0,8,00,00,00,00,8E,01,C8,00,
27595597,00000101,false,Rx,0,8,00,FF,FE,00,00,00,00,00,
27595837,00000102,false,Rx,0,8,01,84,01,00,00,01,00,00,
27608927,00000528,false,Rx,0,6,07,02,01,00,00,00,00,00,
27695343,00000100,false,Rx,0,8,00,00,00,00,8E,01,C8,00,
27695589,00000101,false,Rx,0,8,00,FF,FE,00,00,00,00,00,
27695835,00000102,false,Rx,0,8,01,84,01,00,00,01,00,00,
27715532,00000524,false,Rx,0,6,03,09,EB,FF,FF,FF,00,00,
27727934,00000526,false,Rx,0,6,05,0D,0D,00,00,00,00,00,
27795338,00000100,false,Rx,0,8,00,00,00,00,8E,01,C8,00,
27795591,00000101,false,Rx,0,8,00,FF,FE,00,00,00,00,00,
27795838,00000102,false,Rx,0,8,01,84,01,00,00,01,00,00,
27830281,00000525,false,Rx,0,6,04,03,C3,00,00,00,00,00,
27895336,00000100,false,Rx,0,8,00,00,00,00,8E,01,C8,00,
27895588,00000101,false,Rx,0,8,00,FF,FE,00,00,00,00,00,
27895831,00000102,false,Rx,0,8,01,84,01,00,00,01,00,00,
27919825,00000521,false,Rx,0,6,00,0E,06,00,00,00,00,00,
27995339,00000100,false,Rx,0,8,00,00,00,00,8E,01,C8,00,
27995585,00000101,false,Rx,0,8,00,FF,FE,00,00,00,00,00,
27995834,00000102,false,Rx,0,8,01,84,01,00,00,01,00,00,
28031542,00000523,false,Rx,0,6,02,00,F9,FF,FF,FF,00,00,
28093933,00000522,false,Rx,0,6,01,07,05,C2,05,00,00,00,
28095335,00000100,false,Rx,0,8,00,00,00,00,8E,01,C8,00,
28095580,00000101,false,Rx,0,8,00,FF,FE,00,00,00,00,00,
28095825,00000102,false,Rx,0,8,01,84,01,00,00,01,00,00,
28128230,00000527,false,Rx,0,6,06,08,12,00,00,00,00,00,
28195329,00000100,false,Rx,0,8,00,00,00,00,8E,01,C8,00,
28195581,00000101,false,Rx,0,8,00,FF,FE,00,00,00,00,00,
28195830,00000102,false,Rx,0,8,01,84,01,00,00,01,00,00,
28295333,00000100,false,Rx,0,8,00,00,00,00,8E,01,C8,00,
28295579,00000101,false,Rx,0,8,00,FF,FE,00,00,00,00,00,
28295829,00000102,false,Rx,0,8,01,84,01,00,00,01,00,00,
28347632,00000528,false,Rx,0,6,07,03,01,00,00,00,00,00,
28381785,00000524,false,Rx,0,6,03,0A,F0,FF,FF,FF,00,00,
28395329,00000100,false,Rx,0,8,00,00,00,00,8E,01,C8,00,
28395581,00000101,false,Rx,0,8,00,FF,FE,00,00,00,00,00,
28395823,00000102,false,Rx,0,8,01,84,01,00,00,01,00,00,
28430417,00000526,false,Rx,0,6,05,0E,EE,FF,FF,FF,00,00,
28495327,00000100,false,Rx,0,8,00,00,00,00,8E,01,C8,00,
28495579,00000101,false,Rx,0,8,00,FF,FE,00,00,00,00,00,
28495819,00000102,false,Rx,0,8,01,84,01,00,00,01,00,00,
28514656,00000525,false,Rx,0,6,04,04,C2,00,00,00,00,00,
28532739,00000521,false,Rx,0,6,00,0F,FD,FF,FF,FF,00,00,
28595323,00000100,false,Rx,0,8,00,00,00,00,8E,01,C8,00,
28595576,00000101,false,Rx,0,8,00,FF,FE,00,00,00,00,00,
28595823,00000102,false,Rx,0,8,01,84,01,00,00,01,00,00,
28679692,00000523,false,Rx,0,6,02,01,F9,FF,FF,FF,00,00,
28695323,00000100,false,Rx,0,8,00,00,00,00,8E,01,C8,00,
28695569,00000101,false,Rx,0,8,00,FF,FE,00,00,00,00,00,
28695816,00000102,false,Rx,0,8,01,84,01,00,00,01,00,00,
28723959,00000522,false,Rx,0,6,01,08,01,C2,05,00,00,00,
28795316,00000100,false,Rx,0,8,00,00,00,00,8E,01,C8,00,
28795568,00000101,false,Rx,0,8,00,FF,FE,00,00,00,00,00,
28795817,00000102,false,Rx,0,8,01,84,01,00,00,01,00,00,
28848822,00000527,false,Rx,0,6,06,09,12,00,00,00,00,00,
28895316,00000100,false,Rx,0,8,00,00,00,00,8E,01,C8,00,
28895567,00000101,false,Rx,0,8,00,FF,FE,00,00,00,00,00,
28895816,00000102,false,Rx,0,8,01,84,01,00,00,01,00,00,
28995315,00000100,false,Rx,0,8,00,00,00,00,8E,01,C8,00,
28995567,00000101,false,Rx,0,8,00,FF,FE,00,00,00,00,00,
28995816,00000102,false,Rx,0,8,01,84,01,00,00,01,00,00,
29048036,00000524,false,Rx,0,6,03,0B,F0,FF,FF,FF,00,00,
29086347,00000528,false,Rx,0,6,07,04,01,00,00,00,00,00,
29095311,00000100,false,Rx,0,8,00,00,00,00,8E,01,C8,00,
29095562,00000101,false,Rx,0,8,00,FF,FE,00,00,00,00,00,
29095813,00000102,false,Rx,0,8,01,84,01,00,00,01,00,00,
29132849,00000526,false,Rx,0,6,05,0F,06,00,00,00,00,00,
29145222,00000521,false,Rx,0,6,00,00,09,00,00,00,00,00,
29195312,00000100,false,Rx,0,8,00,00,00,00,8E,01,C8,00,
29195564,00000101,false,Rx,0,8,00,FF,FE,00,00,00,00,00,
29195813,00000102,false,Rx,0,8,01,84,01,00,00,01,00,00,
29199012,00000525,false,Rx,0,6,04,05,C2,00,00,00,00,00,
29295307,00000100,false,Rx,0,8,00,00,00,00,8E,01,C8,00,
29295558,00000101,false,Rx,0,8,00,FF,FE,00,00,00,00,00,
29295805,00000102,false,Rx,0,8,01,84,01,00,00,01,00,00,
29327805,00000523,false,Rx,0,6,02,02,F5,FF,FF,FF,00,00,
29353969,00000522,false,Rx,0,6,01,09,0E,C2,05,00,00,00,
29395308,00000100,false,Rx,0,8,00,00,00,00,8E,01,C8,00,
29395557,00000101,false,Rx,0,8,00,FF,FE,00,00,00,00,00,
29395808,00000102,false,Rx,0,8,01,84,01,00,00,01,00,00,
29495304,00000100,false,Rx,0,8,00,00,00,00,8E,01,C8,00,
29495556,00000101,false,Rx,0,8,00,FF,FE,00,00,00,00,00,
29495808,00000102,false,Rx,0,8,01,84,01,00,00,01,00,00,
29569405,00000527,false,Rx,0,6,06,0A,12,00,00,00,00,00,
29595301,00000100,false,Rx,0,8,00,00,00,00,8E,01,C8,00,
29595556,00000101,false,Rx,0,8,00,FF,FE,00,00,00,00,00,
29595809,00000102,false,Rx,0,8,01,84,01,00,00,01,00,00,
29695305,00000100,false,Rx,0,8,00,00,00,00,8E,01,C8,00,
29695552,00000101,false,Rx,0,8,00,FF,FE,00,00,00,00,00,
29695805,00000102,false,Rx,0,8,01,84,01,00,00,01,00,00,
29714277,00000524,false,Rx,0,6,03,0C,F0,FF,FF,FF,00,00,
29758549,00000521,false,Rx,0,6,00,01,09,00,00,00,00,00,
29795299,00000100,false,Rx,0,8,00,00,00,00,8E,01,C8,00,
29795547,00000101,false,Rx,0,8,00,FF,FE,00,00,00,00,00,
29795793,00000102,false,Rx,0,8,01,84,01,00,00,01,00,00,
29825055,00000528,false,Rx,0,6,07,05,01,00,00,00,00,00,
29835359,00000526,false,Rx,0,6,05,00,FF,FF,FF,FF,00,00,
29883371,00000525,false,Rx,0,6,04,06,C2,00,00,00,00,00,
29895294,00000100,false,Rx,0,8,00,00,00,00,8E,01,C8,00,
29895548,00000101,false,Rx,0,8,00,FF,FE,00,00,00,00,00,
29895797,00000102,false,Rx,0,8,01,84,01,00,00,01,00,00,
29975950,00000523,false,Rx,0,6,02,03,F9,FF,FF,FF,00,00,
29983989,00000522,false,Rx,0,6,01,0A,0D,C2,05,00,00,00,
29995294,00000100,false,Rx,0,8,00,00,00,00,8E,01,C8,00,
29995562,00000101,false,Rx,0,8,00,FF,FE,00,00,00,00,00,
29995793,00000102,false,Rx,0,8,01,84,01,00,00,01,00,00,
30095289,00000100,false,Rx,0,8,00,00,00,00,8E,01,C8,00,
30095541,00000101,false,Rx,0,8,00,FF,FE,00,00,00,00,00,
30095790,00000102,false,Rx,0,8,01,84,01,00,00,01,00,00,
30195288,00000100,false,Rx,0,8,00,00,00,00,8E,01,C8,00,
30195541,00000101,false,Rx,0,8,00,FF,FE,00,00,00,00,00,
30195785,00000102,false,Rx,0,8,01,84,01,00,00,01,00,00,
30290018,00000527,false,Rx,0,6,06,0B,12,00,00,00,00,00,
30295287,00000100,false,Rx,0,8,00,00,00,00,8E,01,C8,00,
30295539,00000101,false,Rx,0,8,00,FF,FE,00,00,00,00,00,
30295786,00000102,false,Rx,0,8,01,84,01,00,00,01,00,00,
30370453,00000521,false,Rx,0,6,00,02,0C,00,00,00,00,00,
30380534,00000524,false,Rx,0,6,03,0D,F5,FF,FF,FF,00,00,
30395288,00000100,false,Rx,0,8,00,00,00,00,8E,01,C8,00,
30395534,00000101,false,Rx,0,8,00,FF,FE,00,00,00,00,00,
30395781,00000102,false,Rx,0,8,01,84,01,00,00,01,00,00,
30495285,00000100,false,Rx,0,8,00,00,00,00,8E,01,C8,00,
30495537,00000101,false,Rx,0,8,00,FF,FE,00,00,00,00,00,
30495781,00000102,false,Rx,0,8,01,84,01,00,00,01,00,00,
30537669,00000526,false,Rx,0,6,05,01,02,00,00,00,00,00,
30563766,00000528,false,Rx,0,6,07,06,01,00,00,00,00,00,
30567738,00000525,false,Rx,0,6,04,07,C2,00,00,00,00,00,
30595280,00000100,false,Rx,0,8,00,00,00,00,8E,01,C8,00,
30595532,00000101,false,Rx,0,8,00,FF,FE,00,00,00,00,00,
30595785,00000102,false,Rx,0,8,01,84,01,00,00,01,00,00,
30614015,00000522,false,Rx,0,6,01,0B,19,C2,05,00,00,00,
30624078,00000523,false,Rx,0,6,02,04,F9,FF,FF,FF,00,00,
30695279,00000100,false,Rx,0,8,00,00,00,00,8E,01,C8,00,
30695531,00000101,false,Rx,0,8,00,FF,FE,00,00,00,00,00,
30695778,00000102,false,Rx,0,8,01,84,01,00,00,01,00,00,
30795274,00000100,false,Rx,0,8,00,00,00,00,8E,01,C8,00,
30795526,00000101,false,Rx,0,8,00,FF,FE,00,00,00,00,00,
30795771,00000102,false,Rx,0,8,01,84,01,00,00,01,00,00,
30895276,00000100,false,Rx,0,8,00,00,00,00,8E,01,C8,00,
30895529,00000101,false,Rx,0,8,00,FF,FE,00,00,00,00,00,
30895775,00000102,false,Rx,0,8,01,84,01,00,00,01,00,00,
30982354,00000521,false,Rx,0,6,00,03,08,00,00,00,00,00,
30995271,00000100,false,Rx,0,8,00,00,00,00,8E,01,C8,00,
30995526,00000101,false,Rx,0,8,00,FF,FE,00,00,00,00,00,
30995773,00000102,false,Rx,0,8,01,84,01,00,00,01,00,00,
31010617,00000527,false,Rx,0,6,06,0C,12,00,00,00,00,00,
31046772,00000524,false,Rx,0,6,03,0E,F0,FF,FF,FF,00,00,
31095274,00000100,false,Rx,0,8,00,00,00,00,8E,01,C8,00,
31095522,00000101,false,Rx,0,8,00,FF,FE,00,00,00,00,00,
31095768,00000102,false,Rx,0,8,01,84,01,00,00,01,00,00,
31195267,00000100,false,Rx,0,8,00,00,00,00,8E,01,C8,00,
31195519,00000101,false,Rx,0,8,00,FF,FE,00,00,00,00,00,
31195765,00000102,false,Rx,0,8,01,84,01,00,00,01,00,00,
31240340,00000526,false,Rx,0,6,05,02,00,00,00,00,00,00,
31244021,00000522,false,Rx,0,6,01,0C,0A,C2,05,00,00,00,
31252109,00000525,false,Rx,0,6,04,08,C2,00,00,00,00,00,
31272225,00000523,false,Rx,0,6,02,05,FD,FF,FF,FF,00,00,
31295266,00000100,false,Rx,0,8,00,00,00,00,8E,01,C8,00,
31295518,00000101,false,Rx,0,8,00,FF,FE,00,00,00,00,00,
31295764,00000102,false,Rx,0,8,01,84,01,00,00,01,00,00,
31302486,00000528,false,Rx,0,6,07,07,01,00,00,00,00,00,
31395261,00000100,false,Rx,0,8,00,00,00,00,8E,01,C8,00,
31395525,00000101,false,Rx,0,8,00,FF,FE,00,00,00,00,00,
31395759,00000102,false,Rx,0,8,01,84,01,00,00,01,00,00,
31495264,00000100,false,Rx,0,8,00,00,00,00,8E,01,C8,00,
31495510,00000101,false,Rx,0,8,00,FF,FE,00,00,00,00,00,
31495759,00000102,false,Rx,0,8,01,84,01,00,00,01,00,00,
31594267,00000521,false,Rx,0,6,00,04,0A,00,00,00,00,00,
31595261,00000100,false,Rx,0,8,00,00,00,00,8E,01,C8,00,
31595514,00000101,false,Rx,0,8,00,FF,FE,00,00,00,00,00,
31595759,00000102,false,Rx,0,8,01,84,01,00,00,01,00,00,
31695262,00000100,false,Rx,0,8,00,00,00,00,8E,01,C8,00,
31695507,00000101,false,Rx,0,8,00,FF,FE,00,00,00,00,00,
31695755,00000102,false,Rx,0,8,01,84,01,00,00,01,00,00,
31713046,00000524,false,Rx,0,6,03,0F,ED,FF,FF,FF,00,00,
31731221,00000527,false,Rx,0,6,06,0D,12,00,00,00,00,00,
31795255,00000100,false,Rx,0,8,00,00,00,00,8E,01,C8,00,
31795506,00000101,false,Rx,0,8,00,FF,FE,00,00,00,00,00,
31795755,00000102,false,Rx,0,8,01,84,01,00,00,01,00,00,
31874064,00000522,false,Rx,0,6,01,0D,12,C2,05,00,00,00,
31895252,00000100,false,Rx,0,8,00,00,00,00,8E,01,C8,00,
31895504,00000101,false,Rx,0,8,00,FF,FE,00,00,00,00,00,
31895749,00000102,false,Rx,0,8,01,84,01,00,00,01,00,00,
31920366,00000523,false,Rx,0,6,02,06,00,00,00,00,00,00,
31936493,00000525,false,Rx,0,6,04,09,C2,00,00,00,00,00,
31942539,00000526,false,Rx,0,6,05,03,00,00,00,00,00,00,
31995256,00000100,false,Rx,0,8,00,00,00,00,8E,01,C8,00,
31995501,00000101,false,Rx,0,8,00,FF,FE,00,00,00,00,00,
31995749,00000102,false,Rx,0,8,01,84,01,00,00,01,00,00,
32041218,00000528,false,Rx,0,6,07,08,01,00,00,00,00,00,
32095252,00000100,false,Rx,0,8,00,00,00,00,8E,01,C8,00,
32095498,00000101,false,Rx,0,8,00,FF,FE,00,00,00,00,00,
32095744,00000102,false,Rx,0,8,01,84,01,00,00,01,00,00,
32195246,00000100,false,Rx,0,8,00,00,00,00,8E,01,C8,00,
32195497,00000101,false,Rx,0,8,00,FF,FE,00,00,00,00,00,
32195743,00000102,false,Rx,0,8,01,84,01,00,00,01,00,00,
32206187,00000521,false,Rx,0,6,00,05,08,00,00,00,00,00,
32295248,00000100,false,Rx,0,8,00,00,00,00,8E,01,C8,00,
32295494,00000101,false,Rx,0,8,00,FF,FE,00,00,00,00,00,
32295740,00000102,false,Rx,0,8,01,84,01,00,00,01,00,00,
32379312,00000524,false,Rx,0,6,03,00,F4,FF,FF,FF,00,00,
32395244,00000100,false,Rx,0,8,00,00,00,00,8E,01,C8,00,
32395493,00000101,false,Rx,0,8,00,FF,FE,00,00,00,00,00,
32395739,00000102,false,Rx,0,8,01,84,01,00,00,01,00,00,
32451837,00000527,false,Rx,0,6,06,0E,13,00,00,00,00,00,
32495242,00000100,false,Rx,0,8,00,00,00,00,8E,01,C8,00,
32495492,00000101,false,Rx,0,8,00,FF,FE,00,00,00,00,00,
32495738,00000102,false,Rx,0,8,01,84,01,00,00,01,00,00,
32504095,00000522,false,Rx,0,6,01,0E,06,C2,05,00,00,00,
32568523,00000523,false,Rx,0,6,02,07,00,00,00,00,00,00,
32595237,00000100,false,Rx,0,8,00,00,00,00,8E,01,C8,00,
32595492,00000101,false,Rx,0,8,00,FF,FE,00,00,00,00,00,
32595738,00000102,false,Rx,0,8,01,84,01,00,00,01,00,00,
32620881,00000525,false,Rx,0,6,04,0A,C2,00,00,00,00,00,
32645336,00000526,false,Rx,0,6,05,04,0E,00,00,00,00,00,
32695239,00000100,false,Rx,0,8,00,00,00,00,8E,01,C8,00,
32695485,00000101,false,Rx,0,8,00,FF,FE,00,00,00,00,00,
32695731,00000102,false,Rx,0,8,01,84,01,00,00,01,00,00,
32779938,00000528,false,Rx,0,6,07,09,01,00,00,00,00,00,
32795237,00000100,false,Rx,0,8,00,00,00,00,8E,01,C8,00,
32795483,00000101,false,Rx,0,8,00,FF,FE,00,00,00,00,00,
32795734,00000102,false,Rx,0,8,01,84,01,00,00,01,00,00,
32818094,00000521,false,Rx,0,6,00,06,0C,00,00,00,00,00,
32895237,00000100,false,Rx,0,8,00,00,00,00,8E,01,C8,00,
32895482,00000101,false,Rx,0,8,00,FF,FE,00,00,00,00,00,
32895731,00000102,false,Rx,0,8,01,84,01,00,00,01,00,00,
32995234,00000100,false,Rx,0,8,00,00,00,00,8E,01,C8,00,
32995479,00000101,false,Rx,0,8,00,FF,FE,00,00,00,00,00,
32995729,00000102,false,Rx,0,8,01,84,01,00,00,01,00,00,
33045586,00000524,false,Rx,0,6,03,01,FB,FF,FF,FF,00,00,
33095230,00000100,false,Rx,0,8,00,00,00,00,8E,01,C8,00,
33095482,00000101,false,Rx,0,8,00,FF,FE,00,00,00,00,00,
33095727,00000102,false,Rx,0,8,01,84,01,00,00,01,00,00,
33134120,00000522,false,Rx,0,6,01,0F,15,C2,05,00,00,00,
33172434,00000527,false,Rx,0,6,06,0F,13,00,00,00,00,00,
33195225,00000100,false,Rx,0,8,00,00,00,00,8E,01,C8,00,
33195478,00000101,false,Rx,0,8,00,FF,FE,00,00,00,00,00,
33195722,00000102,false,Rx,0,8,01,84,01,00,00,01,00,00,
33216649,00000523,false,Rx,0,6,02,08,EC,FF,FF,FF,00,00,
33295223,00000100,false,Rx,0,8,00,00,00,00,8E,01,C8,00,
33295475,00000101,false,Rx,0,8,00,FF,FE,00,00,00,00,00,
33295724,00000102,false,Rx,0,8,01,84,01,00,00,01,00,00,
33305239,00000525,false,Rx,0,6,04,0B,C2,00,00,00,00,00,
33347776,00000526,false,Rx,0,6,05,05,FF,FF,FF,FF,00,00,
33395225,00000100,false,Rx,0,8,00,00,00,00,8E,01,C8,00,
33395471,00000101,false,Rx,0,8,00,FF,FE,00,00,00,00,00,
33395716,00000102,false,Rx,0,8,01,84,01,00,00,01,00,00,
33430007,00000521,false,Rx,0,6,00,07,07,00,00,00,00,00,
33495218,00000100,false,Rx,0,8,00,00,00,00,8E,01,C8,00,
33495469,00000101,false,Rx,0,8,00,FF,FE,00,00,00,00,00,
33495715,00000102,false,Rx,0,8,01,84,01,00,00,01,00,00,
33518649,00000528,false,Rx,0,6,07,0A,01,00,00,00,00,00,
33595218,00000100,false,Rx,0,8,00,00,00,00,8E,01,C8,00,
33595470,00000101,false,Rx,0,8,00,FF,FE,00,00,00,00,00,
33595716,00000102,false,Rx,0,8,01,84,01,00,00,01,00,00,
33695214,00000100,false,Rx,0,8,00,00,00,00,8E,01,C8,00,
33695467,00000101,false,Rx,0,8,00,FF,FE,00,00,00,00,00,
33695712,00000102,false,Rx,0,8,01,84,01,00,00,01,00,00,
33711823,00000524,false,Rx,0,6,03,02,ED,FF,FF,FF,00,00,
33764166,00000522,false,Rx,0,6,01,00,19,C2,05,00,00,00,
33795218,00000100,false,Rx,0,8,00,00,00,00,8E,01,C8,00,
33795467,00000101,false,Rx,0,8,00,FF,FE,00,00,00,00,00,
33795713,00000102,false,Rx,0,8,01,84,01,00,00,01,00,00,
33864787,00000523,false,Rx,0,6,02,09,F3,FF,FF,FF,00,00,
33893034,00000527,false,Rx,0,6,06,00,13,00,00,00,00,00,
33895214,00000100,false,Rx,0,8,00,00,00,00,8E,01,C8,00,
33895465,00000101,false,Rx,0,8,00,FF,FE,00,00,00,00,00,
33895711,00000102,false,Rx,0,8,01,84,01,00,00,01,00,00,
33989613,00000525,false,Rx,0,6,04,0C,C2,00,00,00,00,00,
33995210,00000100,false,Rx,0,8,00,00,00,00,8E,01,C8,00,
33995458,00000101,false,Rx,0,8,00,FF,FE,00,00,00,00,00,
33995710,00000102,false,Rx,0,8,01,84,01,00,00,01,00,00,
34042915,00000521,false,Rx,0,6,00,08,0E,00,00,00,00,00,
34050293,00000526,false,Rx,0,6,05,06,FF,FF,FF,FF,00,00,
34095206,00000100,false,Rx,0,8,00,00,00,00,8E,01,C8,00,
34095460,00000101,false,Rx,0,8,00,FF,FE,00,00,00,00,00,
34095706,00000102,false,Rx,0,8,01,84,01,00,00,01,00,00,
34195203,00000100,false,Rx,0,8,00,00,00,00,8E,01,C8,00,
34195455,00000101,false,Rx,0,8,00,FF,FE,00,00,00,00,00,
34195701,00000102,false,Rx,0,8,01,84,01,00,00,01,00,00,
34257365,00000528,false,Rx,0,6,07,0B,01,00,00,00,00,00,
34295207,00000100,false,Rx,0,8,00,00,00,00,8E,01,C8,00,
34295453,00000101,false,Rx,0,8,00,FF,FE,00,00,00,00,00,
34295704,00000102,false,Rx,0,8,01,84,01,00,00,01,00,00,
34378079,00000524,false,Rx,0,6,03,03,F1,FF,FF,FF,00,00,
34394150,00000522,false,Rx,0,6,01,01,0E,C2,05,00,00,00,
34395206,00000100,false,Rx,0,8,00,00,00,00,8E,01,C8,00,
34395451,00000101,false,Rx,0,8,00,FF,FE,00,00,00,00,00,
34395699,00000102,false,Rx,0,8,01,84,01,00,00,01,00,00,
34495199,00000100,false,Rx,0,8,00,00,00,00,8E,01,C8,00,
34495451,00000101,false,Rx,0,8,00,FF,FE,00,00,00,00,00,
34495701,00000102,false,Rx,0,8,01,84,01,00,00,01,00,00,
34512912,00000523,false,Rx,0,6,02,0A,F3,FF,FF,FF,00,00,
34595195,00000100,false,Rx,0,8,00,00,00,00,8E,01,C8,00,
34595448,00000101,false,Rx,0,8,00,FF,FE,00,00,00,00,00,
34595697,00000102,false,Rx,0,8,01,84,01,00,00,01,00,00,
34613631,00000527,false,Rx,0,6,06,01,13,00,00,00,00,00,
34655816,00000521,false,Rx,0,6,00,09,0C,00,00,00,00,00,
34673971,00000525,false,Rx,0,6,04,0D,C2,00,00,00,00,00,
34695193,00000100,false,Rx,0,8,00,00,00,00,8E,01,C8,00,
34695446,00000101,false,Rx,0,8,00,FF,FE,00,00,00,00,00,
34695694,00000102,false,Rx,0,8,01,84,01,00,00,01,00,00,
34752599,00000526,false,Rx,0,6,05,07,02,00,00,00,00,00,
34795197,00000100,false,Rx,0,8,00,00,00,00,8E,01,C8,00,
34795442,00000101,false,Rx,0,8,00,FF,FE,00,00,00,00,00,
34795693,00000102,false,Rx,0,8,01,84,01,00,00,01,00,00,
34895188,00000100,false,Rx,0,8,00,00,00,00,8E,01,C8,00,
34895440,00000101,false,Rx,0,8,00,FF,FE,00,00,00,00,00,
34895686,00000102,false,Rx,0,8,01,84,01,00,00,01,00,00,
34995191,00000100,false,Rx,0,8,00,00,00,00,8E,01,C8,00,
34995443,00000101,false,Rx,0,8,00,FF,FE,00,00,00,00,00,
34995689,00000102,false,Rx,0,8,01,84,01,00,00,01,00,00,
34996079,00000528,false,Rx,0,6,07,0C,01,00,00,00,00,00,
35024178,00000522,false,Rx,0,6,01,02,0E,C2,05,00,00,00,
35044316,00000524,false,Rx,0,6,03,04,EF,FF,FF,FF,00,00,
35095189,00000100,false,Rx,0,8,00,00,00,00,8E,01,C8,00,
35095442,00000101,false,Rx,0,8,00,FF,FE,00,00,00,00,00,
35095688,00000102,false,Rx,0,8,01,84,01,00,00,01,00,00,
35161051,00000523,false,Rx,0,6,02,0B,EC,FF,FF,FF,00,00,
35195188,00000100,false,Rx,0,8,00,00,00,00,8E,01,C8,00,
35195433,00000101,false,Rx,0,8,00,FF,FE,00,00,00,00,00,
35195678,00000102,false,Rx,0,8,01,84,01,00,00,01,00,00,
35267727,00000521,false,Rx,0,6,00,0A,0B,00,00,00,00,00,
35295185,00000100,false,Rx,0,8,00,00,00,00,8E,01,C8,00,
35295431,00000101,false,Rx,0,8,00,FF,FE,00,00,00,00,00,
35295677,00000102,false,Rx,0,8,01,84,01,00,00,01,00,00,
35334225,00000527,false,Rx,0,6,06,02,13,00,00,00,00,00,
35358332,00000525,false,Rx,0,6,04,0E,C2,00,00,00,00,00,
35395183,00000100,false,Rx,0,8,00,00,00,00,8E,01,C8,00,
35395435,00000101,false,Rx,0,8,00,FF,FE,00,00,00,00,00,
35395681,00000102,false,Rx,0,8,01,84,01,00,00,01,00,00,
35455508,00000526,false,Rx,0,6,05,08,FC,FF,FF,FF,00,00,
35495182,00000100,false,Rx,0,8,00,00,00,00,8E,01,C8,00,
35495427,00000101,false,Rx,0,8,00,FF,FE,00,00,00,00,00,
35495673,00000102,false,Rx,0,8,01,84,01,00,00,01,00,00,
35595175,00000100,false,Rx,0,8,00,00,00,00,8E,01,C8,00,
35595427,00000101,false,Rx,0,8,00,FF,FE,00,00,00,00,00,
35595673,00000102,false,Rx,0,8,01,84,01,00,00,01,00,00,
35654183,00000522,false,Rx,0,6,01,03,12,C2,05,00,00,00,
35695175,00000100,false,Rx,0,8,00,00,00,00,8E,01,C8,00,
35695422,00000101,false,Rx,0,8,00,FF,FE,00,00,00,00,00,
35695673,00000102,false,Rx,0,8,01,84,01,00,00,01,00,00,
35710568,00000524,false,Rx,0,6,03,05,EF,FF,FF,FF,00,00,
35734788,00000528,false,Rx,0,6,07,0D,01,00,00,00,00,00,
35795175,00000100,false,Rx,0,8,00,00,00,00,8E,01,C8,00,
35795419,00000101,false,Rx,0,8,00,FF,FE,00,00,00,00,00,
35795670,00000102,false,Rx,0,8,01,84,01,00,00,01,00,00,
35809177,00000523,false,Rx,0,6,02,0C,EF,FF,FF,FF,00,00,
35879958,00000521,false,Rx,0,6,00,0B,07,00,00,00,00,00,
35895170,00000100,false,Rx,0,8,00,00,00,00,8E,01,C8,00,
35895418,00000101,false,Rx,0,8,00,FF,FE,00,00,00,00,00,
35895664,00000102,false,Rx,0,8,01,84,01,00,00,01,00,00,
35995169,00000100,false,Rx,0,8,00,00,00,00,8E,01,C8,00,
35995415,00000101,false,Rx,0,8,00,FF,FE,00,00,00,00,00,
35995667,00000102,false,Rx,0,8,01,84,01,00,00,01,00,00,
36042688,00000525,false,Rx,0,6,04,0F,C2,00,00,00,00,00,
36054811,00000527,false,Rx,0,6,06,03,13,00,00,00,00,00,
36095161,00000100,false,Rx,0,8,00,00,00,00,8E,01,C8,00,
36095415,00000101,false,Rx,0,8,00,FF,FE,00,00,00,00,00,
36095661,00000102,false,Rx,0,8,01,84,01,00,00,01,00,00,
36157723,00000526,false,Rx,0,6,05,09,00,00,00,00,00,00,
36195164,00000100,false,Rx,0,8,00,00,00,00,8E,01,C8,00,
36195429,00000101,false,Rx,0,8,00,FF,FE,00,00,00,00,00,
36195657,00000102,false,Rx,0,8,01,84,01,00,00,01,00,00,
36284195,00000522,false,Rx,0,6,01,04,1B,C2,05,00,00,00,
36295161,00000100,false,Rx,0,8,00,00,00,00,8E,01,C8,00,
36295413,00000101,false,Rx,0,8,00,FF,FE,00,00,00,00,00,
36295658,00000102,false,Rx,0,8,01,84,01,00,00,01,00,00,
36376814,00000524,false,Rx,0,6,03,06,F6,FF,FF,FF,00,00,
36395157,00000100,false,Rx,0,8,00,00,00,00,8E,01,C8,00,
36395409,00000101,false,Rx,0,8,00,FF,FE,00,00,00,00,00,
36395655,00000102,false,Rx,0,8,01,84,01,00,00,01,00,00,
36457302,00000523,false,Rx,0,6,02,0D,EF,FF,FF,FF,00,00,
36473482,00000528,false,Rx,0,6,07,0E,01,00,00,00,00,00,
36491519,00000521,false,Rx,0,6,00,0C,0C,00,00,00,00,00,
36495157,00000100,false,Rx,0,8,00,00,00,00,8E,01,C8,00,
36495409,00000101,false,Rx,0,8,00,FF,FE,00,00,00,00,00,
36495653,00000102,false,Rx,0,8,01,84,01,00,00,01,00,00,
36595156,00000100,false,Rx,0,8,00,00,00,00,8E,01,C8,00,
36595408,00000101,false,Rx,0,8,00,FF,FE,00,00,00,00,00,
36595651,00000102,false,Rx,0,8,01,84,01,00,00,01,00,00,
36695156,00000100,false,Rx,0,8,00,00,00,00,8E,01,C8,00,
36695401,00000101,false,Rx,0,8,00,FF,FE,00,00,00,00,00,
36695650,00000102,false,Rx,0,8,01,84,01,00,00,01,00,00,
36727040,00000525,false,Rx,0,6,04,00,C2,00,00,00,00,00,
36775400,00000527,false,Rx,0,6,06,04,13,00,00,00,00,00,
36795153,00000100,false,Rx,0,8,00,00,00,00,8E,01,C8,00,
36795399,00000101,false,Rx,0,8,00,FF,FE,00,00,00,00,00,
36795662,00000102,false,Rx,0,8,01,84,01,00,00,01,00,00,
36860205,00000526,false,Rx,0,6,05,0A,01,00,00,00,00,00,
36895149,00000100,false,Rx,0,8,00,00,00,00,8E,01,C8,00,
36895402,00000101,false,Rx,0,8,00,FF,FE,00,00,00,00,00,
36895648,00000102,false,Rx,0,8,01,84,01,00,00,01,00,00,
36914223,00000522,false,Rx,0,6,01,05,17,C2,05,00,00,00,
36995143,00000100,false,Rx,0,8,00,00,00,00,8E,01,C8,00,
36995396,00000101,false,Rx,0,8,00,FF,FE,00,00,00,00,00,
36995642,00000102,false,Rx,0,8,01,84,01,00,00,01,00,00,
37043050,00000524,false,Rx,0,6,03,07,F1,FF,FF,FF,00,00,
37095143,00000100,false,Rx,0,8,00,00,00,00,8E,01,C8,00,
37095395,00000101,false,Rx,0,8,00,FF,FE,00,00,00,00,00,
37095641,00000102,false,Rx,0,8,01,84,01,00,00,01,00,00,
37103419,00000521,false,Rx,0,6,00,0D,0A,00,00,00,00,00,
37105445,00000523,false,Rx,0,6,02,0E,EE,FF,FF,FF,00,00,
37195139,00000100,false,Rx,0,8,00,00,00,00,8E,01,C8,00,
37195391,00000101,false,Rx,0,8,00,FF,FE,00,00,00,00,00,
37195637,00000102,false,Rx,0,8,01,84,01,00,00,01,00,00,
37212192,00000528,false,Rx,0,6,07,0F,01,00,00,00,00,00,
37295139,00000100,false,Rx,0,8,00,00,00,00,8E,01,C8,00,
37295391,00000101,false,Rx,0,8,00,FF,FE,00,00,00,00,00,
37295638,00000102,false,Rx,0,8,01,84,01,00,00,01,00,00,
37395137,00000100,false,Rx,0,8,00,00,00,00,8E,01,C8,00,
37395389,00000101,false,Rx,0,8,00,FF,FE,00,00,00,00,00,
37395636,00000102,false,Rx,0,8,01,84,01,00,00,01,00,00,
37411421,00000525,false,Rx,0,6,04,01,C2,00,00,00,00,00,
37495138,00000100,false,Rx,0,8,00,00,00,00,8E,01,C8,00,
37495384,00000101,false,Rx,0,8,00,FF,FE,00,00,00,00,00,
37495630,00000102,false,Rx,0,8,01,84,01,00,00,01,00,00,
37496008,00000527,false,Rx,0,6,06,05,13,00,00,00,00,00,
37544223,00000522,false,Rx,0,6,01,06,20,C2,05,00,00,00,
37562642,00000526,false,Rx,0,6,05,0B,08,00,00,00,00,00,
37595134,00000100,false,Rx,0,8,00,00,00,00,8E,01,C8,00,
37595382,00000101,false,Rx,0,8,00,FF,FE,00,00,00,00,00,
37595634,00000102,false,Rx,0,8,01,84,01,00,00,01,00,00,
37695134,00000100,false,Rx,0,8,00,00,00,00,8E,01,C8,00,
37695380,00000101,false,Rx,0,8,00,FF,FE,00,00,00,00,00,
37695626,00000102,false,Rx,0,8,01,84,01,00,00,01,00,00,
37709299,00000524,false,Rx,0,6,03,08,F7,FF,FF,FF,00,00,
37715315,00000521,false,Rx,0,6,00,0E,0D,00,00,00,00,00,
37753574,00000523,false,Rx,0,6,02,0F,EF,FF,FF,FF,00,00,
37795131,00000100,false,Rx,0,8,00,00,00,00,8E,01,C8,00,
37795380,00000101,false,Rx,0,8,00,FF,FE,00,00,00,00,00,
37795626,00000102,false,Rx,0,8,01,84,01,00,00,01,00,00,
37895127,00000100,false,Rx,0,8,00,00,00,00,8E,01,C8,00,
37895380,00000101,false,Rx,0,8,00,FF,FE,00,00,00,00,00,
37895626,00000102,false,Rx,0,8,01,84,01,00,00,01,00,00,
37950901,00000528,false,Rx,0,6,07,00,01,00,00,00,00,00,
37995124,00000100,false,Rx,0,8,00,00,00,00,8E,01,C8,00,
37995384,00000101,false,Rx,0,8,00,FF,FE,00,00,00,00,00,
37995625,00000102,false,Rx,0,8,01,84,01,00,00,01,00,00,
38044855,00000108,false,Rx,0,8,01,F4,01,6C,8E,01,00,00,
38045102,00000109,false,Rx,0,8,01,09,00,08,00,20,00,00,
38095122,00000100,false,Rx,0,8,00,00,00,00,8E,01,C8,00,
38095373,00000101,false,Rx,0,8,00,FF,FE,00,00,00,00,00,
38095622,00000102,false,Rx,0,8,01,84,01,00,00,01,00,00,
38095826,00000525,false,Rx,0,6,04,02,C2,00,00,00,00,00,
38144856,00000108,false,Rx,0,8,01,F4,01,6C,8E,01,00,00,
38145097,00000109,false,Rx,0,8,01,09,00,08,00,20,00,00,
38174272,00000522,false,Rx,0,6,01,07,29,C2,05,00,00,00,
38195125,00000100,false,Rx,0,8,00,00,00,00,8E,01,C8,00,
38195370,00000101,false,Rx,0,8,00,FF,FE,00,00,00,00,00,
38195621,00000102,false,Rx,0,8,01,84,01,00,00,01,00,00,
38216586,00000527,false,Rx,0,6,06,06,13,00,00,00,00,00,
38244861,00000108,false,Rx,0,8,01,F4,01,6C,8E,01,00,00,
38245101,00000109,false,Rx,0,8,01,09,00,08,00,20,00,00,
38265136,00000526,false,Rx,0,6,05,0C,03,00,00,00,00,00,
38295119,00000100,false,Rx,0,8,00,00,00,00,8E,01,C8,00,
38295371,00000101,false,Rx,0,8,00,FF,FE,00,00,00,00,00,
38295616,00000102,false,Rx,0,8,01,84,01,00,00,01,00,00,
38327224,00000521,false,Rx,0,6,00,0F,0B,00,00,00,00,00,
38344863,00000108,false,Rx,0,8,01,F4,01,6C,8E,01,00,00,
38345105,00000109,false,Rx,0,8,01,09,00,08,00,20,00,00,
38375549,00000524,false,Rx,0,6,03,09,F0,FF,FF,FF,00,00,
38395119,00000100,false,Rx,0,8,00,00,00,00,8E,01,C8,00,
38395371,00000101,false,Rx,0,8,00,FF,FE,00,00,00,00,00,
38395616,00000102,false,Rx,0,8,01,84,01,00,00,01,00,00,
38401713,00000523,false,Rx,0,6,02,00,EF,FF,FF,FF,00,00,
38444863,00000108,false,Rx,0,8,01,F4,01,6C,8E,01,00,00,
38445104,00000109,false,Rx,0,8,01,09,00,08,00,20,00,00,
38495114,00000100,false,Rx,0,8,00,00,00,00,8E,01,C8,00,
38495366,00000101,false,Rx,0,8,00,FF,FE,00,00,00,00,00,
38495614,00000102,false,Rx,0,8,01,84,01,00,00,01,00,00,
38544865,00000108,false,Rx,0,8,01,F4,01,6C,8E,01,00,00,
38545106,00000109,false,Rx,0,8,01,09,00,08,00,20,FF,FE,
38595112,00000100,false,Rx,0,8,00,00,00,00,8E,01,C8,00,
38595364,00000101,false,Rx,0,8,00,FF,FE,00,00,00,00,00,
38595610,00000102,false,Rx,0,8,01,84,01,00,00,01,00,00,
38644865,00000108,false,Rx,0,8,01,F4,01,6C,8E,01,00,00,
38645113,00000109,false,Rx,0,8,01,09,00,08,00,20,FF,FE,
38689611,00000528,false,Rx,0,6,07,01,01,00,00,00,00,00,
38695109,00000100,false,Rx,0,8,00,00,00,00,8E,01,C8,00,
38695360,00000101,false,Rx,0,8,00,FF,FE,00,00,00,00,00,
38695606,00000102,false,Rx,0,8,01,84,01,00,00,01,00,00,
38744868,00000108,false,Rx,0,8,01,F4,01,6C,8E,01,00,00,
38745109,00000109,false,Rx,0,8,01,09,00,08,00,20,FF,FE,
38780129,00000525,false,Rx,0,6,04,03,C2,00,00,00,00,00,
38795110,00000100,false,Rx,0,8,00,00,00,00,8E,01,C8,00,
38795362,00000101,false,Rx,0,8,00,FF,FE,00,00,00,00,00,
38795608,00000102,false,Rx,0,8,01,84,01,00,00,01,00,00,
38804254,00000522,false,Rx,0,6,01,08,27,C2,05,00,00,00,
38844874,00000108,false,Rx,0,8,01,F4,01,6C,8E,01,00,00,
38845115,00000109,false,Rx,0,8,01,09,00,08,00,20,FF,FE,
38895107,00000100,false,Rx,0,8,00,00,00,00,8E,01,C8,00,
38895358,00000101,false,Rx,0,8,00,FF,FE,00,00,00,00,00,
38895604,00000102,false,Rx,0,8,01,84,01,00,00,01,00,00,
38937169,00000527,false,Rx,0,6,06,07,13,00,00,00,00,00,
38939120,00000521,false,Rx,0,6,00,00,0A,00,00,00,00,00,
38944870,00000108,false,Rx,0,8,01,F4,01,6C,8E,01,00,00,
38945111,00000109,false,Rx,0,8,01,09,00,08,00,20,FF,FE,
38967445,00000526,false,Rx,0,6,05,0D,07,00,00,00,00,00,
38995106,00000100,false,Rx,0,8,00,00,00,00,8E,01,C8,00,
38995352,00000101,false,Rx,0,8,00,FF,FE,00,00,00,00,00,
38995598,00000102,false,Rx,0,8,01,84,01,00,00,01,00,00,
39041789,00000524,false,Rx,0,6,03,0A,E9,FF,FF,FF,00,00,
39044872,00000108,false,Rx,0,8,01,F4,01,6C,8E,01,00,00,
39045114,00000109,false,Rx,0,8,01,09,00,08,00,24,FF,FE,
39049824,00000523,false,Rx,0,6,02,01,E6,FF,FF,FF,00,00,
39095103,00000100,false,Rx,0,8,00,00,00,00,8E,01,C8,00,
39095356,00000101,false,Rx,0,8,00,FF,FE,00,00,00,00,00,
39095602,00000102,false,Rx,0,8,01,84,01,00,00,01,00,00,
39144880,00000108,false,Rx,0,8,01,F4,01,6C,8E,01,00,00,
39145122,00000109,false,Rx,0,8,01,0A,00,08,00,24,FF,FE,
39195099,00000100,false,Rx,0,8,00,00,00,00,8E,01,C8,00,
39195351,00000101,false,Rx,0,8,00,FF,FE,00,00,00,00,00,
39195597,00000102,false,Rx,0,8,01,84,01,00,00,01,00,00,
39244878,00000108,false,Rx,0,8,01,F4,01,6C,8E,01,00,00,
39245120,00000109,false,Rx,0,8,01,0C,00,08,00,24,FF,FE,
39295100,00000100,false,Rx,0,8,00,00,00,00,8E,01,C8,00,
39295346,00000101,false,Rx,0,8,00,FF,FE,00,00,00,00,00,
39295592,00000102,false,Rx,0,8,01,84,01,00,00,01,00,00,
39344880,00000108,false,Rx,0,8,01,F4,01,6C,8E,01,00,00,
39345123,00000109,false,Rx,0,8,01,0D,00,08,00,24,FF,FE,
39395095,00000100,false,Rx,0,8,00,00,00,00,8E,01,C8,00,
39395347,00000101,false,Rx,0,8,00,FF,FE,00,00,00,00,00,
39395593,00000102,false,Rx,0,8,01,84,01,00,00,01,00,00,
39428307,00000528,false,Rx,0,6,07,02,01,00,00,00,00,00,
39434256,00000522,false,Rx,0,6,01,09,2A,C2,05,00,00,00,
39444883,00000108,false,Rx,0,8,01,F4,01,6C,8E,01,00,00,
39445123,00000109,false,Rx,0,8,01,5A,00,08,00,24,FF,FE,
39464482,00000525,false,Rx,0,6,04,04,C2,00,00,00,00,00,
39495098,00000100,false,Rx,0,8,00,00,00,00,8E,01,C8,00,
39495343,00000101,false,Rx,0,8,00,FF,FE,00,00,00,00,00,
39495589,00000102,false,Rx,0,8,01,84,01,00,00,01,00,00,
39544887,00000108,false,Rx,0,8,01,F4,01,6C,8E,01,00,00,
39545121,00000109,false,Rx,0,8,01,5B,01,08,00,24,FF,FE,
39551013,00000521,false,Rx,0,6,00,01,07,00,00,00,00,00,
39595093,00000100,false,Rx,0,8,00,00,00,00,8E,01,C8,00,
39595345,00000101,false,Rx,0,8,00,FF,FE,00,00,00,00,00,
39595592,00000102,false,Rx,0,8,01,84,01,00,00,01,00,00,
39644883,00000108,false,Rx,0,8,01,F4,01,6C,8E,01,00,00,
39645125,00000109,false,Rx,0,8,01,9B,01,08,00,24,FF,FE,
39657755,00000527,false,Rx,0,6,06,08,13,00,00,00,00,00,
39670113,00000526,false,Rx,0,6,05,0E,FF,FF,FF,FF,00,00,
39695087,00000100,false,Rx,0,8,00,00,00,00,8E,01,C8,00,
39695339,00000101,false,Rx,0,8,00,FF,FE,00,00,00,00,00,
39695586,00000102,false,Rx,0,8,01,84,01,00,00,01,00,00,
39697962,00000523,false,Rx,0,6,02,02,F4,FF,FF,FF,00,00,
39708033,00000524,false,Rx,0,6,03,0B,F0,FF,FF,FF,00,00,
39744886,00000108,false,Rx,0,8,01,F4,01,6C,8E,01,00,00,
39745128,00000109,false,Rx,0,8,01,AE,01,08,00,24,FF,FE,
39795091,00000100,false,Rx,0,8,00,00,00,00,8E,01,C8,00,
39795336,00000101,false,Rx,0,8,00,FF,FE,00,00,00,00,00,
39795581,00000102,false,Rx,0,8,01,84,01,00,00,01,00,00,
39844885,00000108,false,Rx,0,8,01,F4,01,6C,8E,01,00,00,
39845126,00000109,false,Rx,0,8,01,B2,01,08,00,24,FF,FE,
39895085,00000100,false,Rx,0,8,00,00,00,00,8E,01,C8,00,
39895336,00000101,false,Rx,0,8,00,FF,FE,00,00,00,00,00,
39895583,00000102,false,Rx,0,8,01,84,01,00,00,01,00,00,
39944890,00000108,false,Rx,0,8,01,F4,01,6C,8E,01,00,00,
39945138,00000109,false,Rx,0,8,01,B1,01,08,00,24,FF,FE,
39995086,00000100,false,Rx,0,8,00,00,00,00,8E,01,C8,00,
39995332,00000101,false,Rx,0,8,00,FF,FE,00,00,00,00,00,
39995578,00000102,false,Rx,0,8,01,84,01,00,00,01,00,00,
40044896,00000108,false,Rx,0,8,01,F4,01,6C,8E,01,00,00,
40045132,00000109,false,Rx,0,8,01,AF,01,08,00,24,FF,FE,
40064281,00000522,false,Rx,0,6,01,0A,34,C2,05,00,00,00,
40095079,00000100,false,Rx,0,8,00,00,00,00,8E,01,C8,00,
40095332,00000101,false,Rx,0,8,00,FF,FE,00,00,00,00,00,
40095578,00000102,false,Rx,0,8,01,84,01,00,00,01,00,00,
40144896,00000108,false,Rx,0,8,01,F4,01,6C,8E,01,00,00,
40145136,00000109,false,Rx,0,8,01,AD,01,08,00,24,FF,FE,
40148851,00000525,false,Rx,0,6,04,05,C2,00,00,00,00,00,
40162912,00000521,false,Rx,0,6,00,02,06,00,00,00,00,00,
40167322,00000528,false,Rx,0,6,07,03,01,00,00,00,00,00,
40195080,00000100,false,Rx,0,8,00,00,00,00,8E,01,C8,00,
40195333,00000101,false,Rx,0,8,00,FF,FE,00,00,00,00,00,
40195579,00000102,false,Rx,0,8,01,84,01,00,00,01,00,00,
40244901,00000108,false,Rx,0,8,01,F4,01,6C,8E,01,00,00,
40245142,00000109,false,Rx,0,8,01,AA,01,08,00,24,FF,FE,
40295075,00000100,false,Rx,0,8,00,00,00,00,8E,01,C8,00,
40295326,00000101,false,Rx,0,8,00,FF,FE,00,00,00,00,00,
40295572,00000102,false,Rx,0,8,01,84,01,00,00,01,00,00,
40344898,00000108,false,Rx,0,8,01,F4,01,6C,8E,01,00,00,
40345140,00000109,false,Rx,0,8,01,A7,01,08,00,24,FF,FE,
40346085,00000523,false,Rx,0,6,02,03,F4,FF,FF,FF,00,00,
40372587,00000526,false,Rx,0,6,05,0F,04,00,00,00,00,00,
40374273,00000524,false,Rx,0,6,03,0C,E4,FF,FF,FF,00,00,
40378361,00000527,false,Rx,0,6,06,09,13,00,00,00,00,00,
40395073,00000100,false,Rx,0,8,00,00,00,00,8E,01,C8,00,
40395326,00000101,false,Rx,0,8,00,FF,FE,00,00,00,00,00,
40395572,00000102,false,Rx,0,8,01,84,01,00,00,01,00,00,
40444911,00000108,false,Rx,0,8,01,F4,01,6C,8E,01,00,00,
40445152,00000109,false,Rx,0,8,01,A4,01,08,00,24,FF,FE,
40495074,00000100,false,Rx,0,8,00,00,00,00,8E,01,C8,00,
40495326,00000101,false,Rx,0,8,00,FF,FE,00,00,00,00,00,
40495572,00000102,false,Rx,0,8,01,84,01,00,00,01,00,00,
40544906,00000108,false,Rx,0,8,01,F4,01,6C,8E,01,00,00,
40545147,00000109,false,Rx,0,8,01,A1,01,08,00,24,FF,FE,
40595070,00000100,false,Rx,0,8,00,00,00,00,8E,01,C8,00,
40595321,00000101,false,Rx,0,8,00,FF,FE,00,00,00,00,00,
40595568,00000102,false,Rx,0,8,01,84,01,00,00,01,00,00,
40644907,00000108,false,Rx,0,8,01,F4,01,6C,8E,01,00,00,
40645149,00000109,false,Rx,0,8,01,9F,01,08,00,24,FF,FE,
40694299,00000522,false,Rx,0,6,01,0B,21,C2,05,00,00,00,
40695071,00000100,false,Rx,0,8,00,00,00,00,8E,01,C8,00,
40695317,00000101,false,Rx,0,8,00,FF,FE,00,00,00,00,00,
40695563,00000102,false,Rx,0,8,01,84,01,00,00,01,00,00,
40744904,00000108,false,Rx,0,8,01,F4,01,6C,8E,01,00,00,
40745146,00000109,false,Rx,0,8,01,9C,01,08,00,24,FF,FE,
40774828,00000521,false,Rx,0,6,00,03,02,00,00,00,00,00,
40795069,00000100,false,Rx,0,8,00,00,00,00,8E,01,C8,00,
40795314,00000101,false,Rx,0,8,00,FF,FE,00,00,00,00,00,
40795567,00000102,false,Rx,0,8,01,84,01,00,00,01,00,00,
40833222,00000525,false,Rx,0,6,04,06,C2,00,00,00,00,00,
40844909,00000108,false,Rx,0,8,01,F4,01,6C,8E,01,00,00,
40845150,00000109,false,Rx,0,8,01,9A,01,08,00,24,FF,FE,
40895062,00000100,false,Rx,0,8,00,00,00,00,8E,01,C8,00,
40895314,00000101,false,Rx,0,8,00,FF,FE,00,00,00,00,00,
40895560,00000102,false,Rx,0,8,01,84,01,00,00,01,00,00,
40905740,00000528,false,Rx,0,6,07,04,01,00,00,00,00,00,
40944911,00000108,false,Rx,0,8,01,F4,01,6C,8E,01,00,00,
40945153,00000109,false,Rx,0,8,01,98,01,08,00,24,FF,FE,
40994237,00000523,false,Rx,0,6,02,04,EE,FF,FF,FF,00,00,
40995065,00000100,false,Rx,0,8,00,00,00,00,8E,01,C8,00,
40995310,00000101,false,Rx,0,8,00,FF,FE,00,00,00,00,00,
40995556,00000102,false,Rx,0,8,01,84,01,00,00,01,00,00,
41040581,00000524,false,Rx,0,6,03,0D,F5,FF,FF,FF,00,00,
41044916,00000108,false,Rx,0,8,01,F4,01,6C,8E,01,00,00,
41045157,00000109,false,Rx,0,8,01,96,01,08,00,24,FF,FE,
41075085,00000526,false,Rx,0,6,05,00,0A,00,00,00,00,00,
41095058,00000100,false,Rx,0,8,00,00,00,00,8E,01,C8,00,
41095310,00000101,false,Rx,0,8,00,FF,FE,00,00,00,00,00,
41095556,00000102,false,Rx,0,8,01,84,01,00,00,01,00,00,
41098968,00000527,false,Rx,0,6,06,0A,13,00,00,00,00,00,
41144917,00000108,false,Rx,0,8,01,F4,01,6C,8E,01,00,00,
41145152,00000109,false,Rx,0,8,01,94,01,08,00,24,FF,FE,
41195059,00000100,false,Rx,0,8,00,00,00,00,8E,01,C8,00,
41195311,00000101,false,Rx,0,8,00,FF,FE,00,00,00,00,00,
41195557,00000102,false,Rx,0,8,01,84,01,00,00,01,00,00,
41244914,00000108,false,Rx,0,8,01,F4,01,6C,8E,01,00,00,
41245155,00000109,false,Rx,0,8,01,92,01,08,00,24,FF,FE,
41295058,00000100,false,Rx,0,8,00,00,00,00,8E,01,C8,00,
41295310,00000101,false,Rx,0,8,00,FF,FE,00,00,00,00,00,
41295556,00000102,false,Rx,0,8,01,84,01,00,00,01,00,00,
41324340,00000522,false,Rx,0,6,01,0C,28,C2,05,00,00,00,
41344920,00000108,false,Rx,0,8,01,F4,01,6C,8E,01,00,00,
41345155,00000109,false,Rx,0,8,01,8F,01,08,00,24,FF,FE,
41386735,00000521,false,Rx,0,6,00,04,09,00,00,00,00,00,
41395057,00000100,false,Rx,0,8,00,00,00,00,8E,01,C8,00,
41395303,00000101,false,Rx,0,8,00,FF,FE,00,00,00,00,00,
41395549,00000102,false,Rx,0,8,01,84,01,00,00,01,00,00,
41444921,00000108,false,Rx,0,8,01,F4,01,6C,8E,01,00,00,
41445162,00000109,false,Rx,0,8,01,8D,01,08,00,24,FF,FE,
41495050,00000100,false,Rx,0,8,00,00,00,00,8E,01,C8,00,
41495302,00000101,false,Rx,0,8,00,FF,FE,00,00,00,00,00,
41495548,00000102,false,Rx,0,8,01,84,01,00,00,01,00,00,
41517620,00000525,false,Rx,0,6,04,07,C2,00,00,00,00,00,
41544923,00000108,false,Rx,0,8,01,F4,01,6C,8E,01,00,00,
41545165,00000109,false,Rx,0,8,01,89,01,08,00,24,FF,FE,
41595052,00000100,false,Rx,0,8,00,00,00,00,8E,01,C8,00,
41595298,00000101,false,Rx,0,8,00,FF,FE,00,00,00,00,00,
41595543,00000102,false,Rx,0,8,01,84,01,00,00,01,00,00,
41642391,00000523,false,Rx,0,6,02,05,FB,FF,FF,FF,00,00,
41644922,00000108,false,Rx,0,8,01,F4,01,6C,8E,01,00,00,
41645164,00000109,false,Rx,0,8,01,88,01,08,00,24,FF,FE,
41645372,00000528,false,Rx,0,6,07,05,02,00,00,00,00,00,
41695049,00000100,false,Rx,0,8,00,00,00,00,8E,01,C8,00,
41695301,00000101,false,Rx,0,8,00,FF,FE,00,00,00,00,00,
41695547,00000102,false,Rx,0,8,01,84,01,00,00,01,00,00,
41706811,00000524,false,Rx,0,6,03,0E,ED,FF,FF,FF,00,00,
41744925,00000108,false,Rx,0,8,01,F4,01,6C,8E,01,00,00,
41745166,00000109,false,Rx,0,8,01,87,01,08,00,24,FF,FE,
41777546,00000526,false,Rx,0,6,05,01,00,00,00,00,00,00,
41795048,00000100,false,Rx,0,8,00,00,00,00,8E,01,C8,00,
41795293,00000101,false,Rx,0,8,00,FF,FE,00,00,00,00,00,
41795545,00000102,false,Rx,0,8,01,84,01,00,00,01,00,00,
41819587,00000527,false,Rx,0,6,06,0B,13,00,00,00,00,00,
41844935,00000108,false,Rx,0,8,01,F4,01,6C,8E,01,00,00,
41845176,00000109,false,Rx,0,8,01,91,01,08,00,24,FF,FE,
41895045,00000100,false,Rx,0,8,00,00,00,00,8E,01,C8,00,
41895297,00000101,false,Rx,0,8,00,FF,FE,00,00,00,00,00,
41895543,00000102,false,Rx,0,8,01,84,01,00,00,01,00,00,
41944932,00000108,false,Rx,0,8,01,F4,01,6C,8E,01,00,00,
41945167,00000109,false,Rx,0,8,01,97,01,08,00,24,FF,FE,
41954379,00000522,false,Rx,0,6,01,0D,26,C2,05,00,00,00,
41995045,00000100,false,Rx,0,8,00,00,00,00,8E,01,C8,00,
41995291,00000101,false,Rx,0,8,00,FF,FE,00,00,00,00,00,
41995536,00000102,false,Rx,0,8,01,84,01,00,00,01,00,00,
41998657,00000521,false,Rx,0,6,00,05,0B,00,00,00,00,00,
42044928,00000108,false,Rx,0,8,01,F4,01,6C,8E,01,00,00,
42045169,00000109,false,Rx,0,8,01,97,01,08,00,24,FF,FE,
42095038,00000100,false,Rx,0,8,00,00,00,00,8E,01,C8,00,
42095290,00000101,false,Rx,0,8,00,FF,FE,00,00,00,00,00,
42095536,00000102,false,Rx,0,8,01,84,01,00,00,01,00,00,
42144932,00000108,false,Rx,0,8,01,F4,01,6C,8E,01,00,00,
42145174,00000109,false,Rx,0,8,01,95,01,08,00,24,FF,FE,
42195036,00000100,false,Rx,0,8,00,00,00,00,8E,01,C8,00,
42195287,00000101,false,Rx,0,8,00,FF,FE,00,00,00,00,00,
42195533,00000102,false,Rx,0,8,01,84,01,00,00,01,00,00,
42201989,00000525,false,Rx,0,6,04,08,C2,00,00,00,00,00,
42244932,00000108,false,Rx,0,8,01,F4,01,6C,8E,01,00,00,
42245174,00000109,false,Rx,0,8,01,97,01,08,00,24,FF,FE,
42290528,00000523,false,Rx,0,6,02,06,FB,FF,FF,FF,00,00,
42295039,00000100,false,Rx,0,8,00,00,00,00,8E,01,C8,00,
42295285,00000101,false,Rx,0,8,00,FF,FE,00,00,00,00,00,
42295531,00000102,false,Rx,0,8,01,84,01,00,00,01,00,00,
42344936,00000108,false,Rx,0,8,01,F4,01,6C,8E,01,00,00,
42345177,00000109,false,Rx,0,8,01,97,01,08,00,24,FF,FE,
42373066,00000524,false,Rx,0,6,03,0F,F5,FF,FF,FF,00,00,
42383202,00000528,false,Rx,0,6,07,06,02,00,00,00,00,00,
42395034,00000100,false,Rx,0,8,00,00,00,00,8E,01,C8,00,
42395286,00000101,false,Rx,0,8,00,FF,FE,00,00,00,00,00,
42395532,00000102,false,Rx,0,8,01,84,01,00,00,01,00,00,
42444937,00000108,false,Rx,0,8,01,F4,01,6C,8E,01,00,00,
42445179,00000109,false,Rx,0,8,01,97,01,08,00,24,FF,FE,
42480050,00000526,false,Rx,0,6,05,02,07,00,00,00,00,00,
42495033,00000100,false,Rx,0,8,00,00,00,00,8E,01,C8,00,
42495285,00000101,false,Rx,0,8,00,FF,FE,00,00,00,00,00,
42495531,00000102,false,Rx,0,8,01,84,01,00,00,01,00,00,
42540184,00000527,false,Rx,0,6,06,0C,13,00,00,00,00,00,
42544944,00000108,false,Rx,0,8,01,F4,01,6C,8E,01,00,00,
42545186,00000109,false,Rx,0,8,01,97,01,08,00,24,FF,FE,
42584386,00000522,false,Rx,0,6,01,0E,26,C2,05,00,00,00,
42595032,00000100,false,Rx,0,8,00,00,00,00,8E,01,C8,00,
42595278,00000101,false,Rx,0,8,00,FF,FE,00,00,00,00,00,
42595523,00000102,false,Rx,0,8,01,84,01,00,00,01,00,00,
42611170,00000521,false,Rx,0,6,00,06,0A,00,00,00,00,00,
42644945,00000108,false,Rx,0,8,01,F4,01,6C,8E,01,00,00,
42645187,00000109,false,Rx,0,8,01,98,01,08,00,24,FF,FE,
42695030,00000100,false,Rx,0,8,00,00,00,00,8E,01,C8,00,
42695275,00000101,false,Rx,0,8,00,FF,FE,00,00,00,00,00,
42695521,00000102,false,Rx,0,8,01,84,01,00,00,01,00,00,
42744943,00000108,false,Rx,0,8,01,F4,01,6C,8E,01,00,00,
42745184,00000109,false,Rx,0,8,01,98,01,08,00,24,FF,FE,
42795026,00000100,false,Rx,0,8,00,00,00,00,8E,01,C8,00,
42795278,00000101,false,Rx,0,8,00,FF,FE,00,00,00,00,00,
42795525,00000102,false,Rx,0,8,01,84,01,00,00,01,00,00,
42844948,00000108,false,Rx,0,8,01,F4,01,6C,8E,01,00,00,
42845189,00000109,false,Rx,0,8,01,98,01,08,00,24,FF,FE,
42886358,00000525,false,Rx,0,6,04,09,C2,00,00,00,00,00,
42895023,00000100,false,Rx,0,8,00,00,00,00,8E,01,C8,00,
42895275,00000101,false,Rx,0,8,00,FF,FE,00,00,00,00,00,
42895521,00000102,false,Rx,0,8,01,84,01,00,00,01,00,00,
42938672,00000523,false,Rx,0,6,02,07,F5,FF,FF,FF,00,00,
42944947,00000108,false,Rx,0,8,01,F4,01,6C,8E,01,00,00,
42945187,00000109,false,Rx,0,8,01,98,01,08,00,24,FF,FE,
42995019,00000100,false,Rx,0,8,00,00,00,00,8E,01,C8,00,
42995272,00000101,false,Rx,0,8,00,FF,FE,00,00,00,00,00,
42995518,00000102,false,Rx,0,8,01,84,01,00,00,01,00,00,
43039313,00000524,false,Rx,0,6,03,00,01,00,00,00,00,00,
43044957,00000108,false,Rx,0,8,01,F4,01,6C,8E,01,00,00,
43045192,00000109,false,Rx,0,8,01,98,01,08,00,24,FF,FE,
43095021,00000100,false,Rx,0,8,00,00,00,00,8E,01,C8,00,
43095267,00000101,false,Rx,0,8,00,FF,FE,00,00,00,00,00,
43095513,00000102,false,Rx,0,8,01,84,01,00,00,01,00,00,
43121911,00000528,false,Rx,0,6,07,07,02,00,00,00,00,00,
43144951,00000108,false,Rx,0,8,01,F4,01,6C,8E,01,00,00,
43145193,00000109,false,Rx,0,8,01,98,01,08,00,24,FF,FE,
43182353,00000526,false,Rx,0,6,05,03,17,00,00,00,00,00,
43195017,00000100,false,Rx,0,8,00,00,00,00,8E,01,C8,00,
43195270,00000101,false,Rx,0,8,00,FF,FE,00,00,00,00,00,
43195516,00000102,false,Rx,0,8,01,84,01,00,00,01,00,00,
43215016,00000522,false,Rx,0,6,01,0F,32,C2,05,00,00,00,
43224482,00000521,false,Rx,0,6,00,07,05,00,00,00,00,00,
43244951,00000108,false,Rx,0,8,01,F4,01,6C,8E,01,00,00,
43245192,00000109,false,Rx,0,8,01,97,01,08,00,24,FF,FE,
43260784,00000527,false,Rx,0,6,06,0D,13,00,00,00,00,00,
43295017,00000100,false,Rx,0,8,00,00,00,00,8E,01,C8,00,
43295269,00000101,false,Rx,0,8,00,FF,FE,00,00,00,00,00,
43295515,00000102,false,Rx,0,8,01,84,01,00,00,01,00,00,
43344953,00000108,false,Rx,0,8,01,F4,01,6C,8E,01,00,00,
43345194,00000109,false,Rx,0,8,01,98,01,08,00,24,FF,FE,
43395017,00000100,false,Rx,0,8,00,00,00,00,8E,01,C8,00,
43395263,00000101,false,Rx,0,8,00,FF,FE,00,00,00,00,00,
43395509,00000102,false,Rx,0,8,01,84,01,00,00,01,00,00,
43444958,00000108,false,Rx,0,8,01,F4,01,6C,8E,01,00,00,
43445199,00000109,false,Rx,0,8,01,98,01,08,00,24,FF,FE,
43495014,00000100,false,Rx,0,8,00,00,00,00,8E,01,C8,00,
43495260,00000101,false,Rx,0,8,00,FF,FE,00,00,00,00,00,
43495506,00000102,false,Rx,0,8,01,84,01,00,00,01,00,00,
43544960,00000108,false,Rx,0,8,01,F4,01,6C,8E,01,00,00,
43545202,00000109,false,Rx,0,8,01,98,01,08,00,24,FF,FE,
43570728,00000525,false,Rx,0,6,04,0A,C2,00,00,00,00,00,
43586815,00000523,false,Rx,0,6,02,08,00,00,00,00,00,00,
43595011,00000100,false,Rx,0,8,00,00,00,00,8E,01,C8,00,
43595256,00000101,false,Rx,0,8,00,FF,FE,00,00,00,00,00,
43595508,00000102,false,Rx,0,8,01,84,01,00,00,01,00,00,
43644964,00000108,false,Rx,0,8,01,F4,01,6C,8E,01,00,00,
43645199,00000109,false,Rx,0,8,01,98,01,08,00,24,FF,FE,
43695014,00000100,false,Rx,0,8,00,00,00,00,8E,01,C8,00,
43695260,00000101,false,Rx,0,8,00,FF,FE,00,00,00,00,00,
43695499,00000102,false,Rx,0,8,01,84,01,00,00,01,00,00,
43705586,00000524,false,Rx,0,6,03,01,F5,FF,FF,FF,00,00,
43744960,00000108,false,Rx,0,8,01,F4,01,6C,8E,01,00,00,
43745202,00000109,false,Rx,0,8,01,98,01,08,00,24,FF,FE,
43795014,00000100,false,Rx,0,8,00,00,00,00,8E,01,C8,00,
43795254,00000101,false,Rx,0,8,00,FF,FE,00,00,00,00,00,
43795501,00000102,false,Rx,0,8,01,84,01,00,00,01,00,00,
43836390,00000521,false,Rx,0,6,00,08,09,00,00,00,00,00,
43844445,00000522,false,Rx,0,6,01,00,2D,C2,05,00,00,00,
43844962,00000108,false,Rx,0,8,01,F4,01,6C,8E,01,00,00,
43845204,00000109,false,Rx,0,8,01,98,01,08,00,24,FF,FE,
43860632,00000528,false,Rx,0,6,07,08,02,00,00,00,00,00,
43885051,00000526,false,Rx,0,6,05,04,0D,00,00,00,00,00,
43895009,00000100,false,Rx,0,8,00,00,00,00,8E,01,C8,00,
43895255,00000101,false,Rx,0,8,00,FF,FE,00,00,00,00,00,
43895501,00000102,false,Rx,0,8,01,84,01,00,00,01,00,00,
43944968,00000108,false,Rx,0,8,01,F4,01,6C,8E,01,00,00,
43945202,00000109,false,Rx,0,8,01,97,01,08,00,24,FF,FE,
43981394,00000527,false,Rx,0,6,06,0E,13,00,00,00,00,00,
43995006,00000100,false,Rx,0,8,00,00,00,00,8E,01,C8,00,
43995252,00000101,false,Rx,0,8,00,FF,FE,00,00,00,00,00,
43995498,00000102,false,Rx,0,8,01,84,01,00,00,01,00,00,
44044970,00000108,false,Rx,0,8,01,F4,01,6C,8E,01,00,00,
44045212,00000109,false,Rx,0,8,01,98,01,08,00,24,FF,FE,
44094998,00000100,false,Rx,0,8,00,00,00,00,8E,01,C8,00,
44095259,00000101,false,Rx,0,8,00,FF,FE,00,00,00,00,00,
44095492,00000102,false,Rx,0,8,01,84,01,00,00,01,00,00,
44144969,00000108,false,Rx,0,8,01,F4,01,6C,8E,01,00,00,
44145212,00000109,false,Rx,0,8,01,98,01,08,00,24,FF,FE,
44194995,00000100,false,Rx,0,8,00,00,00,00,8E,01,C8,00,
44195256,00000101,false,Rx,0,8,00,FF,FE,00,00,00,00,00,
44195496,00000102,false,Rx,0,8,01,84,01,00,00,01,00,00,
44234968,00000523,false,Rx,0,6,02,09,00,00,00,00,00,00,
44244969,00000108,false,Rx,0,8,01,F4,01,6C,8E,01,00,00,
44245209,00000109,false,Rx,0,8,01,98,01,08,00,24,FF,FE,
44255119,00000525,false,Rx,0,6,04,0B,C2,00,00,00,00,00,
44294993,00000100,false,Rx,0,8,00,00,00,00,8E,01,C8,00,
44295254,00000101,false,Rx,0,8,00,FF,FE,00,00,00,00,00,
44295487,00000102,false,Rx,0,8,01,84,01,00,00,01,00,00,
44344974,00000108,false,Rx,0,8,01,F4,01,6C,8E,01,00,00,
44345210,00000109,false,Rx,0,8,01,97,01,08,00,24,FF,FE,
44371845,00000524,false,Rx,0,6,03,02,FE,FF,FF,FF,00,00,
44394993,00000100,false,Rx,0,8,00,00,00,00,8E,01,C8,00,
44395245,00000101,false,Rx,0,8,00,FF,FE,00,00,00,00,00,
44395491,00000102,false,Rx,0,8,01,84,01,00,00,01,00,00,
44444975,00000108,false,Rx,0,8,01,F4,01,6C,8E,01,00,00,
44445216,00000109,false,Rx,0,8,01,98,01,08,00,24,FF,FE,
44448319,00000521,false,Rx,0,6,00,09,0B,00,00,00,00,00,
44474483,00000522,false,Rx,0,6,01,01,2A,C2,05,00,00,00,
44494995,00000100,false,Rx,0,8,00,00,00,00,8E,01,C8,00,
44495241,00000101,false,Rx,0,8,00,FF,FE,00,00,00,00,00,
44495486,00000102,false,Rx,0,8,01,84,01,00,00,01,00,00,
44544986,00000108,false,Rx,0,8,01,F4,01,6C,8E,01,00,00,
44545220,00000109,false,Rx,0,8,01,98,01,08,00,24,FF,FE,
44587558,00000526,false,Rx,0,6,05,05,06,00,00,00,00,00,
44594994,00000100,false,Rx,0,8,00,00,00,00,8E,01,C8,00,
44595240,00000101,false,Rx,0,8,00,FF,FE,00,00,00,00,00,
44595487,00000102,false,Rx,0,8,01,84,01,00,00,01,00,00,
44599374,00000528,false,Rx,0,6,07,09,02,00,00,00,00,00,
44644986,00000108,false,Rx,0,8,01,F4,01,6C,8E,01,00,00,
44645219,00000109,false,Rx,0,8,01,98,01,08,00,24,FF,FE,
44694995,00000100,false,Rx,0,8,00,00,00,00,8E,01,C8,00,
44695235,00000101,false,Rx,0,8,00,FF,FE,00,00,00,00,00,
44695481,00000102,false,Rx,0,8,01,84,01,00,00,01,00,00,
44702021,00000527,false,Rx,0,6,06,0F,13,00,00,00,00,00,
44744991,00000108,false,Rx,0,8,01,F4,01,6C,8E,01,00,00,
44745225,00000109,false,Rx,0,8,01,98,01,08,00,24,FF,FE,
44794989,00000100,false,Rx,0,8,00,00,00,00,8E,01,C8,00,
44795235,00000101,false,Rx,0,8,00,FF,FE,00,00,00,00,00,
44795481,00000102,false,Rx,0,8,01,84,01,00,00,01,00,00,
44844991,00000108,false,Rx,0,8,01,F4,01,6C,8E,01,00,00,
44845224,00000109,false,Rx,0,8,01,98,01,08,00,24,FF,FE,
44883111,00000523,false,Rx,0,6,02,0A,F2,FF,FF,FF,00,00,
44894992,00000100,false,Rx,0,8,00,00,00,00,8E,01,C8,00,
44895231,00000101,false,Rx,0,8,00,FF,FE,00,00,00,00,00,
44895477,00000102,false,Rx,0,8,01,84,01,00,00,01,00,00,
44939491,00000525,false,Rx,0,6,04,0C,C2,00,00,00,00,00,
44944992,00000108,false,Rx,0,8,01,F4,01,6C,8E,01,00,00,
44945225,00000109,false,Rx,0,8,01,98,01,08,00,24,FF,FE,
44994986,00000100,false,Rx,0,8,00,00,00,00,8E,01,C8,00,
44995232,00000101,false,Rx,0,8,00,FF,FE,00,00,00,00,00,
44995478,00000102,false,Rx,0,8,01,84,01,00,00,01,00,00,
45038112,00000524,false,Rx,0,6,03,03,F0,FF,FF,FF,00,00,
45044995,00000108,false,Rx,0,8,01,F4,01,6C,8E,01,00,00,
45045228,00000109,false,Rx,0,8,01,98,01,08,00,24,FF,FE,
45060548,00000521,false,Rx,0,6,00,0A,0C,00,00,00,00,00,
45094975,00000100,false,Rx,0,8,00,00,00,00,8E,01,C8,00,
45095228,00000101,false,Rx,0,8,00,FF,FE,00,00,00,00,00,
45095474,00000102,false,Rx,0,8,01,84,01,00,00,01,00,00,
45104509,00000522,false,Rx,0,6,01,02,2D,C2,05,00,00,00,
45144994,00000108,false,Rx,0,8,01,F4,01,6C,8E,01,00,00,
45145228,00000109,false,Rx,0,8,01,98,01,08,00,24,FF,FE,
45194973,00000100,false,Rx,0,8,00,00,00,00,8E,01,C8,00,
45195227,00000101,false,Rx,0,8,00,FF,FE,00,00,00,00,00,
45195473,00000102,false,Rx,0,8,01,84,01,00,00,01,00,00,
45244995,00000108,false,Rx,0,8,01,F4,01,6C,8E,01,00,00,
45245228,00000109,false,Rx,0,8,01,98,01,08,00,24,FF,FE,
45290038,00000526,false,Rx,0,6,05,06,10,00,00,00,00,00,
45294971,00000100,false,Rx,0,8,00,00,00,00,8E,01,C8,00,
45295225,00000101,false,Rx,0,8,00,FF,FE,00,00,00,00,00,
45295471,00000102,false,Rx,0,8,01,84,01,00,00,01,00,00,
45338099,00000528,false,Rx,0,6,07,0A,02,00,00,00,00,00,
45344993,00000108,false,Rx,0,8,01,F4,01,6C,8E,01,00,00,
45345233,00000109,false,Rx,0,8,01,98,01,08,00,24,FF,FE,
45394973,00000100,false,Rx,0,8,00,00,00,00,8E,01,C8,00,
45395221,00000101,false,Rx,0,8,00,FF,FE,00,00,00,00,00,
45395466,00000102,false,Rx,0,8,01,84,01,00,00,01,00,00,
45422626,00000527,false,Rx,0,6,06,00,13,00,00,00,00,00,
45444993,00000108,false,Rx,0,8,01,F4,01,6C,8E,01,00,00,
45445240,00000109,false,Rx,0,8,01,97,01,08,00,24,FF,FE,
45494972,00000100,false,Rx,0,8,00,00,00,00,8E,01,C8,00,
45495218,00000101,false,Rx,0,8,00,FF,FE,00,00,00,00,00,
45495465,00000102,false,Rx,0,8,01,84,01,00,00,01,00,00,
45531254,00000523,false,Rx,0,6,02,0B,FC,FF,FF,FF,00,00,
45545007,00000108,false,Rx,0,8,01,F4,01,6C,8E,01,00,00,
45545241,00000109,false,Rx,0,8,01,98,01,08,00,24,FF,FE,
45594968,00000100,false,Rx,0,8,00,00,00,00,8E,01,C8,00,
45595215,00000101,false,Rx,0,8,00,FF,FE,00,00,00,00,00,
45595461,00000102,false,Rx,0,8,01,84,01,00,00,01,00,00,
45623848,00000525,false,Rx,0,6,04,0D,C2,00,00,00,00,00,
45645008,00000108,false,Rx,0,8,01,F4,01,6C,8E,01,00,00,
45645241,00000109,false,Rx,0,8,01,98,01,08,00,24,FF,FE,
45672134,00000521,false,Rx,0,6,00,0B,0C,00,00,00,00,00,
45694967,00000100,false,Rx,0,8,00,00,00,00,8E,01,C8,00,
45695215,00000101,false,Rx,0,8,00,FF,FE,00,00,00,00,00,
45695461,00000102,false,Rx,0,8,01,84,01,00,00,01,00,00,
45704359,00000524,false,Rx,0,6,03,04,F0,FF,FF,FF,00,00,
45734537,00000522,false,Rx,0,6,01,03,2B,C2,05,00,00,00,
45745010,00000108,false,Rx,0,8,01,F4,01,6C,8E,01,00,00,
45745244,00000109,false,Rx,0,8,01,98,01,08,00,24,FF,FE,
45794963,00000100,false,Rx,0,8,00,00,00,00,8E,01,C8,00,
45795216,00000101,false,Rx,0,8,00,FF,FE,00,00,00,00,00,
45795462,00000102,false,Rx,0,8,01,84,01,00,00,01,00,00,
45845007,00000108,false,Rx,0,8,01,F4,01,6C,8E,01,00,00,
45845240,00000109,false,Rx,0,8,01,98,01,08,00,24,FF,FE,
45894959,00000100,false,Rx,0,8,00,00,00,00,8E,01,C8,00,
45895212,00000101,false,Rx,0,8,00,FF,FE,00,00,00,00,00,
45895458,00000102,false,Rx,0,8,01,84,01,00,00,01,00,00,
45945010,00000108,false,Rx,0,8,01,F4,01,6C,8E,01,00,00,
45945243,00000109,false,Rx,0,8,01,98,01,08,00,24,FF,FE,
45992767,00000526,false,Rx,0,6,05,07,FF,FF,FF,FF,00,00,
45994959,00000100,false,Rx,0,8,00,00,00,00,8E,01,C8,00,
45995206,00000101,false,Rx,0,8,00,FF,FE,00,00,00,00,00,
45995452,00000102,false,Rx,0,8,01,84,01,00,00,01,00,00,
46045017,00000108,false,Rx,0,8,01,F4,01,6C,8E,01,00,00,
46045243,00000109,false,Rx,0,8,01,98,01,08,00,24,FF,FE,
46076814,00000528,false,Rx,0,6,07,0B,02,00,00,00,00,00,
46094959,00000100,false,Rx,0,8,00,00,00,00,8E,01,C8,00,
46095206,00000101,false,Rx,0,8,00,FF,FE,00,00,00,00,00,
46095452,00000102,false,Rx,0,8,01,84,01,00,00,01,00,00,
46143230,00000527,false,Rx,0,6,06,01,13,00,00,00,00,00,
46145013,00000108,false,Rx,0,8,01,F4,01,6C,8E,01,00,00,
46145247,00000109,false,Rx,0,8,01,98,01,08,00,24,FF,FE,
46179397,00000523,false,Rx,0,6,02,0C,FC,FF,FF,FF,00,00,
46194957,00000100,false,Rx,0,8,00,00,00,00,8E,01,C8,00,
46195206,00000101,false,Rx,0,8,00,FF,FE,00,00,00,00,00,
46195452,00000102,false,Rx,0,8,01,84,01,00,00,01,00,00,
46245014,00000108,false,Rx,0,8,01,F4,01,6C,8E,01,00,00,
46245253,00000109,false,Rx,0,8,01,98,01,08,00,24,FF,FE,
46284044,00000521,false,Rx,0,6,00,0C,10,00,00,00,00,00,
46294950,00000100,false,Rx,0,8,00,00,00,00,8E,01,C8,00,
46295204,00000101,false,Rx,0,8,00,FF,FE,00,00,00,00,00,
46295450,00000102,false,Rx,0,8,01,84,01,00,00,01,00,00,
46308235,00000525,false,Rx,0,6,04,0E,C2,00,00,00,00,00,
46345012,00000108,false,Rx,0,8,01,F4,01,6C,8E,01,00,00,
46345251,00000109,false,Rx,0,8,01,98,01,08,00,24,FF,FE,
46364561,00000522,false,Rx,0,6,01,04,24,C2,05,00,00,00,
46370627,00000524,false,Rx,0,6,03,05,F8,FF,FF,FF,00,00,
46394951,00000100,false,Rx,0,8,00,00,00,00,8E,01,C8,00,
46395198,00000101,false,Rx,0,8,00,FF,FE,00,00,00,00,00,
46395451,00000102,false,Rx,0,8,01,84,01,00,00,01,00,00,
46445016,00000108,false,Rx,0,8,01,F4,01,6C,8E,01,00,00,
46445256,00000109,false,Rx,0,8,01,98,01,08,00,24,FF,FE,
46494949,00000100,false,Rx,0,8,00,00,00,00,8E,01,C8,00,
46495197,00000101,false,Rx,0,8,00,FF,FE,00,00,00,00,00,
46495443,00000102,false,Rx,0,8,01,84,01,00,00,01,00,00,
46545018,00000108,false,Rx,0,8,01,F4,01,6C,8E,01,00,00,
46545258,00000109,false,Rx,0,8,01,98,01,08,00,24,FF,FE,
46594944,00000100,false,Rx,0,8,00,00,00,00,8E,01,C8,00,
46595198,00000101,false,Rx,0,8,00,FF,FE,00,00,00,00,00,
46595444,00000102,false,Rx,0,8,01,84,01,00,00,01,00,00,
46645016,00000108,false,Rx,0,8,01,F4,01,6C,8E,01,00,00,
46645256,00000109,false,Rx,0,8,01,98,01,08,00,24,FF,FE,
46694948,00000100,false,Rx,0,8,00,00,00,00,8E,01,C8,00,
46695196,00000101,false,Rx,0,8,00,FF,FE,00,00,00,00,00,
46695442,00000102,false,Rx,0,8,01,84,01,00,00,01,00,00,
46695644,00000526,false,Rx,0,6,05,08,04,00,00,00,00,00,
46745025,00000108,false,Rx,0,8,01,F4,01,6C,8E,01,00,00,
46745264,00000109,false,Rx,0,8,01,98,01,08,00,24,FF,FE,
46794945,00000100,false,Rx,0,8,00,00,00,00,8E,01,C8,00,
46795192,00000101,false,Rx,0,8,00,FF,FE,00,00,00,00,00,
46795439,00000102,false,Rx,0,8,01,84,01,00,00,01,00,00,
46815537,00000528,false,Rx,0,6,07,0C,02,00,00,00,00,00,
46827541,00000523,false,Rx,0,6,02,0D,EC,FF,FF,FF,00,00,
46845025,00000108,false,Rx,0,8,01,F4,01,6C,8E,01,00,00,
46845258,00000109,false,Rx,0,8,01,97,01,08,00,24,FF,FE,
46863826,00000527,false,Rx,0,6,06,02,13,00,00,00,00,00,
46894938,00000100,false,Rx,0,8,00,00,00,00,8E,01,C8,00,
46895192,00000101,false,Rx,0,8,00,FF,FE,00,00,00,00,00,
46895438,00000102,false,Rx,0,8,01,84,01,00,00,01,00,00,
46895967,00000521,false,Rx,0,6,00,0D,0A,00,00,00,00,00,
46945024,00000108,false,Rx,0,8,01,F4,01,6C,8E,01,00,00,
46945264,00000109,false,Rx,0,8,01,98,01,08,00,24,FF,FE,
46992610,00000525,false,Rx,0,6,04,0F,C2,00,00,00,00,00,
46994592,00000522,false,Rx,0,6,01,05,34,C2,05,00,00,00,
46994937,00000100,false,Rx,0,8,00,00,00,00,8E,01,C8,00,
46995185,00000101,false,Rx,0,8,00,FF,FE,00,00,00,00,00,
46995430,00000102,false,Rx,0,8,01,84,01,00,00,01,00,00,
47036881,00000524,false,Rx,0,6,03,06,F8,FF,FF,FF,00,00,
47045025,00000108,false,Rx,0,8,01,F4,01,6C,8E,01,00,00,
47045265,00000109,false,Rx,0,8,01,98,01,08,00,24,FF,FE,
47094939,00000100,false,Rx,0,8,00,00,00,00,8E,01,C8,00,
47095187,00000101,false,Rx,0,8,00,FF,FE,00,00,00,00,00,
47095432,00000102,false,Rx,0,8,01,84,01,00,00,01,00,00,
47145030,00000108,false,Rx,0,8,01,F4,01,6C,8E,01,00,00,
47145263,00000109,false,Rx,0,8,01,97,01,08,00,24,FF,FE,
47194932,00000100,false,Rx,0,8,00,00,00,00,8E,01,C8,00,
47195186,00000101,false,Rx,0,8,00,FF,FE,00,00,00,00,00,
47195433,00000102,false,Rx,0,8,01,84,01,00,00,01,00,00,
47245031,00000108,false,Rx,0,8,01,F4,01,6C,8E,01,00,00,
47245271,00000109,false,Rx,0,8,01,98,01,08,00,24,FF,FE,
47294931,00000100,false,Rx,0,8,00,00,00,00,8E,01,C8,00,
47295184,00000101,false,Rx,0,8,00,FF,FE,00,00,00,00,00,
47295430,00000102,false,Rx,0,8,01,84,01,00,00,01,00,00,
47345032,00000108,false,Rx,0,8,01,F4,01,6C,8E,01,00,00,
47345271,00000109,false,Rx,0,8,01,98,01,08,00,24,FF,FE,
47394928,00000100,false,Rx,0,8,00,00,00,00,8E,01,C8,00,
47395182,00000101,false,Rx,0,8,00,FF,FE,00,00,00,00,00,
47395428,00000102,false,Rx,0,8,01,84,01,00,00,01,00,00,
47397305,00000526,false,Rx,0,6,05,09,08,00,00,00,00,00,
47445032,00000108,false,Rx,0,8,01,F4,01,6C,8E,01,00,00,
47445272,00000109,false,Rx,0,8,01,98,01,08,00,24,FF,FE,
47475674,00000523,false,Rx,0,6,02,0E,ED,FF,FF,FF,00,00,
47494926,00000100,false,Rx,0,8,00,00,00,00,8E,01,C8,00,
47495181,00000101,false,Rx,0,8,00,FF,FE,00,00,00,00,00,
47495426,00000102,false,Rx,0,8,01,84,01,00,00,01,00,00,
47507876,00000521,false,Rx,0,6,00,0E,06,00,00,00,00,00,
47545038,00000108,false,Rx,0,8,01,F4,01,6C,8E,01,00,00,
47545277,00000109,false,Rx,0,8,01,98,01,08,00,24,FF,FE,
47554264,00000528,false,Rx,0,6,07,0D,02,00,00,00,00,00,
47584445,00000527,false,Rx,0,6,06,03,13,00,00,00,00,00,
47594926,00000100,false,Rx,0,8,00,00,00,00,8E,01,C8,00,
47595179,00000101,false,Rx,0,8,00,FF,FE,00,00,00,00,00,
47595419,00000102,false,Rx,0,8,01,84,01,00,00,01,00,00,
47624626,00000522,false,Rx,0,6,01,06,3A,C2,05,00,00,00,
47645039,00000108,false,Rx,0,8,01,F4,01,6C,8E,01,00,00,
47645278,00000109,false,Rx,0,8,01,98,01,08,00,24,FF,FE,
47676997,00000525,false,Rx,0,6,04,00,C2,00,00,00,00,00,
47694925,00000100,false,Rx,0,8,00,00,00,00,8E,01,C8,00,
47695174,00000101,false,Rx,0,8,00,FF,FE,00,00,00,00,00,
47695420,00000102,false,Rx,0,8,01,84,01,00,00,01,00,00,
47703152,00000524,false,Rx,0,6,03,07,EB,FF,FF,FF,00,00,
47745041,00000108,false,Rx,0,8,01,F4,01,6C,8E,01,00,00,
47745281,00000109,false,Rx,0,8,01,98,01,08,00,24,FF,FE,
47794924,00000100,false,Rx,0,8,00,00,00,00,8E,01,C8,00,
47795171,00000101,false,Rx,0,8,00,FF,FE,00,00,00,00,00,
47795417,00000102,false,Rx,0,8,01,84,01,00,00,01,00,00,
47845038,00000108,false,Rx,0,8,01,F4,01,6C,8E,01,00,00,
47845284,00000109,false,Rx,0,8,01,98,01,08,00,24,FF,FE,
47894920,00000100,false,Rx,0,8,00,00,00,00,8E,01,C8,00,
47895167,00000101,false,Rx,0,8,00,FF,FE,00,00,00,00,00,
47895413,00000102,false,Rx,0,8,01,84,01,00,00,01,00,00,
47945045,00000108,false,Rx,0,8,01,F4,01,6C,8E,01,00,00,
47945285,00000109,false,Rx,0,8,01,98,01,08,00,24,FF,FE,
47994920,00000100,false,Rx,0,8,00,00,00,00,8E,01,C8,00,
47995168,00000101,false,Rx,0,8,00,FF,FE,00,00,00,00,00,
47995414,00000102,false,Rx,0,8,01,84,01,00,00,01,00,00,
48045041,00000108,false,Rx,0,8,01,F4,01,6C,8E,01,00,00,
48045281,00000109,false,Rx,0,8,01,97,01,08,00,24,FF,FE,
48094914,00000100,false,Rx,0,8,00,00,00,00,8E,01,C8,00,
48095168,00000101,false,Rx,0,8,00,FF,FE,00,00,00,00,00,
48095407,00000102,false,Rx,0,8,01,84,01,00,00,01,00,00,
48100015,00000526,false,Rx,0,6,05,0A,FD,FF,FF,FF,00,00,
48119795,00000521,false,Rx,0,6,00,0F,0C,00,00,00,00,00,
48123834,00000523,false,Rx,0,6,02,0F,ED,FF,FF,FF,00,00,
48145049,00000108,false,Rx,0,8,01,F4,01,6C,8E,01,00,00,
48145288,00000109,false,Rx,0,8,01,98,01,08,00,24,FF,FE,
48194914,00000100,false,Rx,0,8,00,00,00,00,8E,01,C8,00,
48195162,00000101,false,Rx,0,8,00,FF,FE,00,00,00,00,00,
48195408,00000102,false,Rx,0,8,01,84,01,00,00,01,00,00,
48245050,00000108,false,Rx,0,8,01,F4,01,6C,8E,01,00,00,
48245290,00000109,false,Rx,0,8,01,98,01,08,00,24,FF,FE,
48254650,00000522,false,Rx,0,6,01,07,3C,C2,05,00,00,00,
48292985,00000528,false,Rx,0,6,07,0E,02,00,00,00,00,00,
48294909,00000100,false,Rx,0,8,00,00,00,00,8E,01,C8,00,
48295163,00000101,false,Rx,0,8,00,FF,FE,00,00,00,00,00,
48295409,00000102,false,Rx,0,8,01,84,01,00,00,01,00,00,
48305313,00000527,false,Rx,0,6,06,04,13,00,00,00,00,00,
48345048,00000108,false,Rx,0,8,01,F4,01,6C,8E,01,00,00,
48345288,00000109,false,Rx,0,8,01,98,01,08,00,24,FF,FE,
48361366,00000525,false,Rx,0,6,04,01,C2,00,00,00,00,00,
48369403,00000524,false,Rx,0,6,03,08,F0,FF,FF,FF,00,00,
48394912,00000100,false,Rx,0,8,00,00,00,00,8E,01,C8,00,
48395160,00000101,false,Rx,0,8,00,FF,FE,00,00,00,00,00,
48395406,00000102,false,Rx,0,8,01,84,01,00,00,01,00,00,
48445050,00000108,false,Rx,0,8,01,F4,01,6C,8E,01,00,00,
48445289,00000109,false,Rx,0,8,01,98,01,08,00,24,FF,FE,
48494908,00000100,false,Rx,0,8,00,00,00,00,8E,01,C8,00,
48495156,00000101,false,Rx,0,8,00,FF,FE,00,00,00,00,00,
48495401,00000102,false,Rx,0,8,01,84,01,00,00,01,00,00,
48545053,00000108,false,Rx,0,8,01,F4,01,6C,8E,01,00,00,
48545293,00000109,false,Rx,0,8,01,98,01,08,00,24,FF,FE,
48594902,00000100,false,Rx,0,8,00,00,00,00,8E,01,C8,00,
48595155,00000101,false,Rx,0,8,00,FF,FE,00,00,00,00,00,
48595401,00000102,false,Rx,0,8,01,84,01,00,00,01,00,00,
48645054,00000108,false,Rx,0,8,01,F4,01,6C,8E,01,00,00,
48645293,00000109,false,Rx,0,8,01,98,01,08,00,24,FF,FE,
48694902,00000100,false,Rx,0,8,00,00,00,00,8E,01,C8,00,
48695149,00000101,false,Rx,0,8,00,FF,FE,00,00,00,00,00,
48695394,00000102,false,Rx,0,8,01,84,01,00,00,01,00,00,
48731707,00000521,false,Rx,0,6,00,00,04,00,00,00,00,00,
48745055,00000108,false,Rx,0,8,01,F4,01,6C,8E,01,00,00,
48745294,00000109,false,Rx,0,8,01,98,01,08,00,24,FF,FE,
48771973,00000523,false,Rx,0,6,02,00,F6,FF,FF,FF,00,00,
48794901,00000100,false,Rx,0,8,00,00,00,00,8E,01,C8,00,
48795149,00000101,false,Rx,0,8,00,FF,FE,00,00,00,00,00,
48795395,00000102,false,Rx,0,8,01,84,01,00,00,01,00,00,
48802500,00000526,false,Rx,0,6,05,0B,F9,FF,FF,FF,00,00,
48845059,00000108,false,Rx,0,8,01,F4,01,6C,8E,01,00,00,
48845298,00000109,false,Rx,0,8,01,98,01,08,00,24,FF,FE,
48884687,00000522,false,Rx,0,6,01,08,2F,C2,05,00,00,00,
48894901,00000100,false,Rx,0,8,00,00,00,00,8E,01,C8,00,
48895149,00000101,false,Rx,0,8,00,FF,FE,00,00,00,00,00,
48895394,00000102,false,Rx,0,8,01,84,01,00,00,01,00,00,
48945058,00000108,false,Rx,0,8,01,F4,01,6C,8E,01,00,00,
48945298,00000109,false,Rx,0,8,01,98,01,08,00,24,FF,FE,
48994895,00000100,false,Rx,0,8,00,00,00,00,8E,01,C8,00,
48995143,00000101,false,Rx,0,8,00,FF,FE,00,00,00,00,00,
48995388,00000102,false,Rx,0,8,01,84,01,00,00,01,00,00,
49025660,00000527,false,Rx,0,6,06,05,13,00,00,00,00,00,
49031713,00000528,false,Rx,0,6,07,0F,02,00,00,00,00,00,
49035673,00000524,false,Rx,0,6,03,09,F1,FF,FF,FF,00,00,
49045065,00000108,false,Rx,0,8,01,F4,01,6C,8E,01,00,00,
49045305,00000109,false,Rx,0,8,01,98,01,08,00,24,FF,FE,
49045742,00000525,false,Rx,0,6,04,02,C2,00,00,00,00,00,
49094895,00000100,false,Rx,0,8,00,00,00,00,8E,01,C8,00,
49095142,00000101,false,Rx,0,8,00,FF,FE,00,00,00,00,00,
49095388,00000102,false,Rx,0,8,01,84,01,00,00,01,00,00,
49145074,00000108,false,Rx,0,8,01,F4,01,6C,8E,01,00,00,
49145314,00000109,false,Rx,0,8,01,B1,00,08,00,24,FF,FE,
49194895,00000100,false,Rx,0,8,00,00,00,00,8E,01,C8,00,
49195143,00000101,false,Rx,0,8,00,FF,FE,00,00,00,00,00,
49195390,00000102,false,Rx,0,8,01,84,01,00,00,01,00,00,
49245069,00000108,false,Rx,0,8,01,F4,01,6C,8E,01,00,00,
49245308,00000109,false,Rx,0,8,01,3E,00,08,00,24,FF,FE,
49294889,00000100,false,Rx,0,8,00,00,00,00,8E,01,C8,00,
49295143,00000101,false,Rx,0,8,00,FF,FE,00,00,00,00,00,
49295389,00000102,false,Rx,0,8,01,84,01,00,00,01,00,00,
49344174,00000521,false,Rx,0,6,00,01,03,00,00,00,00,00,
49345069,00000108,false,Rx,0,8,01,F4,01,6C,8E,01,00,00,
49345309,00000109,false,Rx,0,8,01,18,00,08,00,24,FF,FE,
49394887,00000100,false,Rx,0,8,00,00,00,00,8E,01,C8,00,
49395139,00000101,false,Rx,0,8,00,FF,FE,00,00,00,00,00,
49395386,00000102,false,Rx,0,8,01,84,01,00,00,01,00,00,
49420123,00000523,false,Rx,0,6,02,01,EF,FF,FF,FF,00,00,
49445069,00000108,false,Rx,0,8,01,F4,01,6C,8E,01,00,00,
49445315,00000109,false,Rx,0,8,01,0D,00,08,00,24,FF,FE,
49494888,00000100,false,Rx,0,8,00,00,00,00,8E,01,C8,00,
49495136,00000101,false,Rx,0,8,00,FF,FE,00,00,00,00,00,
49495382,00000102,false,Rx,0,8,01,84,01,00,00,01,00,00,
49504992,00000526,false,Rx,0,6,05,0C,00,00,00,00,00,00,
49514712,00000522,false,Rx,0,6,01,09,34,C2,05,00,00,00,
49545072,00000108,false,Rx,0,8,01,F4,01,6C,8E,01,00,00,
49545313,00000109,false,Rx,0,8,01,09,00,08,00,24,FF,FE,
49594884,00000100,false,Rx,0,8,00,00,00,00,8E,01,C8,00,
49595137,00000101,false,Rx,0,8,00,FF,FE,00,00,00,00,00,
49595383,00000102,false,Rx,0,8,01,84,01,00,00,01,00,00,
49645075,00000108,false,Rx,0,8,01,F4,01,6C,8E,01,00,00,
49645315,00000109,false,Rx,0,8,01,09,00,08,00,24,FF,FE,
49694885,00000100,false,Rx,0,8,00,00,00,00,8E,01,C8,00,
49695132,00000101,false,Rx,0,8,00,FF,FE,00,00,00,00,00,
49695377,00000102,false,Rx,0,8,01,84,01,00,00,01,00,00,
49701926,00000524,false,Rx,0,6,03,0A,F6,FF,FF,FF,00,00,
49730117,00000525,false,Rx,0,6,04,03,C2,00,00,00,00,00,
49745075,00000108,false,Rx,0,8,01,F4,01,6C,8E,01,00,00,
49745314,00000109,false,Rx,0,8,01,09,00,08,00,24,FF,FE,
49746525,00000527,false,Rx,0,6,06,06,13,00,00,00,00,00,
49770436,00000528,false,Rx,0,6,07,00,02,00,00,00,00,00,
49794883,00000100,false,Rx,0,8,00,00,00,00,8E,01,C8,00,
