Time Stamp,ID,Extended,Dir,Bus,LEN,D1,D2,D3,D4,D5,D6,D7,D8
73851328,00000526,false,Rx,0,6,05,0E,04,00,00,00,00,00,
73992277,00000525,false,Rx,0,6,04,0F,71,00,00,00,00,00,
74097185,00000524,false,Rx,0,6,03,00,EF,FF,FF,FF,00,00,
74165773,00000523,false,Rx,0,6,02,01,E6,FF,FF,FF,00,00,
74197038,00000521,false,Rx,0,6,00,03,F6,FF,FF,FF,00,00,
74198088,00000522,false,Rx,0,6,01,02,E0,A5,05,00,00,00,
74200151,00000528,false,Rx,0,6,07,0D,00,00,00,00,00,00,
74395858,00000527,false,Rx,0,6,06,0E,00,00,00,00,00,00,
74555326,00000526,false,Rx,0,6,05,0F,07,00,00,00,00,00,
74678288,00000525,false,Rx,0,6,04,00,71,00,00,00,00,00,
74765041,00000524,false,Rx,0,6,03,01,F8,FF,FF,FF,00,00,
74810415,00000521,false,Rx,0,6,00,04,F4,FF,FF,FF,00,00,
74816224,00000523,false,Rx,0,6,02,02,EF,FF,FF,FF,00,00,
74829577,00000522,false,Rx,0,6,01,03,D9,A5,05,00,00,00,
74940635,00000528,false,Rx,0,6,07,0E,00,00,00,00,00,00,
75118635,00000527,false,Rx,0,6,06,0F,00,00,00,00,00,00,
75259681,00000526,false,Rx,0,6,05,00,01,00,00,00,00,00,
75364292,00000525,false,Rx,0,6,04,01,71,00,00,00,00,00,
75423789,00000521,false,Rx,0,6,00,05,F4,FF,FF,FF,00,00,
75432881,00000524,false,Rx,0,6,03,02,F0,FF,FF,FF,00,00,
75461104,00000522,false,Rx,0,6,01,04,E0,A5,05,00,00,00,
75465157,00000523,false,Rx,0,6,02,03,EB,FF,FF,FF,00,00,
75681107,00000528,false,Rx,0,6,07,0F,00,00,00,00,00,00,
75840504,00000527,false,Rx,0,6,06,00,00,00,00,00,00,00,
75963900,00000526,false,Rx,0,6,05,01,06,00,00,00,00,00,
76037143,00000521,false,Rx,0,6,00,06,F3,FF,FF,FF,00,00,
76050290,00000525,false,Rx,0,6,04,02,71,00,00,00,00,00,
76092613,00000522,false,Rx,0,6,01,05,CF,A5,05,00,00,00,
76100712,00000524,false,Rx,0,6,03,03,F8,FF,FF,FF,00,00,
76114822,00000523,false,Rx,0,6,02,04,EB,FF,FF,FF,00,00,
76421575,00000528,false,Rx,0,6,07,00,00,00,00,00,00,00,
76562798,00000527,false,Rx,0,6,06,01,00,00,00,00,00,00,
76650502,00000521,false,Rx,0,6,00,07,F6,FF,FF,FF,00,00,
76667986,00000526,false,Rx,0,6,05,02,04,00,00,00,00,00,
76724143,00000522,false,Rx,0,6,01,06,D2,A5,05,00,00,00,
76736269,00000525,false,Rx,0,6,04,03,71,00,00,00,00,00,
76764499,00000523,false,Rx,0,6,02,05,EB,FF,FF,FF,00,00,
76768557,00000524,false,Rx,0,6,03,04,E5,FF,FF,FF,00,00,
77162024,00000528,false,Rx,0,6,07,01,00,00,00,00,00,00,
77263832,00000521,false,Rx,0,6,00,08,F7,FF,FF,FF,00,00,
77285090,00000527,false,Rx,0,6,06,02,00,00,00,00,00,00,
77355638,00000522,false,Rx,0,6,01,07,DC,A5,05,00,00,00,
77372120,00000526,false,Rx,0,6,05,03,04,00,00,00,00,00,
77414155,00000523,false,Rx,0,6,02,06,E1,FF,FF,FF,00,00,
77422235,00000525,false,Rx,0,6,04,04,71,00,00,00,00,00,
77436357,00000524,false,Rx,0,6,03,05,F3,FF,FF,FF,00,00,
77877179,00000521,false,Rx,0,6,00,09,F4,FF,FF,FF,00,00,
77902898,00000528,false,Rx,0,6,07,02,00,00,00,00,00,00,
77987132,00000522,false,Rx,0,6,01,08,E8,A5,05,00,00,00,
78007377,00000527,false,Rx,0,6,06,03,00,00,00,00,00,00,
78063805,00000523,false,Rx,0,6,02,07,E2,FF,FF,FF,00,00,
78076202,00000526,false,Rx,0,6,05,04,07,00,00,00,00,00,
78104171,00000524,false,Rx,0,6,03,06,F7,FF,FF,FF,00,00,
78108218,00000525,false,Rx,0,6,04,05,72,00,00,00,00,00,
78490520,00000521,false,Rx,0,6,00,0A,F4,FF,FF,FF,00,00,
78618633,00000522,false,Rx,0,6,01,09,DC,A5,05,00,00,00,
78642934,00000528,false,Rx,0,6,07,03,00,00,00,00,00,00,
78713495,00000523,false,Rx,0,6,02,08,E2,FF,FF,FF,00,00,
78729687,00000527,false,Rx,0,6,06,04,00,00,00,00,00,00,
78772008,00000524,false,Rx,0,6,03,07,E9,FF,FF,FF,00,00,
78780341,00000526,false,Rx,0,6,05,05,01,00,00,00,00,00,
78794213,00000525,false,Rx,0,6,04,06,71,00,00,00,00,00,
79103885,00000521,false,Rx,0,6,00,0B,F5,FF,FF,FF,00,00,
79250160,00000522,false,Rx,0,6,01,0A,D2,A5,05,00,00,00,
79363169,00000523,false,Rx,0,6,02,09,F6,FF,FF,FF,00,00,
79383420,00000528,false,Rx,0,6,07,04,00,00,00,00,00,00,
79439835,00000524,false,Rx,0,6,03,08,F4,FF,FF,FF,00,00,
79452016,00000527,false,Rx,0,6,06,05,00,00,00,00,00,00,
79480211,00000525,false,Rx,0,6,04,07,72,00,00,00,00,00,
79484543,00000526,false,Rx,0,6,05,06,0A,00,00,00,00,00,
79717277,00000521,false,Rx,0,6,00,0C,F6,FF,FF,FF,00,00,
79881680,00000522,false,Rx,0,6,01,0B,E2,A5,05,00,00,00,
80012836,00000523,false,Rx,0,6,02,0A,EF,FF,FF,FF,00,00,
80107681,00000524,false,Rx,0,6,03,09,EB,FF,FF,FF,00,00,
80123876,00000528,false,Rx,0,6,07,05,00,00,00,00,00,00,
80166191,00000525,false,Rx,0,6,04,08,71,00,00,00,00,00,
80174312,00000527,false,Rx,0,6,06,06,00,00,00,00,00,00,
80188503,00000526,false,Rx,0,6,05,07,03,00,00,00,00,00,
80330608,00000521,false,Rx,0,6,00,0D,FB,FF,FF,FF,00,00,
80513177,00000522,false,Rx,0,6,01,0C,E6,A5,05,00,00,00,
80662503,00000523,false,Rx,0,6,02,0B,EF,FF,FF,FF,00,00,
80775497,00000524,false,Rx,0,6,03,0A,EC,FF,FF,FF,00,00,
80852164,00000525,false,Rx,0,6,04,09,72,00,00,00,00,00,
80864328,00000528,false,Rx,0,6,07,06,00,00,00,00,00,00,
80892828,00000526,false,Rx,0,6,05,08,08,00,00,00,00,00,
80897058,00000527,false,Rx,0,6,06,07,00,00,00,00,00,00,
80944947,00000521,false,Rx,0,6,00,0E,F6,FF,FF,FF,00,00,
81144683,00000522,false,Rx,0,6,01,0D,E1,A5,05,00,00,00,
81313734,00000523,false,Rx,0,6,02,0C,00,00,00,00,00,00,
81443610,00000524,false,Rx,0,6,03,0B,EC,FF,FF,FF,00,00,
81538136,00000525,false,Rx,0,6,04,0A,71,00,00,00,00,00,
81558299,00000521,false,Rx,0,6,00,0F,F2,FF,FF,FF,00,00,
81596965,00000526,false,Rx,0,6,05,09,01,00,00,00,00,00,
81604786,00000528,false,Rx,0,6,07,07,00,00,00,00,00,00,
81618896,00000527,false,Rx,0,6,06,08,00,00,00,00,00,00,
81776736,00000522,false,Rx,0,6,01,0E,E9,A5,05,00,00,00,
81961810,00000523,false,Rx,0,6,02,0D,F5,FF,FF,FF,00,00,
82111121,00000524,false,Rx,0,6,03,0C,F7,FF,FF,FF,00,00,
82172969,00000521,false,Rx,0,6,00,00,F6,FF,FF,FF,00,00,
82184558,00000100,false,Rx,0,8,00,00,00,00,9A,01,C8,00,
82184811,00000101,false,Rx,0,8,00,FF,FE,00,00,00,00,00,
82185056,00000102,false,Rx,0,8,01,90,01,00,00,00,00,00,
82224117,00000525,false,Rx,0,6,04,0B,71,00,00,00,00,00,
82281964,00000100,false,Rx,0,8,00,00,00,00,9A,01,C8,00,
82282222,00000101,false,Rx,0,8,00,FF,FE,00,00,00,00,00,
82284744,00000102,false,Rx,0,8,01,90,01,00,00,00,00,00,
82301053,00000526,false,Rx,0,6,05,0A,01,00,00,00,00,00,
82342314,00000527,false,Rx,0,6,06,09,00,00,00,00,00,00,
82342549,00000527,false,Rx,0,6,06,09,00,00,00,00,00,00,
82342788,00000527,false,Rx,0,6,06,09,00,00,00,00,00,00,
82343021,00000527,false,Rx,0,6,06,09,00,00,00,00,00,00,
82343261,00000527,false,Rx,0,6,06,09,00,00,00,00,00,00,
82343502,00000527,false,Rx,0,6,06,09,00,00,00,00,00,00,
82345229,00000528,false,Rx,0,6,07,08,00,00,00,00,00,00,
82380561,00000100,false,Rx,0,8,00,00,00,00,9A,01,C8,00,
82380825,00000101,false,Rx,0,8,00,FF,FE,00,00,00,00,00,
82381089,00000102,false,Rx,0,8,01,90,01,00,00,00,00,00,
82407697,00000522,false,Rx,0,6,01,0F,DF,A5,05,00,00,00,
82407930,00000522,false,Rx,0,6,01,0F,DF,A5,05,00,00,00,
82408169,00000522,false,Rx,0,6,01,0F,DF,A5,05,00,00,00,
82408404,00000522,false,Rx,0,6,01,0F,DF,A5,05,00,00,00,
82480561,00000100,false,Rx,0,8,00,00,00,00,9A,01,C8,00,
82480828,00000101,false,Rx,0,8,00,FF,FE,00,00,00,00,00,
82481092,00000102,false,Rx,0,8,01,90,01,00,00,00,00,00,
82580562,00000100,false,Rx,0,8,00,00,00,00,9A,01,C8,00,
82580827,00000101,false,Rx,0,8,00,FF,FE,00,00,00,00,00,
82581091,00000102,false,Rx,0,8,01,90,01,00,00,00,00,00,
82611467,00000523,false,Rx,0,6,02,0E,F5,FF,FF,FF,00,00,
82680559,00000100,false,Rx,0,8,00,00,00,00,9A,01,C8,00,
82680824,00000101,false,Rx,0,8,00,FF,FE,00,00,00,00,00,
82681088,00000102,false,Rx,0,8,01,90,01,00,00,00,00,00,
82778943,00000524,false,Rx,0,6,03,0D,EC,FF,FF,FF,00,00,
82780556,00000100,false,Rx,0,8,00,00,00,00,9A,01,C8,00,
82780816,00000101,false,Rx,0,8,00,FF,FE,00,00,00,00,00,
82781087,00000102,false,Rx,0,8,01,90,01,00,00,00,00,00,
82784978,00000521,false,Rx,0,6,00,01,F3,FF,FF,FF,00,00,
82880549,00000100,false,Rx,0,8,00,00,00,00,9A,01,C8,00,
82880820,00000101,false,Rx,0,8,00,FF,FE,00,00,00,00,00,
82881084,00000102,false,Rx,0,8,01,90,01,00,00,00,00,00,
82910097,00000525,false,Rx,0,6,04,0C,71,00,00,00,00,00,
82980549,00000100,false,Rx,0,8,00,00,00,00,9A,01,C8,00,
82980814,00000101,false,Rx,0,8,00,FF,FE,00,00,00,00,00,
82981078,00000102,false,Rx,0,8,01,90,01,00,00,00,00,00,
83005049,00000526,false,Rx,0,6,05,0B,08,00,00,00,00,00,
83039200,00000522,false,Rx,0,6,01,00,E5,A5,05,00,00,00,
83063470,00000527,false,Rx,0,6,06,0A,00,00,00,00,00,00,
83080546,00000100,false,Rx,0,8,00,00,00,00,9A,01,C8,00,
83080814,00000101,false,Rx,0,8,00,FF,FE,00,00,00,00,00,
83081080,00000102,false,Rx,0,8,01,90,01,00,00,00,00,00,
83085677,00000528,false,Rx,0,6,07,09,00,00,00,00,00,00,
83085917,00000528,false,Rx,0,6,07,09,00,00,00,00,00,00,
83086149,00000528,false,Rx,0,6,07,09,00,00,00,00,00,00,
83086390,00000528,false,Rx,0,6,07,09,00,00,00,00,00,00,
83180549,00000100,false,Rx,0,8,00,00,00,00,9A,01,C8,00,
83180813,00000101,false,Rx,0,8,00,FF,FE,00,00,00,00,00,
83181074,00000102,false,Rx,0,8,01,90,01,00,00,01,00,00,
83261147,00000523,false,Rx,0,6,02,0F,01,00,00,00,00,00,
83280546,00000100,false,Rx,0,8,00,00,00,00,9A,01,C8,00,
83280811,00000101,false,Rx,0,8,00,FF,FE,00,00,00,00,00,
83281074,00000102,false,Rx,0,8,01,90,01,00,00,01,00,00,
83380540,00000100,false,Rx,0,8,00,00,00,00,9A,01,C8,00,
83380811,00000101,false,Rx,0,8,00,FF,FE,00,00,00,00,00,
83381072,00000102,false,Rx,0,8,01,90,01,00,00,01,00,00,
83398324,00000521,false,Rx,0,6,00,02,F1,FF,FF,FF,00,00,
83446753,00000524,false,Rx,0,6,03,0E,F3,FF,FF,FF,00,00,
83480544,00000100,false,Rx,0,8,00,00,00,00,9A,01,C8,00,
83480808,00000101,false,Rx,0,8,00,FF,FE,00,00,00,00,00,
83481072,00000102,false,Rx,0,8,01,90,01,00,00,01,00,00,
83580539,00000100,false,Rx,0,8,00,00,00,00,9A,01,C8,00,
83580803,00000101,false,Rx,0,8,00,FF,FE,00,00,00,00,00,
83581070,00000102,false,Rx,0,8,01,90,01,00,00,01,00,00,
83596057,00000525,false,Rx,0,6,04,0D,71,00,00,00,00,00,
83670685,00000522,false,Rx,0,6,01,01,D8,A5,05,00,00,00,
83670918,00000522,false,Rx,0,6,01,01,D8,A5,05,00,00,00,
83671151,00000522,false,Rx,0,6,01,01,D8,A5,05,00,00,00,
83671379,00000522,false,Rx,0,6,01,01,D8,A5,05,00,00,00,
83671614,00000522,false,Rx,0,6,01,01,D8,A5,05,00,00,00,
83671847,00000522,false,Rx,0,6,01,01,D8,A5,05,00,00,00,
83672074,00000522,false,Rx,0,6,01,01,D8,A5,05,00,00,00,
83680538,00000100,false,Rx,0,8,00,00,00,00,9A,01,C8,00,
83680803,00000101,false,Rx,0,8,00,FF,FE,00,00,00,00,00,
83681403,00000102,false,Rx,0,8,01,90,01,00,00,01,00,00,
83776280,00000526,false,Rx,0,6,05,0C,08,00,00,00,00,00,
83780531,00000100,false,Rx,0,8,00,00,00,00,9A,01,C8,00,
83780802,00000101,false,Rx,0,8,00,FF,FE,00,00,00,00,00,
83781059,00000102,false,Rx,0,8,01,90,01,00,00,01,00,00,
83785757,00000527,false,Rx,0,6,06,0B,00,00,00,00,00,00,
83826119,00000528,false,Rx,0,6,07,0A,00,00,00,00,00,00,
83886436,00000100,false,Rx,0,8,00,00,00,00,9A,01,C8,00,
83888562,00000101,false,Rx,0,8,00,FF,FE,00,00,00,00,00,
83888808,00000102,false,Rx,0,8,01,90,01,00,00,01,00,00,
83910796,00000523,false,Rx,0,6,02,00,FC,FF,FF,FF,00,00,
83980533,00000100,false,Rx,0,8,00,00,00,00,9A,01,C8,00,
83982657,00000101,false,Rx,0,8,00,FF,FE,00,00,00,00,00,
83982904,00000102,false,Rx,0,8,01,90,01,00,00,01,00,00,
84012341,00000521,false,Rx,0,6,00,03,F6,FF,FF,FF,00,00,
84083879,00000100,false,Rx,0,8,00,00,00,00,9A,01,C8,00,
84084143,00000101,false,Rx,0,8,00,FF,FE,00,00,00,00,00,
84084409,00000102,false,Rx,0,8,01,90,01,00,00,01,00,00,
84114581,00000524,false,Rx,0,6,03,0F,F0,FF,FF,FF,00,00,
84185304,00000100,false,Rx,0,8,00,00,00,00,9A,01,C8,00,
84187960,00000101,false,Rx,0,8,00,FF,FE,00,00,00,00,00,
84188212,00000102,false,Rx,0,8,01,90,01,00,00,01,00,00,
84280525,00000100,false,Rx,0,8,00,00,00,00,9A,01,C8,00,
84282646,00000101,false,Rx,0,8,00,FF,FE,00,00,00,00,00,
84282898,00000102,false,Rx,0,8,01,90,01,00,00,01,00,00,
84283101,00000525,false,Rx,0,6,04,0E,71,00,00,00,00,00,
84302195,00000522,false,Rx,0,6,01,02,DA,A5,05,00,00,00,
84382774,00000100,false,Rx,0,8,00,00,00,00,9A,01,C8,00,
84383038,00000101,false,Rx,0,8,00,FF,FE,00,00,00,00,00,
84383309,00000102,false,Rx,0,8,01,90,01,00,00,01,00,00,
84413321,00000526,false,Rx,0,6,05,0D,FD,FF,FF,FF,00,00,
84481084,00000100,false,Rx,0,8,00,00,00,00,9A,01,C8,00,
84481350,00000101,false,Rx,0,8,00,FF,FE,00,00,00,00,00,
84481615,00000102,false,Rx,0,8,01,90,01,00,00,01,00,00,
84510588,00000527,false,Rx,0,6,06,0C,00,00,00,00,00,00,
84560823,00000523,false,Rx,0,6,02,01,FC,FF,FF,FF,00,00,
84567290,00000528,false,Rx,0,6,07,0B,00,00,00,00,00,00,
84567531,00000528,false,Rx,0,6,07,0B,00,00,00,00,00,00,
84567770,00000528,false,Rx,0,6,07,0B,00,00,00,00,00,00,
84568004,00000528,false,Rx,0,6,07,0B,00,00,00,00,00,00,
84568244,00000528,false,Rx,0,6,07,0B,00,00,00,00,00,00,
84568483,00000528,false,Rx,0,6,07,0B,00,00,00,00,00,00,
84568718,00000528,false,Rx,0,6,07,0B,00,00,00,00,00,00,
84568958,00000528,false,Rx,0,6,07,0B,00,00,00,00,00,00,
84569197,00000528,false,Rx,0,6,07,0B,00,00,00,00,00,00,
84569432,00000528,false,Rx,0,6,07,0B,00,00,00,00,00,00,
84580518,00000100,false,Rx,0,8,00,00,00,00,9A,01,C8,00,
84580782,00000101,false,Rx,0,8,00,FF,FE,00,00,00,00,00,
84581047,00000102,false,Rx,0,8,01,90,01,00,00,01,00,00,
84625027,00000521,false,Rx,0,6,00,04,F5,FF,FF,FF,00,00,
84680522,00000100,false,Rx,0,8,00,00,00,00,9A,01,C8,00,
84680780,00000101,false,Rx,0,8,00,FF,FE,00,00,00,00,00,
84681045,00000102,false,Rx,0,8,01,90,01,00,00,01,00,00,
84780521,00000100,false,Rx,0,8,00,00,00,00,9A,01,C8,00,
84780779,00000101,false,Rx,0,8,00,FF,FE,00,00,00,00,00,
84781044,00000102,false,Rx,0,8,01,90,01,00,00,01,00,00,
84782415,00000524,false,Rx,0,6,03,00,F2,FF,FF,FF,00,00,
84880518,00000100,false,Rx,0,8,00,00,00,00,9A,01,C8,00,
84880776,00000101,false,Rx,0,8,00,FF,FE,00,00,00,00,00,
84881040,00000102,false,Rx,0,8,01,90,01,00,00,01,00,00,
84933723,00000522,false,Rx,0,6,01,03,DC,A5,05,00,00,00,
84933949,00000522,false,Rx,0,6,01,03,DC,A5,05,00,00,00,
84934183,00000522,false,Rx,0,6,01,03,DC,A5,05,00,00,00,
84934417,00000522,false,Rx,0,6,01,03,DC,A5,05,00,00,00,
84934651,00000522,false,Rx,0,6,01,03,DC,A5,05,00,00,00,
84934884,00000522,false,Rx,0,6,01,03,DC,A5,05,00,00,00,
84935111,00000522,false,Rx,0,6,01,03,DC,A5,05,00,00,00,
84935346,00000522,false,Rx,0,6,01,03,DC,A5,05,00,00,00,
84980514,00000100,false,Rx,0,8,00,00,00,00,9A,01,C8,00,
84981035,00000101,false,Rx,0,8,00,FF,FE,00,00,00,00,00,
84981046,00000102,false,Rx,0,8,01,90,01,00,00,01,00,00,
85040267,00000525,false,Rx,0,6,04,0F,71,00,00,00,00,00,
85087457,00000100,false,Rx,0,8,00,00,00,00,9A,01,C8,00,
85087705,00000101,false,Rx,0,8,00,FF,FE,00,00,00,00,00,
85087957,00000102,false,Rx,0,8,01,90,01,00,00,01,00,00,
85117669,00000526,false,Rx,0,6,05,0E,FF,FF,FF,FF,00,00,
85181567,00000100,false,Rx,0,8,00,00,00,00,9A,01,C8,00,
85181819,00000101,false,Rx,0,8,00,FF,FE,00,00,00,00,00,
85182064,00000102,false,Rx,0,8,01,90,01,00,00,01,00,00,
85210150,00000523,false,Rx,0,6,02,02,F6,FF,FF,FF,00,00,
85230384,00000527,false,Rx,0,6,06,0D,00,00,00,00,00,00,
85238388,00000521,false,Rx,0,6,00,05,FB,FF,FF,FF,00,00,
85280504,00000100,false,Rx,0,8,00,00,00,00,9A,01,C8,00,
85280757,00000101,false,Rx,0,8,00,FF,FE,00,00,00,00,00,
85280996,00000102,false,Rx,0,8,01,90,01,00,00,01,00,00,
85308880,00000528,false,Rx,0,6,07,0C,00,00,00,00,00,00,
85383759,00000100,false,Rx,0,8,00,00,00,00,9A,01,C8,00,
85386014,00000101,false,Rx,0,8,00,FF,FE,00,00,00,00,00,
85386272,00000102,false,Rx,0,8,01,90,01,00,00,01,00,00,
85450254,00000524,false,Rx,0,6,03,01,F9,FF,FF,FF,00,00,
85490109,00000100,false,Rx,0,8,00,00,00,00,9A,01,C8,00,
85490375,00000101,false,Rx,0,8,00,FF,FE,00,00,00,00,00,
85490640,00000102,false,Rx,0,8,01,90,01,00,00,01,00,00,
85566574,00000522,false,Rx,0,6,01,04,EB,A5,05,00,00,00,
85580504,00000100,false,Rx,0,8,00,00,00,00,9A,01,C8,00,
85580762,00000101,false,Rx,0,8,00,FF,FE,00,00,00,00,00,
85584405,00000102,false,Rx,0,8,01,90,01,00,00,01,00,00,
85654037,00000525,false,Rx,0,6,04,00,71,00,00,00,00,00,
85688131,00000100,false,Rx,0,8,00,00,00,00,9A,01,C8,00,
85688377,00000101,false,Rx,0,8,00,FF,FE,00,00,00,00,00,
85688624,00000102,false,Rx,0,8,01,90,01,00,00,01,00,00,
85780499,00000100,false,Rx,0,8,00,00,00,00,9A,01,C8,00,
85782449,00000101,false,Rx,0,8,00,FF,FE,00,00,00,00,00,
85782708,00000102,false,Rx,0,8,01,90,01,00,00,01,00,00,
85821815,00000526,false,Rx,0,6,05,0F,05,00,00,00,00,00,
85852398,00000521,false,Rx,0,6,00,06,F6,FF,FF,FF,00,00,
85852633,00000521,false,Rx,0,6,00,06,F6,FF,FF,FF,00,00,
85852860,00000521,false,Rx,0,6,00,06,F6,FF,FF,FF,00,00,
85853093,00000521,false,Rx,0,6,00,06,F6,FF,FF,FF,00,00,
85853328,00000521,false,Rx,0,6,00,06,F6,FF,FF,FF,00,00,
85859820,00000523,false,Rx,0,6,02,03,FC,FF,FF,FF,00,00,
85880494,00000100,false,Rx,0,8,00,00,00,00,9A,01,C8,00,
85880752,00000101,false,Rx,0,8,00,FF,FE,00,00,00,00,00,
85881017,00000102,false,Rx,0,8,01,90,01,00,00,01,00,00,
85953126,00000527,false,Rx,0,6,06,0E,00,00,00,00,00,00,
85980497,00000100,false,Rx,0,8,00,00,00,00,9A,01,C8,00,
85980755,00000101,false,Rx,0,8,00,FF,FE,00,00,00,00,00,
85981019,00000102,false,Rx,0,8,01,90,01,00,00,01,00,00,
86047520,00000528,false,Rx,0,6,07,0D,00,00,00,00,00,00,
86047753,00000528,false,Rx,0,6,07,0D,00,00,00,00,00,00,
86047986,00000528,false,Rx,0,6,07,0D,00,00,00,00,00,00,
86048226,00000528,false,Rx,0,6,07,0D,00,00,00,00,00,00,
86048461,00000528,false,Rx,0,6,07,0D,00,00,00,00,00,00,
86048695,00000528,false,Rx,0,6,07,0D,00,00,00,00,00,00,
86048928,00000528,false,Rx,0,6,07,0D,00,00,00,00,00,00,
86080492,00000100,false,Rx,0,8,00,00,00,00,9A,01,C8,00,
86080751,00000101,false,Rx,0,8,00,FF,FE,00,00,00,00,00,
86081015,00000102,false,Rx,0,8,01,90,01,00,00,01,00,00,
86118073,00000524,false,Rx,0,6,03,02,F2,FF,FF,FF,00,00,
86180496,00000100,false,Rx,0,8,00,00,00,00,9A,01,C8,00,
86180748,00000101,false,Rx,0,8,00,FF,FE,00,00,00,00,00,
86181012,00000102,false,Rx,0,8,01,90,01,00,00,01,00,00,
86196740,00000522,false,Rx,0,6,01,05,E6,A5,05,00,00,00,
86280478,00000100,false,Rx,0,8,00,00,00,00,9A,01,C8,00,
86280744,00000101,false,Rx,0,8,00,FF,FE,00,00,00,00,00,
86281008,00000102,false,Rx,0,8,01,90,01,00,00,01,00,00,
86340014,00000525,false,Rx,0,6,04,01,71,00,00,00,00,00,
86380477,00000100,false,Rx,0,8,00,00,00,00,9A,01,C8,00,
86380746,00000101,false,Rx,0,8,00,FF,FE,00,00,00,00,00,
86381010,00000102,false,Rx,0,8,01,90,01,00,00,01,00,00,
86465084,00000521,false,Rx,0,6,00,07,F2,FF,FF,FF,00,00,
86480474,00000100,false,Rx,0,8,00,00,00,00,9A,01,C8,00,
86480743,00000101,false,Rx,0,8,00,FF,FE,00,00,00,00,00,
86481007,00000102,false,Rx,0,8,01,90,01,00,00,01,00,00,
86509477,00000523,false,Rx,0,6,02,04,FC,FF,FF,FF,00,00,
86526157,00000526,false,Rx,0,6,05,00,FF,FF,FF,FF,00,00,
86580477,00000100,false,Rx,0,8,00,00,00,00,9A,01,C8,00,
86580736,00000101,false,Rx,0,8,00,FF,FE,00,00,00,00,00,
86581007,00000102,false,Rx,0,8,01,90,01,00,00,01,00,00,
86674994,00000527,false,Rx,0,6,06,0F,00,00,00,00,00,00,
86680474,00000100,false,Rx,0,8,00,00,00,00,9A,01,C8,00,
86680737,00000101,false,Rx,0,8,00,FF,FE,00,00,00,00,00,
86681001,00000102,false,Rx,0,8,01,90,01,00,00,01,00,00,
86780467,00000100,false,Rx,0,8,00,00,00,00,9A,01,C8,00,
86780733,00000101,false,Rx,0,8,00,FF,FE,00,00,00,00,00,
86780997,00000102,false,Rx,0,8,01,90,01,00,00,01,00,00,
86785897,00000524,false,Rx,0,6,03,03,F9,FF,FF,FF,00,00,
86787983,00000528,false,Rx,0,6,07,0E,00,00,00,00,00,00,
86828248,00000522,false,Rx,0,6,01,06,D3,A5,05,00,00,00,
86880470,00000100,false,Rx,0,8,00,00,00,00,9A,01,C8,00,
86880736,00000101,false,Rx,0,8,00,FF,FE,00,00,00,00,00,
86881001,00000102,false,Rx,0,8,01,90,01,00,00,01,00,00,
86980469,00000100,false,Rx,0,8,00,00,00,00,9A,01,C8,00,
86980746,00000101,false,Rx,0,8,00,FF,FE,00,00,00,00,00,
86981000,00000102,false,Rx,0,8,01,90,01,00,00,01,00,00,
87026002,00000525,false,Rx,0,6,04,02,71,00,00,00,00,00,
87078435,00000521,false,Rx,0,6,00,08,F3,FF,FF,FF,00,00,
87078670,00000521,false,Rx,0,6,00,08,F3,FF,FF,FF,00,00,
87078903,00000521,false,Rx,0,6,00,08,F3,FF,FF,FF,00,00,
87079143,00000521,false,Rx,0,6,00,08,F3,FF,FF,FF,00,00,
87079382,00000521,false,Rx,0,6,00,08,F3,FF,FF,FF,00,00,
87079611,00000521,false,Rx,0,6,00,08,F3,FF,FF,FF,00,00,
87080461,00000100,false,Rx,0,8,00,00,00,00,9A,01,C8,00,
87080733,00000101,false,Rx,0,8,00,FF,FE,00,00,00,00,00,
87081000,00000102,false,Rx,0,8,01,90,01,00,00,01,00,00,
87159150,00000523,false,Rx,0,6,02,05,EC,FF,FF,FF,00,00,
87180458,00000100,false,Rx,0,8,00,00,00,00,9A,01,C8,00,
87180724,00000101,false,Rx,0,8,00,FF,FE,00,00,00,00,00,
87180989,00000102,false,Rx,0,8,01,90,01,00,00,01,00,00,
87229905,00000526,false,Rx,0,6,05,01,03,00,00,00,00,00,
87280459,00000100,false,Rx,0,8,00,00,00,00,9A,01,C8,00,
87280706,00000101,false,Rx,0,8,00,FF,FE,00,00,00,00,00,
87280958,00000102,false,Rx,0,8,01,90,01,00,00,01,00,00,
87380454,00000100,false,Rx,0,8,00,00,00,00,9A,01,C8,00,
87380707,00000101,false,Rx,0,8,00,FF,FE,00,00,00,00,00,
87380953,00000102,false,Rx,0,8,01,90,01,00,00,01,00,00,
87397286,00000527,false,Rx,0,6,06,00,00,00,00,00,00,00,
87453718,00000524,false,Rx,0,6,03,04,F3,FF,FF,FF,00,00,
87459749,00000522,false,Rx,0,6,01,07,DB,A5,05,00,00,00,
87480454,00000100,false,Rx,0,8,00,00,00,00,9A,01,C8,00,
87480707,00000101,false,Rx,0,8,00,FF,FE,00,00,00,00,00,
87480953,00000102,false,Rx,0,8,01,90,01,00,00,01,00,00,
87528421,00000528,false,Rx,0,6,07,0F,00,00,00,00,00,00,
87580452,00000100,false,Rx,0,8,00,00,00,00,9A,01,C8,00,
87580700,00000101,false,Rx,0,8,00,FF,FE,00,00,00,00,00,
87580953,00000102,false,Rx,0,8,01,90,01,00,00,01,00,00,
87680453,00000100,false,Rx,0,8,00,00,00,00,9A,01,C8,00,
87680701,00000101,false,Rx,0,8,00,FF,FE,00,00,00,00,00,
87680947,00000102,false,Rx,0,8,01,90,01,00,00,01,00,00,
87691765,00000521,false,Rx,0,6,00,09,F4,FF,FF,FF,00,00,
87711974,00000525,false,Rx,0,6,04,03,71,00,00,00,00,00,
87780445,00000100,false,Rx,0,8,00,00,00,00,9A,01,C8,00,
87780699,00000101,false,Rx,0,8,00,FF,FE,00,00,00,00,00,
87780944,00000102,false,Rx,0,8,01,90,01,00,00,01,00,00,
87808799,00000523,false,Rx,0,6,02,06,E2,FF,FF,FF,00,00,
87809033,00000523,false,Rx,0,6,02,06,E2,FF,FF,FF,00,00,
87809273,00000523,false,Rx,0,6,02,06,E2,FF,FF,FF,00,00,
87809514,00000523,false,Rx,0,6,02,06,E2,FF,FF,FF,00,00,
87880445,00000100,false,Rx,0,8,00,00,00,00,9A,01,C8,00,
87880698,00000101,false,Rx,0,8,00,FF,FE,00,00,00,00,00,
87880944,00000102,false,Rx,0,8,01,90,01,00,00,01,00,00,
87934206,00000526,false,Rx,0,6,05,02,01,00,00,00,00,00,
87982384,00000100,false,Rx,0,8,00,00,00,00,9A,01,C8,00,
87982650,00000101,false,Rx,0,8,00,FF,FE,00,00,00,00,00,
87982914,00000102,false,Rx,0,8,01,90,01,00,00,01,00,00,
88081011,00000100,false,Rx,0,8,00,00,00,00,9A,01,C8,00,
88081272,00000101,false,Rx,0,8,00,FF,FE,00,00,00,00,00,
88081532,00000102,false,Rx,0,8,01,90,01,00,00,01,00,00,
88091238,00000522,false,Rx,0,6,01,08,E4,A5,05,00,00,00,
88119554,00000527,false,Rx,0,6,06,01,00,00,00,00,00,00,
88121530,00000524,false,Rx,0,6,03,05,ED,FF,FF,FF,00,00,
88181003,00000100,false,Rx,0,8,00,00,00,00,9A,01,C8,00,
88181267,00000101,false,Rx,0,8,00,FF,FE,00,00,00,00,00,
88181534,00000102,false,Rx,0,8,01,90,01,00,00,01,00,00,
88269328,00000528,false,Rx,0,6,07,00,00,00,00,00,00,00,
88281005,00000100,false,Rx,0,8,00,00,00,00,9A,01,C8,00,
88281269,00000101,false,Rx,0,8,00,FF,FE,00,00,00,00,00,
88281529,00000102,false,Rx,0,8,01,90,01,00,00,01,00,00,
88305094,00000521,false,Rx,0,6,00,0A,F4,FF,FF,FF,00,00,
88381283,00000100,false,Rx,0,8,00,00,00,00,9A,01,C8,00,
88381549,00000101,false,Rx,0,8,00,FF,FE,00,00,00,00,00,
88381813,00000102,false,Rx,0,8,01,90,01,00,00,01,00,00,
88397924,00000525,false,Rx,0,6,04,04,71,00,00,00,00,00,
88458433,00000523,false,Rx,0,6,02,07,E2,FF,FF,FF,00,00,
88486519,00000100,false,Rx,0,8,00,00,00,00,9A,01,C8,00,
88486760,00000101,false,Rx,0,8,00,FF,FE,00,00,00,00,00,
88487006,00000102,false,Rx,0,8,01,90,01,00,00,01,00,00,
88580698,00000100,false,Rx,0,8,00,00,00,00,9A,01,C8,00,
88580944,00000101,false,Rx,0,8,00,FF,FE,00,00,00,00,00,
88581196,00000102,false,Rx,0,8,01,90,01,00,00,01,00,00,
88638137,00000526,false,Rx,0,6,05,03,04,00,00,00,00,00,
88680431,00000100,false,Rx,0,8,00,00,00,00,9A,01,C8,00,
88680678,00000101,false,Rx,0,8,00,FF,FE,00,00,00,00,00,
88680931,00000102,false,Rx,0,8,01,90,01,00,00,01,00,00,
88722716,00000522,false,Rx,0,6,01,09,EE,A5,05,00,00,00,
88783669,00000100,false,Rx,0,8,00,00,00,00,9A,01,C8,00,
88785922,00000101,false,Rx,0,8,00,FF,FE,00,00,00,00,00,
88786186,00000102,false,Rx,0,8,01,90,01,00,00,01,00,00,
88789325,00000524,false,Rx,0,6,03,06,EB,FF,FF,FF,00,00,
88844749,00000527,false,Rx,0,6,06,02,00,00,00,00,00,00,
88889193,00000100,false,Rx,0,8,00,00,00,00,9A,01,C8,00,
88889440,00000101,false,Rx,0,8,00,FF,FE,00,00,00,00,00,
88889688,00000102,false,Rx,0,8,01,90,01,00,00,01,00,00,
88918947,00000521,false,Rx,0,6,00,0B,F8,FF,FF,FF,00,00,
88983500,00000100,false,Rx,0,8,00,00,00,00,9A,01,C8,00,
88983780,00000101,false,Rx,0,8,00,FF,FE,00,00,00,00,00,
88984031,00000102,false,Rx,0,8,01,90,01,00,00,01,00,00,
89009985,00000528,false,Rx,0,6,07,01,00,00,00,00,00,00,
89010218,00000528,false,Rx,0,6,07,01,00,00,00,00,00,00,
89010458,00000528,false,Rx,0,6,07,01,00,00,00,00,00,00,
89010699,00000528,false,Rx,0,6,07,01,00,00,00,00,00,00,
89010939,00000528,false,Rx,0,6,07,01,00,00,00,00,00,00,
89011171,00000528,false,Rx,0,6,07,01,00,00,00,00,00,00,
89011412,00000528,false,Rx,0,6,07,01,00,00,00,00,00,00,
89011652,00000528,false,Rx,0,6,07,01,00,00,00,00,00,00,
89011885,00000528,false,Rx,0,6,07,01,00,00,00,00,00,00,
89012125,00000528,false,Rx,0,6,07,01,00,00,00,00,00,00,
89012366,00000528,false,Rx,0,6,07,01,00,00,00,00,00,00,
89080422,00000100,false,Rx,0,8,00,00,00,00,9A,01,C8,00,
89080689,00000101,false,Rx,0,8,00,FF,FE,00,00,00,00,00,
89080953,00000102,false,Rx,0,8,01,90,01,00,00,01,00,00,
89083875,00000525,false,Rx,0,6,04,05,71,00,00,00,00,00,
89108063,00000523,false,Rx,0,6,02,08,F5,FF,FF,FF,00,00,
89180422,00000100,false,Rx,0,8,00,00,00,00,9A,01,C8,00,
89180688,00000101,false,Rx,0,8,00,FF,FE,00,00,00,00,00,
89180952,00000102,false,Rx,0,8,01,90,01,00,00,01,00,00,
89280415,00000100,false,Rx,0,8,00,00,00,00,9A,01,C8,00,
89280682,00000101,false,Rx,0,8,00,FF,FE,00,00,00,00,00,
89280946,00000102,false,Rx,0,8,01,90,01,00,00,01,00,00,
89342839,00000526,false,Rx,0,6,05,04,01,00,00,00,00,00,
89343072,00000526,false,Rx,0,6,05,04,01,00,00,00,00,00,
89343313,00000526,false,Rx,0,6,05,04,01,00,00,00,00,00,
89354197,00000522,false,Rx,0,6,01,0A,D5,A5,05,00,00,00,
89380418,00000100,false,Rx,0,8,00,00,00,00,9A,01,C8,00,
89380683,00000101,false,Rx,0,8,00,FF,FE,00,00,00,00,00,
89380941,00000102,false,Rx,0,8,01,90,01,00,00,01,00,00,
89457117,00000524,false,Rx,0,6,03,07,ED,FF,FF,FF,00,00,
89480414,00000100,false,Rx,0,8,00,00,00,00,9A,01,C8,00,
89480680,00000101,false,Rx,0,8,00,FF,FE,00,00,00,00,00,
89480943,00000102,false,Rx,0,8,01,90,01,00,00,01,00,00,
89531781,00000521,false,Rx,0,6,00,0C,F9,FF,FF,FF,00,00,
89564097,00000527,false,Rx,0,6,06,03,00,00,00,00,00,00,
89580409,00000100,false,Rx,0,8,00,00,00,00,9A,01,C8,00,
89580675,00000101,false,Rx,0,8,00,FF,FE,00,00,00,00,00,
89580939,00000102,false,Rx,0,8,01,90,01,00,00,01,00,00,
89680411,00000100,false,Rx,0,8,00,00,00,00,9A,01,C8,00,
89680677,00000101,false,Rx,0,8,00,FF,FE,00,00,00,00,00,
89680942,00000102,false,Rx,0,8,01,90,01,00,00,01,00,00,
89749952,00000528,false,Rx,0,6,07,02,00,00,00,00,00,00,
89750191,00000528,false,Rx,0,6,07,02,00,00,00,00,00,00,
89757712,00000523,false,Rx,0,6,02,09,F7,FF,FF,FF,00,00,
89769838,00000525,false,Rx,0,6,04,06,71,00,00,00,00,00,
89780408,00000100,false,Rx,0,8,00,00,00,00,9A,01,C8,00,
89780672,00000101,false,Rx,0,8,00,FF,FE,00,00,00,00,00,
89780936,00000102,false,Rx,0,8,01,90,01,00,00,01,00,00,
89880403,00000100,false,Rx,0,8,00,00,00,00,9A,01,C8,00,
89880670,00000101,false,Rx,0,8,00,FF,FE,00,00,00,00,00,
89880934,00000102,false,Rx,0,8,01,90,01,00,00,01,00,00,
89980404,00000100,false,Rx,0,8,00,00,00,00,9A,01,C8,00,
89980670,00000101,false,Rx,0,8,00,FF,FE,00,00,00,00,00,
89980935,00000102,false,Rx,0,8,01,90,01,00,00,01,00,00,
89985680,00000522,false,Rx,0,6,01,0B,DB,A5,05,00,00,00,
90046260,00000526,false,Rx,0,6,05,05,00,00,00,00,00,00,
90080403,00000100,false,Rx,0,8,00,00,00,00,9A,01,C8,00,
90080666,00000101,false,Rx,0,8,00,FF,FE,00,00,00,00,00,
90080930,00000102,false,Rx,0,8,01,90,01,00,00,01,00,00,
90124897,00000524,false,Rx,0,6,03,08,E8,FF,FF,FF,00,00,
90145065,00000521,false,Rx,0,6,00,0D,F3,FF,FF,FF,00,00,
90180399,00000100,false,Rx,0,8,00,00,00,00,9A,01,C8,00,
90180667,00000101,false,Rx,0,8,00,FF,FE,00,00,00,00,00,
90180931,00000102,false,Rx,0,8,01,90,01,00,00,01,00,00,
90280396,00000100,false,Rx,0,8,00,00,00,00,9A,01,C8,00,
90280674,00000101,false,Rx,0,8,00,FF,FE,00,00,00,00,00,
90280927,00000102,false,Rx,0,8,01,90,01,00,00,01,00,00,
90286362,00000527,false,Rx,0,6,06,04,00,00,00,00,00,00,
90380394,00000100,false,Rx,0,8,00,00,00,00,9A,01,C8,00,
90380660,00000101,false,Rx,0,8,00,FF,FE,00,00,00,00,00,
90380921,00000102,false,Rx,0,8,01,90,01,00,00,01,00,00,
90407347,00000523,false,Rx,0,6,02,0A,F7,FF,FF,FF,00,00,
90455792,00000525,false,Rx,0,6,04,07,71,00,00,00,00,00,
90480390,00000100,false,Rx,0,8,00,00,00,00,9A,01,C8,00,
90480656,00000101,false,Rx,0,8,00,FF,FE,00,00,00,00,00,
90480920,00000102,false,Rx,0,8,01,90,01,00,00,01,00,00,
90490144,00000528,false,Rx,0,6,07,03,00,00,00,00,00,00,
90580392,00000100,false,Rx,0,8,00,00,00,00,9A,01,C8,00,
90580658,00000101,false,Rx,0,8,00,FF,FE,00,00,00,00,00,
90580937,00000101,false,Rx,0,8,00,FF,FE,00,00,00,00,00,
90581201,00000102,false,Rx,0,8,01,90,01,00,00,01,00,00,
90617156,00000522,false,Rx,0,6,01,0C,EB,A5,05,00,00,00,
90680387,00000100,false,Rx,0,8,00,00,00,00,9A,01,C8,00,
90680652,00000101,false,Rx,0,8,00,FF,FE,00,00,00,00,00,
90680919,00000102,false,Rx,0,8,01,90,01,00,00,01,00,00,
90750607,00000526,false,Rx,0,6,05,06,07,00,00,00,00,00,
90758379,00000521,false,Rx,0,6,00,0E,F6,FF,FF,FF,00,00,
90780384,00000100,false,Rx,0,8,00,00,00,00,9A,01,C8,00,
90780649,00000101,false,Rx,0,8,00,FF,FE,00,00,00,00,00,
90780915,00000102,false,Rx,0,8,01,90,01,00,00,01,00,00,
90792696,00000524,false,Rx,0,6,03,09,EF,FF,FF,FF,00,00,
90880386,00000100,false,Rx,0,8,00,00,00,00,9A,01,C8,00,
90880645,00000101,false,Rx,0,8,00,FF,FE,00,00,00,00,00,
90880918,00000102,false,Rx,0,8,01,90,01,00,00,01,00,00,
90980383,00000100,false,Rx,0,8,00,00,00,00,9A,01,C8,00,
90980650,00000101,false,Rx,0,8,00,FF,FE,00,00,00,00,00,
90980907,00000102,false,Rx,0,8,01,90,01,00,00,01,00,00,
91008617,00000527,false,Rx,0,6,06,05,00,00,00,00,00,00,
91056970,00000523,false,Rx,0,6,02,0B,EE,FF,FF,FF,00,00,
91080378,00000100,false,Rx,0,8,00,00,00,00,9A,01,C8,00,
91080643,00000101,false,Rx,0,8,00,FF,FE,00,00,00,00,00,
91080908,00000102,false,Rx,0,8,01,90,01,00,00,01,00,00,
91141732,00000525,false,Rx,0,6,04,08,71,00,00,00,00,00,
91180375,00000100,false,Rx,0,8,00,00,00,00,9A,01,C8,00,
91180641,00000101,false,Rx,0,8,00,FF,FE,00,00,00,00,00,
91180906,00000102,false,Rx,0,8,01,90,01,00,00,01,00,00,
91230560,00000528,false,Rx,0,6,07,04,00,00,00,00,00,00,
91249217,00000522,false,Rx,0,6,01,0D,DC,A5,05,00,00,00,
91249445,00000522,false,Rx,0,6,01,0D,DC,A5,05,00,00,00,
91249675,00000522,false,Rx,0,6,01,0D,DC,A5,05,00,00,00,
91249901,00000522,false,Rx,0,6,01,0D,DC,A5,05,00,00,00,
91250128,00000522,false,Rx,0,6,01,0D,DC,A5,05,00,00,00,
91250356,00000522,false,Rx,0,6,01,0D,DC,A5,05,00,00,00,
91280372,00000100,false,Rx,0,8,00,00,00,00,9A,01,C8,00,
91280639,00000101,false,Rx,0,8,00,FF,FE,00,00,00,00,00,
91280903,00000102,false,Rx,0,8,01,90,01,00,00,01,00,00,
91372718,00000521,false,Rx,0,6,00,0F,F7,FF,FF,FF,00,00,
91382350,00000100,false,Rx,0,8,00,00,00,00,9A,01,C8,00,
91382616,00000101,false,Rx,0,8,00,FF,FE,00,00,00,00,00,
91382880,00000102,false,Rx,0,8,01,90,01,00,00,01,00,00,
91454715,00000526,false,Rx,0,6,05,07,08,00,00,00,00,00,
91460496,00000524,false,Rx,0,6,03,0A,F7,FF,FF,FF,00,00,
91480371,00000100,false,Rx,0,8,00,00,00,00,9A,01,C8,00,
91487587,00000101,false,Rx,0,8,00,FF,FE,00,00,00,00,00,
91487832,00000102,false,Rx,0,8,01,90,01,00,00,01,00,00,
91580368,00000100,false,Rx,0,8,00,00,00,00,9A,01,C8,00,
91581961,00000101,false,Rx,0,8,00,FF,FE,00,00,00,00,00,
91582207,00000102,false,Rx,0,8,01,90,01,00,00,01,00,00,
91680370,00000100,false,Rx,0,8,00,00,00,00,9A,01,C8,00,
91681418,00000101,false,Rx,0,8,00,FF,FE,00,00,00,00,00,
91681666,00000102,false,Rx,0,8,01,90,01,00,00,01,00,00,
91706620,00000523,false,Rx,0,6,02,0C,F0,FF,FF,FF,00,00,
91733362,00000527,false,Rx,0,6,06,06,00,00,00,00,00,00,
91781755,00000100,false,Rx,0,8,00,00,00,00,9A,01,C8,00,
91782026,00000101,false,Rx,0,8,00,FF,FE,00,00,00,00,00,
91782292,00000102,false,Rx,0,8,01,90,01,00,00,01,00,00,
91827689,00000525,false,Rx,0,6,04,09,71,00,00,00,00,00,
91880123,00000522,false,Rx,0,6,01,0E,DE,A5,05,00,00,00,
91882338,00000100,false,Rx,0,8,00,00,00,00,9A,01,C8,00,
91882605,00000101,false,Rx,0,8,00,FF,FE,00,00,00,00,00,
91882869,00000102,false,Rx,0,8,01,90,01,00,00,01,00,00,
91971009,00000528,false,Rx,0,6,07,05,00,00,00,00,00,00,
91986458,00000100,false,Rx,0,8,00,00,00,00,9A,01,C8,00,
91986712,00000101,false,Rx,0,8,00,FF,FE,00,00,00,00,00,
91986958,00000102,false,Rx,0,8,01,90,01,00,00,01,00,00,
91987161,00000521,false,Rx,0,6,00,00,F4,FF,FF,FF,00,00,
92084413,00000100,false,Rx,0,8,00,00,00,00,9A,01,C8,00,
92084676,00000101,false,Rx,0,8,00,FF,FE,00,00,00,00,00,
92084942,00000102,false,Rx,0,8,01,90,01,00,00,01,00,00,
92128300,00000524,false,Rx,0,6,03,0B,F1,FF,FF,FF,00,00,
92160239,00000526,false,Rx,0,6,05,08,FD,FF,FF,FF,00,00,
92160473,00000526,false,Rx,0,6,05,08,FD,FF,FF,FF,00,00,
92160714,00000526,false,Rx,0,6,05,08,FD,FF,FF,FF,00,00,
92160948,00000526,false,Rx,0,6,05,08,FD,FF,FF,FF,00,00,
92161181,00000526,false,Rx,0,6,05,08,FD,FF,FF,FF,00,00,
92180358,00000100,false,Rx,0,8,00,00,00,00,9A,01,C8,00,
92180624,00000101,false,Rx,0,8,00,FF,FE,00,00,00,00,00,
92180882,00000102,false,Rx,0,8,01,90,01,00,00,01,00,00,
92280352,00000100,false,Rx,0,8,00,00,00,00,9A,01,C8,00,
92280619,00000101,false,Rx,0,8,00,FF,FE,00,00,00,00,00,
92280884,00000102,false,Rx,0,8,01,90,01,00,00,01,00,00,
92356278,00000523,false,Rx,0,6,02,0D,F0,FF,FF,FF,00,00,
92380355,00000100,false,Rx,0,8,00,00,00,00,9A,01,C8,00,
92380621,00000101,false,Rx,0,8,00,FF,FE,00,00,00,00,00,
92380885,00000102,false,Rx,0,8,01,90,01,00,00,01,00,00,
92453178,00000527,false,Rx,0,6,06,07,00,00,00,00,00,00,
92480348,00000100,false,Rx,0,8,00,00,00,00,9A,01,C8,00,
92480615,00000101,false,Rx,0,8,00,FF,FE,00,00,00,00,00,
92480878,00000102,false,Rx,0,8,01,90,01,00,00,01,00,00,
92511611,00000522,false,Rx,0,6,01,0F,E8,A5,05,00,00,00,
92513655,00000525,false,Rx,0,6,04,0A,71,00,00,00,00,00,
92580343,00000100,false,Rx,0,8,00,00,00,00,9A,01,C8,00,
92580615,00000101,false,Rx,0,8,00,FF,FE,00,00,00,00,00,
92580873,00000102,false,Rx,0,8,01,90,01,00,00,01,00,00,
92599388,00000521,false,Rx,0,6,00,01,F5,FF,FF,FF,00,00,
92599623,00000521,false,Rx,0,6,00,01,F5,FF,FF,FF,00,00,
92599868,00000521,false,Rx,0,6,00,01,F5,FF,FF,FF,00,00,
92600107,00000521,false,Rx,0,6,00,01,F5,FF,FF,FF,00,00,
92600347,00000521,false,Rx,0,6,00,01,F5,FF,FF,FF,00,00,
92600588,00000521,false,Rx,0,6,00,01,F5,FF,FF,FF,00,00,
92680347,00000100,false,Rx,0,8,00,00,00,00,9A,01,C8,00,
92680613,00000101,false,Rx,0,8,00,FF,FE,00,00,00,00,00,
92680877,00000102,false,Rx,0,8,01,90,01,00,00,01,00,00,
92711433,00000528,false,Rx,0,6,07,06,00,00,00,00,00,00,
92780340,00000100,false,Rx,0,8,00,00,00,00,9A,01,C8,00,
92780606,00000101,false,Rx,0,8,00,FF,FE,00,00,00,00,00,
92780870,00000102,false,Rx,0,8,01,90,01,00,00,01,00,00,
92796110,00000524,false,Rx,0,6,03,0C,F4,FF,FF,FF,00,00,
92862804,00000526,false,Rx,0,6,05,09,03,00,00,00,00,00,
92880342,00000100,false,Rx,0,8,00,00,00,00,9A,01,C8,00,
92880610,00000101,false,Rx,0,8,00,FF,FE,00,00,00,00,00,
92880868,00000102,false,Rx,0,8,01,90,01,00,00,01,00,00,
92980342,00000100,false,Rx,0,8,00,00,00,00,9A,01,C8,00,
92980602,00000101,false,Rx,0,8,00,FF,FE,00,00,00,00,00,
92980866,00000102,false,Rx,0,8,01,90,01,00,00,01,00,00,
93005922,00000523,false,Rx,0,6,02,0E,04,00,00,00,00,00,
93080334,00000100,false,Rx,0,8,00,00,00,00,9A,01,C8,00,
93080587,00000101,false,Rx,0,8,00,FF,FE,00,00,00,00,00,
93080832,00000102,false,Rx,0,8,01,90,01,00,00,01,00,00,
93143101,00000522,false,Rx,0,6,01,00,D4,A5,05,00,00,00,
93175446,00000527,false,Rx,0,6,06,08,00,00,00,00,00,00,
93180338,00000100,false,Rx,0,8,00,00,00,00,9A,01,C8,00,
93180583,00000101,false,Rx,0,8,00,FF,FE,00,00,00,00,00,
93180836,00000102,false,Rx,0,8,01,90,01,00,00,01,00,00,
93199610,00000525,false,Rx,0,6,04,0B,72,00,00,00,00,00,
93199850,00000525,false,Rx,0,6,04,0B,72,00,00,00,00,00,
93200083,00000525,false,Rx,0,6,04,0B,72,00,00,00,00,00,
93200323,00000525,false,Rx,0,6,04,0B,72,00,00,00,00,00,
93200559,00000525,false,Rx,0,6,04,0B,72,00,00,00,00,00,
93200792,00000525,false,Rx,0,6,04,0B,72,00,00,00,00,00,
93201031,00000525,false,Rx,0,6,04,0B,72,00,00,00,00,00,
93201264,00000525,false,Rx,0,6,04,0B,72,00,00,00,00,00,
93201505,00000525,false,Rx,0,6,04,0B,72,00,00,00,00,00,
93212719,00000521,false,Rx,0,6,00,02,F2,FF,FF,FF,00,00,
93280330,00000100,false,Rx,0,8,00,00,00,00,9A,01,C8,00,
93280583,00000101,false,Rx,0,8,00,FF,FE,00,00,00,00,00,
93280829,00000102,false,Rx,0,8,01,90,01,00,00,01,00,00,
93380330,00000100,false,Rx,0,8,00,00,00,00,9A,01,C8,00,
93380577,00000101,false,Rx,0,8,00,FF,FE,00,00,00,00,00,
93380829,00000102,false,Rx,0,8,01,90,01,00,00,01,00,00,
93451858,00000528,false,Rx,0,6,07,07,00,00,00,00,00,00,
93463897,00000524,false,Rx,0,6,03,0D,F3,FF,FF,FF,00,00,
93480329,00000100,false,Rx,0,8,00,00,00,00,9A,01,C8,00,
93480578,00000101,false,Rx,0,8,00,FF,FE,00,00,00,00,00,
93480823,00000102,false,Rx,0,8,01,90,01,00,00,01,00,00,
93567093,00000526,false,Rx,0,6,05,0A,08,00,00,00,00,00,
93580329,00000100,false,Rx,0,8,00,00,00,00,9A,01,C8,00,
93580575,00000101,false,Rx,0,8,00,FF,FE,00,00,00,00,00,
93580828,00000102,false,Rx,0,8,01,90,01,00,00,01,00,00,
93655552,00000523,false,Rx,0,6,02,0F,F8,FF,FF,FF,00,00,
93680323,00000100,false,Rx,0,8,00,00,00,00,9A,01,C8,00,
93680576,00000101,false,Rx,0,8,00,FF,FE,00,00,00,00,00,
93680822,00000102,false,Rx,0,8,01,90,01,00,00,01,00,00,
93774575,00000522,false,Rx,0,6,01,01,D8,A5,05,00,00,00,
93780323,00000100,false,Rx,0,8,00,00,00,00,9A,01,C8,00,
93780572,00000101,false,Rx,0,8,00,FF,FE,00,00,00,00,00,
93780818,00000102,false,Rx,0,8,01,90,01,00,00,01,00,00,
93826029,00000521,false,Rx,0,6,00,03,F5,FF,FF,FF,00,00,
93880325,00000100,false,Rx,0,8,00,00,00,00,9A,01,C8,00,
93880572,00000101,false,Rx,0,8,00,FF,FE,00,00,00,00,00,
93880818,00000102,false,Rx,0,8,01,90,01,00,00,01,00,00,
93885569,00000525,false,Rx,0,6,04,0C,71,00,00,00,00,00,
93897721,00000527,false,Rx,0,6,06,09,00,00,00,00,00,00,
93980319,00000100,false,Rx,0,8,00,00,00,00,9A,01,C8,00,
93980565,00000101,false,Rx,0,8,00,FF,FE,00,00,00,00,00,
93980817,00000102,false,Rx,0,8,01,90,01,00,00,01,00,00,
94080322,00000100,false,Rx,0,8,00,00,00,00,9A,01,C8,00,
94080564,00000101,false,Rx,0,8,00,FF,FE,00,00,00,00,00,
94080817,00000102,false,Rx,0,8,01,90,01,00,00,01,00,00,
94131687,00000524,false,Rx,0,6,03,0E,F3,FF,FF,FF,00,00,
94180314,00000100,false,Rx,0,8,00,00,00,00,9A,01,C8,00,
94180565,00000101,false,Rx,0,8,00,FF,FE,00,00,00,00,00,
94180810,00000102,false,Rx,0,8,01,90,01,00,00,01,00,00,
94192286,00000528,false,Rx,0,6,07,08,00,00,00,00,00,00,
94271230,00000526,false,Rx,0,6,05,0B,07,00,00,00,00,00,
94280311,00000100,false,Rx,0,8,00,00,00,00,9A,01,C8,00,
94280562,00000101,false,Rx,0,8,00,FF,FE,00,00,00,00,00,
94280808,00000102,false,Rx,0,8,01,90,01,00,00,01,00,00,
94305199,00000523,false,Rx,0,6,02,00,F8,FF,FF,FF,00,00,
94380316,00000100,false,Rx,0,8,00,00,00,00,9A,01,C8,00,
94380557,00000101,false,Rx,0,8,00,FF,FE,00,00,00,00,00,
94380810,00000102,false,Rx,0,8,01,90,01,00,00,01,00,00,
94406051,00000522,false,Rx,0,6,01,02,E7,A5,05,00,00,00,
94406284,00000522,false,Rx,0,6,01,02,E7,A5,05,00,00,00,
94480313,00000100,false,Rx,0,8,00,00,00,00,9A,01,C8,00,
94480554,00000101,false,Rx,0,8,00,FF,FE,00,00,00,00,00,
94480807,00000102,false,Rx,0,8,01,90,01,00,00,01,00,00,
94510577,00000521,false,Rx,0,6,00,04,F6,FF,FF,FF,00,00,
94571738,00000525,false,Rx,0,6,04,0D,71,00,00,00,00,00,
94583320,00000100,false,Rx,0,8,00,00,00,00,9A,01,C8,00,
94583587,00000101,false,Rx,0,8,00,FF,FE,00,00,00,00,00,
94583852,00000102,false,Rx,0,8,01,90,01,00,00,01,00,00,
94619990,00000527,false,Rx,0,6,06,0A,00,00,00,00,00,00,
94680306,00000100,false,Rx,0,8,00,00,00,00,9A,01,C8,00,
94681708,00000101,false,Rx,0,8,00,FF,FE,00,00,00,00,00,
94681965,00000102,false,Rx,0,8,01,90,01,00,00,01,00,00,
94780299,00000100,false,Rx,0,8,00,00,00,00,9A,01,C8,00,
94780564,00000101,false,Rx,0,8,00,FF,FE,00,00,00,00,00,
94780832,00000102,false,Rx,0,8,01,90,01,00,00,01,00,00,
94802621,00000524,false,Rx,0,6,03,0F,E9,FF,FF,FF,00,00,
94880305,00000100,false,Rx,0,8,00,00,00,00,9A,01,C8,00,
94880565,00000101,false,Rx,0,8,00,FF,FE,00,00,00,00,00,
94880830,00000102,false,Rx,0,8,01,90,01,00,00,01,00,00,
94932701,00000528,false,Rx,0,6,07,09,00,00,00,00,00,00,
94954829,00000523,false,Rx,0,6,02,01,F6,FF,FF,FF,00,00,
94975334,00000526,false,Rx,0,6,05,0C,08,00,00,00,00,00,
94980293,00000100,false,Rx,0,8,00,00,00,00,9A,01,C8,00,
94980559,00000101,false,Rx,0,8,00,FF,FE,00,00,00,00,00,
94980828,00000102,false,Rx,0,8,01,90,01,00,00,01,00,00,
95037533,00000522,false,Rx,0,6,01,03,E0,A5,05,00,00,00,
95052667,00000521,false,Rx,0,6,00,05,F8,FF,FF,FF,00,00,
95080296,00000100,false,Rx,0,8,00,00,00,00,9A,01,C8,00,
95080561,00000101,false,Rx,0,8,00,FF,FE,00,00,00,00,00,
95080821,00000102,false,Rx,0,8,01,90,01,00,00,01,00,00,
95180297,00000100,false,Rx,0,8,00,00,00,00,9A,01,C8,00,
95180557,00000101,false,Rx,0,8,00,FF,FE,00,00,00,00,00,
95180824,00000102,false,Rx,0,8,01,90,01,00,00,01,00,00,
95257474,00000525,false,Rx,0,6,04,0E,71,00,00,00,00,00,
95280290,00000100,false,Rx,0,8,00,00,00,00,9A,01,C8,00,
95280556,00000101,false,Rx,0,8,00,FF,FE,00,00,00,00,00,
95280825,00000102,false,Rx,0,8,01,90,01,00,00,01,00,00,
95342248,00000527,false,Rx,0,6,06,0B,00,00,00,00,00,00,
95382261,00000100,false,Rx,0,8,00,00,00,00,9A,01,C8,00,
95382533,00000101,false,Rx,0,8,00,FF,FE,00,00,00,00,00,
95382791,00000102,false,Rx,0,8,01,90,01,00,00,01,00,00,
95467282,00000524,false,Rx,0,6,03,00,F9,FF,FF,FF,00,00,
95480568,00000100,false,Rx,0,8,00,00,00,00,9A,01,C8,00,
95480832,00000101,false,Rx,0,8,00,FF,FE,00,00,00,00,00,
95481099,00000102,false,Rx,0,8,01,90,01,00,00,01,00,00,
95580851,00000100,false,Rx,0,8,00,00,00,00,9A,01,C8,00,
95581115,00000101,false,Rx,0,8,00,FF,FE,00,00,00,00,00,
95581380,00000102,false,Rx,0,8,01,90,01,00,00,01,00,00,
95604453,00000523,false,Rx,0,6,02,02,F8,FF,FF,FF,00,00,
95665983,00000521,false,Rx,0,6,00,06,F3,FF,FF,FF,00,00,
95669009,00000522,false,Rx,0,6,01,04,DD,A5,05,00,00,00,
95673817,00000528,false,Rx,0,6,07,0A,00,00,00,00,00,00,
95674050,00000528,false,Rx,0,6,07,0A,00,00,00,00,00,00,
95674291,00000528,false,Rx,0,6,07,0A,00,00,00,00,00,00,
95674532,00000528,false,Rx,0,6,07,0A,00,00,00,00,00,00,
95674764,00000528,false,Rx,0,6,07,0A,00,00,00,00,00,00,
95675004,00000528,false,Rx,0,6,07,0A,00,00,00,00,00,00,
95675244,00000528,false,Rx,0,6,07,0A,00,00,00,00,00,00,
95679436,00000526,false,Rx,0,6,05,0D,0B,00,00,00,00,00,
95680281,00000100,false,Rx,0,8,00,00,00,00,9A,01,C8,00,
95680548,00000101,false,Rx,0,8,00,FF,FE,00,00,00,00,00,
95680812,00000102,false,Rx,0,8,01,90,01,00,00,01,00,00,
95780282,00000100,false,Rx,0,8,00,00,00,00,9A,01,C8,00,
95780543,00000101,false,Rx,0,8,00,FF,FE,00,00,00,00,00,
95780807,00000102,false,Rx,0,8,01,90,01,00,00,01,00,00,
95880276,00000100,false,Rx,0,8,00,00,00,00,9A,01,C8,00,
95880542,00000101,false,Rx,0,8,00,FF,FE,00,00,00,00,00,
95880806,00000102,false,Rx,0,8,01,90,01,00,00,01,00,00,
95943414,00000525,false,Rx,0,6,04,0F,71,00,00,00,00,00,
95980273,00000100,false,Rx,0,8,00,00,00,00,9A,01,C8,00,
95980542,00000101,false,Rx,0,8,00,FF,FE,00,00,00,00,00,
95980806,00000102,false,Rx,0,8,01,90,01,00,00,01,00,00,
96064774,00000527,false,Rx,0,6,06,0C,00,00,00,00,00,00,
96080272,00000100,false,Rx,0,8,00,00,00,00,9A,01,C8,00,
96080541,00000101,false,Rx,0,8,00,FF,FE,00,00,00,00,00,
96080805,00000102,false,Rx,0,8,01,90,01,00,00,01,00,00,
96135058,00000524,false,Rx,0,6,03,01,F4,FF,FF,FF,00,00,
96180269,00000100,false,Rx,0,8,00,00,00,00,9A,01,C8,00,
96180538,00000101,false,Rx,0,8,00,FF,FE,00,00,00,00,00,
96180803,00000102,false,Rx,0,8,01,90,01,00,00,01,00,00,
96181080,00000102,false,Rx,0,8,01,90,01,00,00,01,00,00,
96254092,00000523,false,Rx,0,6,02,03,F8,FF,FF,FF,00,00,
96254332,00000523,false,Rx,0,6,02,03,F8,FF,FF,FF,00,00,
96254567,00000523,false,Rx,0,6,02,03,F8,FF,FF,FF,00,00,
96254802,00000523,false,Rx,0,6,02,03,F8,FF,FF,FF,00,00,
96255042,00000523,false,Rx,0,6,02,03,F8,FF,FF,FF,00,00,
96279315,00000521,false,Rx,0,6,00,07,F5,FF,FF,FF,00,00,
96280271,00000100,false,Rx,0,8,00,00,00,00,9A,01,C8,00,
96280534,00000101,false,Rx,0,8,00,FF,FE,00,00,00,00,00,
96280816,00000101,false,Rx,0,8,00,FF,FE,00,00,00,00,00,
96281093,00000101,false,Rx,0,8,00,FF,FE,00,00,00,00,00,
96281359,00000102,false,Rx,0,8,01,90,01,00,00,01,00,00,
96300480,00000522,false,Rx,0,6,01,05,E3,A5,05,00,00,00,
96380267,00000100,false,Rx,0,8,00,00,00,00,9A,01,C8,00,
96380546,00000101,false,Rx,0,8,00,FF,FE,00,00,00,00,00,
96380799,00000102,false,Rx,0,8,01,90,01,00,00,01,00,00,
96383522,00000526,false,Rx,0,6,05,0E,06,00,00,00,00,00,
96413545,00000528,false,Rx,0,6,07,0B,00,00,00,00,00,00,
96480261,00000100,false,Rx,0,8,00,00,00,00,9A,01,C8,00,
96480533,00000101,false,Rx,0,8,00,FF,FE,00,00,00,00,00,
96480794,00000102,false,Rx,0,8,01,90,01,00,00,01,00,00,
96580262,00000100,false,Rx,0,8,00,00,00,00,9A,01,C8,00,
96580527,00000101,false,Rx,0,8,00,FF,FE,00,00,00,00,00,
96580788,00000102,false,Rx,0,8,01,90,01,00,00,01,00,00,
96629370,00000525,false,Rx,0,6,04,00,71,00,00,00,00,00,
96680261,00000100,false,Rx,0,8,00,00,00,00,9A,01,C8,00,
96680526,00000101,false,Rx,0,8,00,FF,FE,00,00,00,00,00,
96680794,00000102,false,Rx,0,8,01,90,01,00,00,01,00,00,
96780257,00000100,false,Rx,0,8,00,00,00,00,9A,01,C8,00,
96780524,00000101,false,Rx,0,8,00,FF,FE,00,00,00,00,00,
96780785,00000102,false,Rx,0,8,01,90,01,00,00,01,00,00,
96786771,00000527,false,Rx,0,6,06,0D,00,00,00,00,00,00,
96787004,00000527,false,Rx,0,6,06,0D,00,00,00,00,00,00,
96787244,00000527,false,Rx,0,6,06,0D,00,00,00,00,00,00,
96787478,00000527,false,Rx,0,6,06,0D,00,00,00,00,00,00,
96787713,00000527,false,Rx,0,6,06,0D,00,00,00,00,00,00,
96787946,00000527,false,Rx,0,6,06,0D,00,00,00,00,00,00,
96788186,00000527,false,Rx,0,6,06,0D,00,00,00,00,00,00,
96802853,00000524,false,Rx,0,6,03,02,F3,FF,FF,FF,00,00,
96880254,00000100,false,Rx,0,8,00,00,00,00,9A,01,C8,00,
96880520,00000101,false,Rx,0,8,00,FF,FE,00,00,00,00,00,
96880784,00000102,false,Rx,0,8,01,90,01,00,00,01,00,00,
96892620,00000521,false,Rx,0,6,00,08,F4,FF,FF,FF,00,00,
96903727,00000523,false,Rx,0,6,02,04,EE,FF,FF,FF,00,00,
96931963,00000522,false,Rx,0,6,01,06,E6,A5,05,00,00,00,
96980255,00000100,false,Rx,0,8,00,00,00,00,9A,01,C8,00,
96980521,00000101,false,Rx,0,8,00,FF,FE,00,00,00,00,00,
96980786,00000102,false,Rx,0,8,01,90,01,00,00,01,00,00,
97080250,00000100,false,Rx,0,8,00,00,00,00,9A,01,C8,00,
97080517,00000101,false,Rx,0,8,00,FF,FE,00,00,00,00,00,
97080782,00000102,false,Rx,0,8,01,90,01,00,00,01,00,00,
97087460,00000526,false,Rx,0,6,05,0F,08,00,00,00,00,00,
97180248,00000100,false,Rx,0,8,00,00,00,00,9A,01,C8,00,
97180520,00000101,false,Rx,0,8,00,FF,FE,00,00,00,00,00,
97180778,00000102,false,Rx,0,8,01,90,01,00,00,01,00,00,
97191837,00000528,false,Rx,0,6,07,0C,00,00,00,00,00,00,
97280248,00000100,false,Rx,0,8,00,00,00,00,9A,01,C8,00,
97287127,00000101,false,Rx,0,8,00,FF,FE,00,00,00,00,00,
97287380,00000102,false,Rx,0,8,01,90,01,00,00,01,00,00,
97315323,00000525,false,Rx,0,6,04,01,71,00,00,00,00,00,
97380246,00000100,false,Rx,0,8,00,00,00,00,9A,01,C8,00,
97381570,00000101,false,Rx,0,8,00,FF,FE,00,00,00,00,00,
97381815,00000102,false,Rx,0,8,01,90,01,00,00,01,00,00,
97470662,00000524,false,Rx,0,6,03,03,E7,FF,FF,FF,00,00,
97481619,00000100,false,Rx,0,8,00,00,00,00,9A,01,C8,00,
97481883,00000101,false,Rx,0,8,00,FF,FE,00,00,00,00,00,
97482147,00000102,false,Rx,0,8,01,90,01,00,00,01,00,00,
97505948,00000521,false,Rx,0,6,00,09,F6,FF,FF,FF,00,00,
97509047,00000527,false,Rx,0,6,06,0E,00,00,00,00,00,00,
97553368,00000523,false,Rx,0,6,02,05,FA,FF,FF,FF,00,00,
97563450,00000522,false,Rx,0,6,01,07,E1,A5,05,00,00,00,
97581930,00000100,false,Rx,0,8,00,00,00,00,9A,01,C8,00,
97582201,00000101,false,Rx,0,8,00,FF,FE,00,00,00,00,00,
97582460,00000102,false,Rx,0,8,01,90,01,00,00,01,00,00,
97687700,00000100,false,Rx,0,8,00,00,00,00,9A,01,C8,00,
97687948,00000101,false,Rx,0,8,00,FF,FE,00,00,00,00,00,
97688200,00000102,false,Rx,0,8,01,90,01,00,00,01,00,00,
97782101,00000100,false,Rx,0,8,00,00,00,00,9A,01,C8,00,
97782348,00000101,false,Rx,0,8,00,FF,FE,00,00,00,00,00,
97782596,00000102,false,Rx,0,8,01,90,01,00,00,01,00,00,
97791768,00000526,false,Rx,0,6,05,00,02,00,00,00,00,00,
97882473,00000100,false,Rx,0,8,00,00,00,00,9A,01,C8,00,
97882738,00000101,false,Rx,0,8,00,FF,FE,00,00,00,00,00,
97883287,00000102,false,Rx,0,8,01,90,01,00,00,01,00,00,
97894396,00000528,false,Rx,0,6,07,0D,00,00,00,00,00,00,
97980230,00000100,false,Rx,0,8,00,00,00,00,9A,01,C8,00,
97980503,00000101,false,Rx,0,8,00,FF,FE,00,00,00,00,00,
97982736,00000102,false,Rx,0,8,01,90,01,00,00,01,00,00,
98001271,00000525,false,Rx,0,6,04,02,71,00,00,00,00,00,
98080233,00000100,false,Rx,0,8,00,00,00,00,9A,01,C8,00,
98086025,00000101,false,Rx,0,8,00,FF,FE,00,00,00,00,00,
98086277,00000102,false,Rx,0,8,01,90,01,00,00,01,00,00,
98120915,00000521,false,Rx,0,6,00,0A,F4,FF,FF,FF,00,00,
98139363,00000524,false,Rx,0,6,03,04,F1,FF,FF,FF,00,00,
98180502,00000100,false,Rx,0,8,00,00,00,00,9A,01,C8,00,
98180741,00000101,false,Rx,0,8,00,FF,FE,00,00,00,00,00,
98180993,00000102,false,Rx,0,8,01,90,01,00,00,01,00,00,
98194933,00000522,false,Rx,0,6,01,08,D7,A5,05,00,00,00,
98203001,00000523,false,Rx,0,6,02,06,FA,FF,FF,FF,00,00,
98231323,00000527,false,Rx,0,6,06,0F,00,00,00,00,00,00,
98283198,00000100,false,Rx,0,8,00,00,00,00,9A,01,C8,00,
98283464,00000101,false,Rx,0,8,00,FF,FE,00,00,00,00,00,
98283730,00000102,false,Rx,0,8,01,90,01,00,00,01,00,00,
98380224,00000100,false,Rx,0,8,00,00,00,00,9A,01,C8,00,
98383332,00000101,false,Rx,0,8,00,FF,FE,00,00,00,00,00,
98383593,00000102,false,Rx,0,8,01,90,01,00,00,01,00,00,
98480228,00000100,false,Rx,0,8,00,00,00,00,9A,01,C8,00,
98485784,00000101,false,Rx,0,8,00,FF,FE,00,00,00,00,00,
98486029,00000102,false,Rx,0,8,01,90,01,00,00,01,00,00,
98495896,00000526,false,Rx,0,6,05,01,00,00,00,00,00,00,
98580221,00000100,false,Rx,0,8,00,00,00,00,9A,01,C8,00,
98580468,00000101,false,Rx,0,8,00,FF,FE,00,00,00,00,00,
98580716,00000102,false,Rx,0,8,01,90,01,00,00,01,00,00,
98634829,00000528,false,Rx,0,6,07,0E,00,00,00,00,00,00,
98680217,00000100,false,Rx,0,8,00,00,00,00,9A,01,C8,00,
98680469,00000101,false,Rx,0,8,00,FF,FE,00,00,00,00,00,
98680717,00000102,false,Rx,0,8,01,90,01,00,00,01,00,00,
98687238,00000525,false,Rx,0,6,04,03,71,00,00,00,00,00,
98732825,00000521,false,Rx,0,6,00,0B,F7,FF,FF,FF,00,00,
98780218,00000100,false,Rx,0,8,00,00,00,00,9A,01,C8,00,
98780468,00000101,false,Rx,0,8,00,FF,FE,00,00,00,00,00,
98780716,00000102,false,Rx,0,8,01,90,01,00,00,01,00,00,
98806934,00000524,false,Rx,0,6,03,05,E7,FF,FF,FF,00,00,
98827068,00000522,false,Rx,0,6,01,09,D9,A5,05,00,00,00,
98852653,00000523,false,Rx,0,6,02,07,DE,FF,FF,FF,00,00,
98882610,00000100,false,Rx,0,8,00,00,00,00,9A,01,C8,00,
98882855,00000101,false,Rx,0,8,00,FF,FE,00,00,00,00,00,
98883107,00000102,false,Rx,0,8,01,90,01,00,00,01,00,00,
98953605,00000527,false,Rx,0,6,06,00,00,00,00,00,00,00,
98980479,00000100,false,Rx,0,8,00,00,00,00,9A,01,C8,00,
98980726,00000101,false,Rx,0,8,00,FF,FE,00,00,00,00,00,
98980977,00000102,false,Rx,0,8,01,90,01,00,00,01,00,00,
99082402,00000100,false,Rx,0,8,00,00,00,00,9A,01,C8,00,
99082668,00000101,false,Rx,0,8,00,FF,FE,00,00,00,00,00,
99082932,00000102,false,Rx,0,8,01,90,01,00,00,01,00,00,
99180206,00000100,false,Rx,0,8,00,00,00,00,9A,01,C8,00,
99182457,00000101,false,Rx,0,8,00,FF,FE,00,00,00,00,00,
99182725,00000102,false,Rx,0,8,01,90,01,00,00,01,00,00,
99200478,00000526,false,Rx,0,6,05,02,06,00,00,00,00,00,
99280209,00000100,false,Rx,0,8,00,00,00,00,9A,01,C8,00,
99280472,00000101,false,Rx,0,8,00,FF,FE,00,00,00,00,00,
99280738,00000102,false,Rx,0,8,01,90,01,00,00,01,00,00,
99345944,00000521,false,Rx,0,6,00,0C,F3,FF,FF,FF,00,00,
99373198,00000525,false,Rx,0,6,04,04,71,00,00,00,00,00,
99375273,00000528,false,Rx,0,6,07,0F,00,00,00,00,00,00,
99380203,00000100,false,Rx,0,8,00,00,00,00,9A,01,C8,00,
99380468,00000101,false,Rx,0,8,00,FF,FE,00,00,00,00,00,
99380734,00000102,false,Rx,0,8,01,90,01,00,00,01,00,00,
99457910,00000522,false,Rx,0,6,01,0A,E2,A5,05,00,00,00,
99474064,00000524,false,Rx,0,6,03,06,EA,FF,FF,FF,00,00,
99480482,00000100,false,Rx,0,8,00,00,00,00,9A,01,C8,00,
99480749,00000101,false,Rx,0,8,00,FF,FE,00,00,00,00,00,
99481013,00000102,false,Rx,0,8,01,90,01,00,00,01,00,00,
99502303,00000523,false,Rx,0,6,02,08,EA,FF,FF,FF,00,00,
99580477,00000100,false,Rx,0,8,00,00,00,00,9A,01,C8,00,
99580743,00000101,false,Rx,0,8,00,FF,FE,00,00,00,00,00,
99581007,00000102,false,Rx,0,8,01,90,01,00,00,01,00,00,
99675871,00000527,false,Rx,0,6,06,01,00,00,00,00,00,00,
99686556,00000100,false,Rx,0,8,00,00,00,00,9A,01,C8,00,
99686802,00000101,false,Rx,0,8,00,FF,FE,00,00,00,00,00,
99687054,00000102,false,Rx,0,8,01,90,01,00,00,01,00,00,
99780726,00000100,false,Rx,0,8,00,00,00,00,9A,01,C8,00,
99780972,00000101,false,Rx,0,8,00,FF,FE,00,00,00,00,00,
99781224,00000102,false,Rx,0,8,01,90,01,00,00,01,00,00,
99881787,00000100,false,Rx,0,8,00,00,00,00,9A,01,C8,00,
99882035,00000101,false,Rx,0,8,00,FF,FE,00,00,00,00,00,
99882287,00000102,false,Rx,0,8,01,90,01,00,00,01,00,00,
99904336,00000526,false,Rx,0,6,05,03,04,00,00,00,00,00,
99959255,00000521,false,Rx,0,6,00,0D,EF,FF,FF,FF,00,00,
99980192,00000100,false,Rx,0,8,00,00,00,00,9A,01,C8,00,
99981830,00000101,false,Rx,0,8,00,FF,FE,00,00,00,00,00,
99982094,00000102,false,Rx,0,8,01,90,01,00,00,01,00,00,
100059142,00000525,false,Rx,0,6,04,05,71,00,00,00,00,00,
100082167,00000100,false,Rx,0,8,00,00,00,00,9A,01,C8,00,
100082426,00000101,false,Rx,0,8,00,FF,FE,00,00,00,00,00,
100082693,00000102,false,Rx,0,8,01,90,01,00,00,01,00,00,
100089376,00000522,false,Rx,0,6,01,0B,DF,A5,05,00,00,00,
100116164,00000528,false,Rx,0,6,07,00,00,00,00,00,00,00,
100116404,00000528,false,Rx,0,6,07,00,00,00,00,00,00,00,
100116644,00000528,false,Rx,0,6,07,00,00,00,00,00,00,00,
100116883,00000528,false,Rx,0,6,07,00,00,00,00,00,00,00,
100117123,00000528,false,Rx,0,6,07,00,00,00,00,00,00,00,
100117363,00000528,false,Rx,0,6,07,00,00,00,00,00,00,00,
100117603,00000528,false,Rx,0,6,07,00,00,00,00,00,00,00,
100141855,00000524,false,Rx,0,6,03,07,ED,FF,FF,FF,00,00,
100151935,00000523,false,Rx,0,6,02,09,EA,FF,FF,FF,00,00,
100180188,00000100,false,Rx,0,8,00,00,00,00,9A,01,C8,00,
100180453,00000101,false,Rx,0,8,00,FF,FE,00,00,00,00,00,
100180712,00000102,false,Rx,0,8,01,90,01,00,00,01,00,00,
100280187,00000100,false,Rx,0,8,00,00,00,00,9A,01,C8,00,
100280446,00000101,false,Rx,0,8,00,FF,FE,00,00,00,00,00,
100280711,00000102,false,Rx,0,8,01,90,01,00,00,01,00,00,
100380179,00000100,false,Rx,0,8,00,00,00,00,9A,01,C8,00,
100380444,00000101,false,Rx,0,8,00,FF,FE,00,00,00,00,00,
100380711,00000102,false,Rx,0,8,01,90,01,00,00,01,00,00,
100398126,00000527,false,Rx,0,6,06,02,00,00,00,00,00,00,
100480178,00000100,false,Rx,0,8,00,00,00,00,9A,01,C8,00,
100480443,00000101,false,Rx,0,8,00,FF,FE,00,00,00,00,00,
100480710,00000102,false,Rx,0,8,01,90,01,00,00,01,00,00,
100572581,00000521,false,Rx,0,6,00,0E,F7,FF,FF,FF,00,00,
100580178,00000100,false,Rx,0,8,00,00,00,00,9A,01,C8,00,
100580445,00000101,false,Rx,0,8,00,FF,FE,00,00,00,00,00,
100580705,00000102,false,Rx,0,8,01,90,01,00,00,01,00,00,
100608212,00000526,false,Rx,0,6,05,04,08,00,00,00,00,00,
100680175,00000100,false,Rx,0,8,00,00,00,00,9A,01,C8,00,
100680443,00000101,false,Rx,0,8,00,FF,FE,00,00,00,00,00,
100680703,00000102,false,Rx,0,8,01,90,01,00,00,01,00,00,
100720897,00000522,false,Rx,0,6,01,0C,D7,A5,05,00,00,00,
100721124,00000522,false,Rx,0,6,01,0C,D7,A5,05,00,00,00,
100721358,00000522,false,Rx,0,6,01,0C,D7,A5,05,00,00,00,
100721594,00000522,false,Rx,0,6,01,0C,D7,A5,05,00,00,00,
100721821,00000522,false,Rx,0,6,01,0C,D7,A5,05,00,00,00,
100722054,00000522,false,Rx,0,6,01,0C,D7,A5,05,00,00,00,
100722288,00000522,false,Rx,0,6,01,0C,D7,A5,05,00,00,00,
100722523,00000522,false,Rx,0,6,01,0C,D7,A5,05,00,00,00,
100722750,00000522,false,Rx,0,6,01,0C,D7,A5,05,00,00,00,
100745109,00000525,false,Rx,0,6,04,06,72,00,00,00,00,00,
100780175,00000100,false,Rx,0,8,00,00,00,00,9A,01,C8,00,
100780440,00000101,false,Rx,0,8,00,FF,FE,00,00,00,00,00,
100780700,00000102,false,Rx,0,8,01,90,01,00,00,01,00,00,
100801570,00000523,false,Rx,0,6,02,0A,FC,FF,FF,FF,00,00,
100809645,00000524,false,Rx,0,6,03,08,E7,FF,FF,FF,00,00,
100856125,00000528,false,Rx,0,6,07,01,00,00,00,00,00,00,
100856366,00000528,false,Rx,0,6,07,01,00,00,00,00,00,00,
100856599,00000528,false,Rx,0,6,07,01,00,00,00,00,00,00,
100880173,00000100,false,Rx,0,8,00,00,00,00,9A,01,C8,00,
100880438,00000101,false,Rx,0,8,00,FF,FE,00,00,00,00,00,
100880704,00000102,false,Rx,0,8,01,90,01,00,00,01,00,00,
100987643,00000100,false,Rx,0,8,00,00,00,00,9A,01,C8,00,
100987895,00000101,false,Rx,0,8,00,FF,FE,00,00,00,00,00,
100988141,00000102,false,Rx,0,8,01,90,01,00,00,01,00,00,
101082028,00000100,false,Rx,0,8,00,00,00,00,9A,01,C8,00,
101082275,00000101,false,Rx,0,8,00,FF,FE,00,00,00,00,00,
101082523,00000102,false,Rx,0,8,01,90,01,00,00,01,00,00,
101120410,00000527,false,Rx,0,6,06,03,00,00,00,00,00,00,
101182106,00000100,false,Rx,0,8,00,00,00,00,9A,01,C8,00,
101182371,00000101,false,Rx,0,8,00,FF,FE,00,00,00,00,00,
101182637,00000102,false,Rx,0,8,01,90,01,00,00,01,00,00,
101185916,00000521,false,Rx,0,6,00,0F,F8,FF,FF,FF,00,00,
101280727,00000100,false,Rx,0,8,00,00,00,00,9A,01,C8,00,
101280991,00000101,false,Rx,0,8,00,FF,FE,00,00,00,00,00,
101281255,00000102,false,Rx,0,8,01,90,01,00,00,01,00,00,
101312168,00000526,false,Rx,0,6,05,05,05,00,00,00,00,00,
101352354,00000522,false,Rx,0,6,01,0D,D7,A5,05,00,00,00,
101381006,00000100,false,Rx,0,8,00,00,00,00,9A,01,C8,00,
101381269,00000101,false,Rx,0,8,00,FF,FE,00,00,00,00,00,
101381537,00000102,false,Rx,0,8,01,90,01,00,00,01,00,00,
101431067,00000525,false,Rx,0,6,04,07,71,00,00,00,00,00,
101451671,00000523,false,Rx,0,6,02,0B,F8,FF,FF,FF,00,00,
101478627,00000524,false,Rx,0,6,03,09,F2,FF,FF,FF,00,00,
101481849,00000100,false,Rx,0,8,00,00,00,00,9A,01,C8,00,
101482114,00000101,false,Rx,0,8,00,FF,FE,00,00,00,00,00,
101482376,00000102,false,Rx,0,8,01,90,01,00,00,01,00,00,
101580154,00000100,false,Rx,0,8,00,00,00,00,9A,01,C8,00,
101585950,00000101,false,Rx,0,8,00,FF,FE,00,00,00,00,00,
101586202,00000102,false,Rx,0,8,01,90,01,00,00,01,00,00,
101596570,00000528,false,Rx,0,6,07,02,00,00,00,00,00,00,
101681496,00000100,false,Rx,0,8,00,00,00,00,9A,01,C8,00,
101681735,00000101,false,Rx,0,8,00,FF,FE,00,00,00,00,00,
101681981,00000102,false,Rx,0,8,01,90,01,00,00,01,00,00,
101780151,00000100,false,Rx,0,8,00,00,00,00,9A,01,C8,00,
101781758,00000101,false,Rx,0,8,00,FF,FE,00,00,00,00,00,
101782022,00000102,false,Rx,0,8,01,90,01,00,00,01,00,00,
101799499,00000521,false,Rx,0,6,00,00,F6,FF,FF,FF,00,00,
101842700,00000527,false,Rx,0,6,06,04,00,00,00,00,00,00,
101880149,00000100,false,Rx,0,8,00,00,00,00,9A,01,C8,00,
101881252,00000101,false,Rx,0,8,00,FF,FE,00,00,00,00,00,
101881524,00000102,false,Rx,0,8,01,90,01,00,00,01,00,00,
101981560,00000100,false,Rx,0,8,00,00,00,00,9A,01,C8,00,
101981824,00000101,false,Rx,0,8,00,FF,FE,00,00,00,00,00,
101982088,00000102,false,Rx,0,8,01,90,01,00,00,01,00,00,
101983855,00000522,false,Rx,0,6,01,0E,E2,A5,05,00,00,00,
102016492,00000526,false,Rx,0,6,05,06,02,00,00,00,00,00,
102080150,00000100,false,Rx,0,8,00,00,00,00,9A,01,C8,00,
102081831,00000101,false,Rx,0,8,00,FF,FE,00,00,00,00,00,
102082095,00000102,false,Rx,0,8,01,90,01,00,00,01,00,00,
102102669,00000523,false,Rx,0,6,02,0C,F8,FF,FF,FF,00,00,
102117292,00000525,false,Rx,0,6,04,08,71,00,00,00,00,00,
102145277,00000524,false,Rx,0,6,03,0A,F8,FF,FF,FF,00,00,
102180144,00000100,false,Rx,0,8,00,00,00,00,9A,01,C8,00,
102184632,00000101,false,Rx,0,8,00,FF,FE,00,00,00,00,00,
102186205,00000102,false,Rx,0,8,01,90,01,00,00,01,00,00,
102285045,00000100,false,Rx,0,8,00,00,00,00,9A,01,C8,00,
102285309,00000101,false,Rx,0,8,00,FF,FE,00,00,00,00,00,
102285569,00000102,false,Rx,0,8,01,90,01,00,00,01,00,00,
102337257,00000528,false,Rx,0,6,07,03,00,00,00,00,00,00,
102337504,00000528,false,Rx,0,6,07,03,00,00,00,00,00,00,
102337737,00000528,false,Rx,0,6,07,03,00,00,00,00,00,00,
102337976,00000528,false,Rx,0,6,07,03,00,00,00,00,00,00,
102338209,00000528,false,Rx,0,6,07,03,00,00,00,00,00,00,
102380138,00000100,false,Rx,0,8,00,00,00,00,9A,01,C8,00,
102380402,00000101,false,Rx,0,8,00,FF,FE,00,00,00,00,00,
102380668,00000102,false,Rx,0,8,01,90,01,00,00,01,00,00,
102412607,00000521,false,Rx,0,6,00,01,F7,FF,FF,FF,00,00,
102412839,00000521,false,Rx,0,6,00,01,F7,FF,FF,FF,00,00,
102413079,00000521,false,Rx,0,6,00,01,F7,FF,FF,FF,00,00,
102413323,00000521,false,Rx,0,6,00,01,F7,FF,FF,FF,00,00,
102413557,00000521,false,Rx,0,6,00,01,F7,FF,FF,FF,00,00,
102413797,00000521,false,Rx,0,6,00,01,F7,FF,FF,FF,00,00,
102414029,00000521,false,Rx,0,6,00,01,F7,FF,FF,FF,00,00,
102414269,00000521,false,Rx,0,6,00,01,F7,FF,FF,FF,00,00,
102414517,00000521,false,Rx,0,6,00,01,F7,FF,FF,FF,00,00,
102414743,00000521,false,Rx,0,6,00,01,F7,FF,FF,FF,00,00,
102414983,00000521,false,Rx,0,6,00,01,F7,FF,FF,FF,00,00,
102480142,00000100,false,Rx,0,8,00,00,00,00,9A,01,C8,00,
102480401,00000101,false,Rx,0,8,00,FF,FE,00,00,00,00,00,
102480668,00000102,false,Rx,0,8,01,90,01,00,00,01,00,00,
102565005,00000527,false,Rx,0,6,06,05,00,00,00,00,00,00,
102580138,00000100,false,Rx,0,8,00,00,00,00,9A,01,C8,00,
102580402,00000101,false,Rx,0,8,00,FF,FE,00,00,00,00,00,
102580662,00000102,false,Rx,0,8,01,90,01,00,00,01,00,00,
102615373,00000522,false,Rx,0,6,01,0F,DC,A5,05,00,00,00,
102650131,00000108,false,Rx,0,8,01,F4,01,6B,9A,01,00,00,
102650371,00000109,false,Rx,0,8,01,09,00,08,00,20,00,00,
102680131,00000100,false,Rx,0,8,00,00,00,00,9A,01,C8,00,
102680396,00000101,false,Rx,0,8,00,FF,FE,00,00,00,00,00,
102680662,00000102,false,Rx,0,8,01,90,01,00,00,01,00,00,
102720614,00000526,false,Rx,0,6,05,07,0B,00,00,00,00,00,
102720847,00000526,false,Rx,0,6,05,07,0B,00,00,00,00,00,
102750132,00000108,false,Rx,0,8,01,F4,01,6B,9A,01,00,00,
102750372,00000109,false,Rx,0,8,01,09,00,08,00,20,00,00,
102780130,00000100,false,Rx,0,8,00,00,00,00,9A,01,C8,00,
102780396,00000101,false,Rx,0,8,00,FF,FE,00,00,00,00,00,
102780661,00000102,false,Rx,0,8,01,90,01,00,00,01,00,00,
102825824,00000523,false,Rx,0,6,02,0D,F5,FF,FF,FF,00,00,
102851156,00000108,false,Rx,0,8,01,F4,01,6B,9A,01,00,00,
102851403,00000109,false,Rx,0,8,01,09,00,08,00,20,00,00,
102881262,00000100,false,Rx,0,8,00,00,00,00,9A,01,C8,00,
102881521,00000101,false,Rx,0,8,00,FF,FE,00,00,00,00,00,
102881785,00000102,false,Rx,0,8,01,90,01,00,00,01,00,00,
102951420,00000108,false,Rx,0,8,01,F4,01,6B,9A,01,00,00,
102951920,00000109,false,Rx,0,8,01,09,00,08,00,20,00,00,
102981534,00000100,false,Rx,0,8,00,00,00,00,9A,01,C8,00,
102981804,00000101,false,Rx,0,8,00,FF,FE,00,00,00,00,00,
102982069,00000102,false,Rx,0,8,01,90,01,00,00,01,00,00,
103025947,00000521,false,Rx,0,6,00,02,F5,FF,FF,FF,00,00,
103026168,00000524,false,Rx,0,6,03,0B,F8,FF,FF,FF,00,00,
103027494,00000525,false,Rx,0,6,04,09,71,00,00,00,00,00,
103050390,00000108,false,Rx,0,8,01,F4,01,6B,9A,01,00,00,
103051155,00000109,false,Rx,0,8,01,09,00,08,00,20,00,00,
103077497,00000528,false,Rx,0,6,07,04,00,00,00,00,00,00,
103080125,00000100,false,Rx,0,8,00,00,00,00,9A,01,C8,00,
103086741,00000101,false,Rx,0,8,00,FF,FE,00,00,00,00,00,
103086987,00000102,false,Rx,0,8,01,90,01,00,00,01,00,00,
103150904,00000108,false,Rx,0,8,01,F4,01,6B,9A,01,00,00,
103151422,00000109,false,Rx,0,8,01,09,00,08,00,20,FF,FE,
103181187,00000100,false,Rx,0,8,00,00,00,00,9A,01,C8,00,
103181434,00000101,false,Rx,0,8,00,FF,FE,00,00,00,00,00,
103181682,00000102,false,Rx,0,8,01,90,01,00,00,01,00,00,
103246879,00000522,false,Rx,0,6,01,00,DC,A5,05,00,00,00,
103250684,00000108,false,Rx,0,8,01,F4,01,6B,9A,01,00,00,
103251499,00000109,false,Rx,0,8,01,09,00,08,00,20,FF,FE,
103280119,00000100,false,Rx,0,8,00,00,00,00,9A,01,C8,00,
103283161,00000101,false,Rx,0,8,00,FF,FE,00,00,00,00,00,
103283425,00000102,false,Rx,0,8,01,90,01,00,00,01,00,00,
103287323,00000527,false,Rx,0,6,06,06,00,00,00,00,00,00,
103350143,00000108,false,Rx,0,8,01,F4,01,6B,9A,01,00,00,
103352052,00000109,false,Rx,0,8,01,09,00,08,00,20,FF,FE,
103380120,00000100,false,Rx,0,8,00,00,00,00,9A,01,C8,00,
103387379,00000101,false,Rx,0,8,00,FF,FE,00,00,00,00,00,
103387627,00000102,false,Rx,0,8,01,90,01,00,00,01,00,00,
103400227,00000523,false,Rx,0,6,02,0E,E4,FF,FF,FF,00,00,
103424774,00000526,false,Rx,0,6,05,08,02,00,00,00,00,00,
103450691,00000108,false,Rx,0,8,01,F4,01,6B,9A,01,00,00,
103450949,00000109,false,Rx,0,8,01,09,00,08,00,20,FF,FE,
103480119,00000100,false,Rx,0,8,00,00,00,00,9A,01,C8,00,
103480366,00000101,false,Rx,0,8,00,FF,FE,00,00,00,00,00,
103480614,00000102,false,Rx,0,8,01,90,01,00,00,01,00,00,
103480940,00000524,false,Rx,0,6,03,0C,F5,FF,FF,FF,00,00,
103489020,00000525,false,Rx,0,6,04,0A,71,00,00,00,00,00,
103550144,00000108,false,Rx,0,8,01,F4,01,6B,9A,01,00,00,
103550402,00000109,false,Rx,0,8,01,09,00,08,00,20,FF,FE,
103580110,00000100,false,Rx,0,8,00,00,00,00,9A,01,C8,00,
103580363,00000101,false,Rx,0,8,00,FF,FE,00,00,00,00,00,
103580611,00000102,false,Rx,0,8,01,90,01,00,00,01,00,00,
103639323,00000521,false,Rx,0,6,00,03,FA,FF,FF,FF,00,00,
103650150,00000108,false,Rx,0,8,01,F4,01,6B,9A,01,00,00,
103650679,00000109,false,Rx,0,8,01,09,00,08,00,24,FF,FE,
103680114,00000100,false,Rx,0,8,00,00,00,00,9A,01,C8,00,
103680366,00000101,false,Rx,0,8,00,FF,FE,00,00,00,00,00,
103680614,00000102,false,Rx,0,8,01,90,01,00,00,01,00,00,
103750153,00000108,false,Rx,0,8,01,F4,01,6B,9A,01,00,00,
103750682,00000109,false,Rx,0,8,01,0B,00,08,00,24,FF,FE,
103780112,00000100,false,Rx,0,8,00,00,00,00,9A,01,C8,00,
103780359,00000101,false,Rx,0,8,00,FF,FE,00,00,00,00,00,
103780605,00000102,false,Rx,0,8,01,90,01,00,00,01,00,00,
103817944,00000528,false,Rx,0,6,07,05,00,00,00,00,00,00,
103850159,00000108,false,Rx,0,8,01,F4,01,6B,9A,01,00,00,
103850417,00000109,false,Rx,0,8,01,0C,00,08,00,24,FF,FE,
103878385,00000522,false,Rx,0,6,01,01,DE,A5,05,00,00,00,
103880109,00000100,false,Rx,0,8,00,00,00,00,9A,01,C8,00,
103880354,00000101,false,Rx,0,8,00,FF,FE,00,00,00,00,00,
103880606,00000102,false,Rx,0,8,01,90,01,00,00,01,00,00,
103950156,00000108,false,Rx,0,8,01,F4,01,6B,9A,01,00,00,
103950681,00000109,false,Rx,0,8,01,0C,00,08,00,24,FF,FE,
103985519,00000100,false,Rx,0,8,00,00,00,00,9A,01,C8,00,
103985784,00000101,false,Rx,0,8,00,FF,FE,00,00,00,00,00,
103986049,00000102,false,Rx,0,8,01,90,01,00,00,01,00,00,
104009613,00000527,false,Rx,0,6,06,07,00,00,00,00,00,00,
104050387,00000523,false,Rx,0,6,02,0F,E4,FF,FF,FF,00,00,
104055017,00000108,false,Rx,0,8,01,F4,01,6B,9A,01,00,00,
104056536,00000109,false,Rx,0,8,01,0C,00,08,00,24,FF,FE,
104080385,00000100,false,Rx,0,8,00,00,00,00,9A,01,C8,00,
104080651,00000101,false,Rx,0,8,00,FF,FE,00,00,00,00,00,
104080917,00000102,false,Rx,0,8,01,90,01,00,00,01,00,00,
104128872,00000526,false,Rx,0,6,05,09,01,00,00,00,00,00,
104150626,00000108,false,Rx,0,8,01,F4,01,6B,9A,01,00,00,
104151384,00000109,false,Rx,0,8,01,0D,00,08,00,24,FF,FE,
104151588,00000524,false,Rx,0,6,03,0D,ED,FF,FF,FF,00,00,
104174997,00000525,false,Rx,0,6,04,0B,72,00,00,00,00,00,
104180664,00000100,false,Rx,0,8,00,00,00,00,9A,01,C8,00,
104180929,00000101,false,Rx,0,8,00,FF,FE,00,00,00,00,00,
104181193,00000102,false,Rx,0,8,01,90,01,00,00,01,00,00,
104250417,00000108,false,Rx,0,8,01,F4,01,6B,9A,01,00,00,
104251435,00000109,false,Rx,0,8,01,0D,00,08,00,24,FF,FE,
104252649,00000521,false,Rx,0,6,00,04,F2,FF,FF,FF,00,00,
104280099,00000100,false,Rx,0,8,00,00,00,00,9A,01,C8,00,
104280365,00000101,false,Rx,0,8,00,FF,FE,00,00,00,00,00,
104280624,00000102,false,Rx,0,8,01,90,01,00,00,01,00,00,
104350709,00000108,false,Rx,0,8,01,F4,01,6B,9A,01,00,00,
104350961,00000109,false,Rx,0,8,01,51,00,08,00,24,FF,FE,
104388094,00000100,false,Rx,0,8,00,00,00,00,9A,01,C8,00,
104388341,00000101,false,Rx,0,8,00,FF,FE,00,00,00,00,00,
104388588,00000102,false,Rx,0,8,01,90,01,00,00,01,00,00,
104450981,00000108,false,Rx,0,8,01,F4,01,6B,9A,01,00,00,
104452588,00000109,false,Rx,0,8,01,8E,01,08,00,24,FF,FE,
104481157,00000100,false,Rx,0,8,00,00,00,00,9A,01,C8,00,
104481404,00000101,false,Rx,0,8,00,FF,FE,00,00,00,00,00,
104481651,00000102,false,Rx,0,8,01,90,01,00,00,01,00,00,
104509908,00000522,false,Rx,0,6,01,02,D4,A5,05,00,00,00,
104551525,00000108,false,Rx,0,8,01,F4,01,6B,9A,01,00,00,
104552330,00000109,false,Rx,0,8,01,E3,01,08,00,24,FF,FE,
104558402,00000528,false,Rx,0,6,07,06,00,00,00,00,00,00,
104581471,00000100,false,Rx,0,8,00,00,00,00,9A,01,C8,00,
104581737,00000101,false,Rx,0,8,00,FF,FE,00,00,00,00,00,
104582001,00000102,false,Rx,0,8,01,90,01,00,00,01,00,00,
104654032,00000108,false,Rx,0,8,01,F4,01,6B,9A,01,00,00,
104654526,00000109,false,Rx,0,8,01,FB,01,08,00,24,FF,FE,
104682067,00000100,false,Rx,0,8,00,00,00,00,9A,01,C8,00,
104682326,00000101,false,Rx,0,8,00,FF,FE,00,00,00,00,00,
104682592,00000102,false,Rx,0,8,01,90,01,00,00,01,00,00,
104699563,00000523,false,Rx,0,6,02,00,F1,FF,FF,FF,00,00,
104732402,00000527,false,Rx,0,6,06,08,00,00,00,00,00,00,
104750169,00000108,false,Rx,0,8,01,F4,01,6B,9A,01,00,00,
104751193,00000109,false,Rx,0,8,01,00,02,08,00,24,FF,FE,
104780088,00000100,false,Rx,0,8,00,00,00,00,9A,01,C8,00,
104780638,00000101,false,Rx,0,8,00,FF,FE,00,00,00,00,00,
104780902,00000102,false,Rx,0,8,01,90,01,00,00,01,00,00,
104816597,00000524,false,Rx,0,6,03,0E,FC,FF,FF,FF,00,00,
104833038,00000526,false,Rx,0,6,05,0A,05,00,00,00,00,00,
104851198,00000108,false,Rx,0,8,01,F4,01,6B,9A,01,00,00,
104851445,00000109,false,Rx,0,8,01,00,02,08,00,24,FF,FE,
104861001,00000525,false,Rx,0,6,04,0C,71,00,00,00,00,00,
104867146,00000521,false,Rx,0,6,00,05,F5,FF,FF,FF,00,00,
104867387,00000521,false,Rx,0,6,00,05,F5,FF,FF,FF,00,00,
104867622,00000521,false,Rx,0,6,00,05,F5,FF,FF,FF,00,00,
104867855,00000521,false,Rx,0,6,00,05,F5,FF,FF,FF,00,00,
104868094,00000521,false,Rx,0,6,00,05,F5,FF,FF,FF,00,00,
104880086,00000100,false,Rx,0,8,00,00,00,00,9A,01,C8,00,
104880352,00000101,false,Rx,0,8,00,FF,FE,00,00,00,00,00,
104880612,00000102,false,Rx,0,8,01,90,01,00,00,01,00,00,
104950174,00000108,false,Rx,0,8,01,F4,01,6B,9A,01,00,00,
104950414,00000109,false,Rx,0,8,01,FE,01,08,00,24,FF,FE,
104980082,00000100,false,Rx,0,8,00,00,00,00,9A,01,C8,00,
104980347,00000101,false,Rx,0,8,00,FF,FE,00,00,00,00,00,
104980613,00000102,false,Rx,0,8,01,90,01,00,00,01,00,00,
105050175,00000108,false,Rx,0,8,01,F4,01,6B,9A,01,00,00,
105050416,00000109,false,Rx,0,8,01,FB,01,08,00,24,FF,FE,
105080081,00000100,false,Rx,0,8,00,00,00,00,9A,01,C8,00,
105080346,00000101,false,Rx,0,8,00,FF,FE,00,00,00,00,00,
105080612,00000102,false,Rx,0,8,01,90,01,00,00,01,00,00,
105141415,00000522,false,Rx,0,6,01,03,DF,A5,05,00,00,00,
105150174,00000108,false,Rx,0,8,01,F4,01,6B,9A,01,00,00,
105150421,00000109,false,Rx,0,8,01,F8,01,08,00,24,FF,FE,
105180075,00000100,false,Rx,0,8,00,00,00,00,9A,01,C8,00,
105180346,00000101,false,Rx,0,8,00,FF,FE,00,00,00,00,00,
105180606,00000102,false,Rx,0,8,01,90,01,00,00,01,00,00,
105250178,00000108,false,Rx,0,8,01,F4,01,6B,9A,01,00,00,
105250419,00000109,false,Rx,0,8,01,F5,01,08,00,24,FF,FE,
105280074,00000100,false,Rx,0,8,00,00,00,00,9A,01,C8,00,
105280339,00000101,false,Rx,0,8,00,FF,FE,00,00,00,00,00,
105280606,00000102,false,Rx,0,8,01,90,01,00,00,01,00,00,
105299136,00000528,false,Rx,0,6,07,07,00,00,00,00,00,00,
105299376,00000528,false,Rx,0,6,07,07,00,00,00,00,00,00,
105299618,00000528,false,Rx,0,6,07,07,00,00,00,00,00,00,
105299858,00000528,false,Rx,0,6,07,07,00,00,00,00,00,00,
105349247,00000523,false,Rx,0,6,02,01,FB,FF,FF,FF,00,00,
105350192,00000108,false,Rx,0,8,01,F4,01,6B,9A,01,00,00,
105350432,00000109,false,Rx,0,8,01,F2,01,08,00,24,FF,FE,
105380075,00000100,false,Rx,0,8,00,00,00,00,9A,01,C8,00,
105380339,00000101,false,Rx,0,8,00,FF,FE,00,00,00,00,00,
105380605,00000102,false,Rx,0,8,01,90,01,00,00,01,00,00,
105450182,00000108,false,Rx,0,8,01,F4,01,6B,9A,01,00,00,
105450428,00000109,false,Rx,0,8,01,EF,01,08,00,24,FF,FE,
105454215,00000527,false,Rx,0,6,06,09,00,00,00,00,00,00,
105479375,00000521,false,Rx,0,6,00,06,F5,FF,FF,FF,00,00,
105479603,00000521,false,Rx,0,6,00,06,F5,FF,FF,FF,00,00,
105479837,00000521,false,Rx,0,6,00,06,F5,FF,FF,FF,00,00,
105480089,00000100,false,Rx,0,8,00,00,00,00,9A,01,C8,00,
105480355,00000101,false,Rx,0,8,00,FF,FE,00,00,00,00,00,
105480559,00000521,false,Rx,0,6,00,06,F5,FF,FF,FF,00,00,
105480811,00000102,false,Rx,0,8,01,90,01,00,00,01,00,00,
105484435,00000524,false,Rx,0,6,03,0F,F2,FF,FF,FF,00,00,
105537026,00000526,false,Rx,0,6,05,0B,00,00,00,00,00,00,
105546981,00000525,false,Rx,0,6,04,0D,71,00,00,00,00,00,
105550187,00000108,false,Rx,0,8,01,F4,01,6B,9A,01,00,00,
105550428,00000109,false,Rx,0,8,01,EC,01,08,00,24,FF,FE,
105580068,00000100,false,Rx,0,8,00,00,00,00,9A,01,C8,00,
105580333,00000101,false,Rx,0,8,00,FF,FE,00,00,00,00,00,
105580599,00000102,false,Rx,0,8,01,90,01,00,00,01,00,00,
105650188,00000108,false,Rx,0,8,01,F4,01,6B,9A,01,00,00,
105650429,00000109,false,Rx,0,8,01,E9,01,08,00,24,FF,FE,
105680066,00000100,false,Rx,0,8,00,00,00,00,9A,01,C8,00,
105680331,00000101,false,Rx,0,8,00,FF,FE,00,00,00,00,00,
105680598,00000102,false,Rx,0,8,01,90,01,00,00,01,00,00,
105750188,00000108,false,Rx,0,8,01,F4,01,6B,9A,01,00,00,
105750428,00000109,false,Rx,0,8,01,E6,01,08,00,24,FF,FE,
105772920,00000522,false,Rx,0,6,01,04,DA,A5,05,00,00,00,
105780064,00000100,false,Rx,0,8,00,00,00,00,9A,01,C8,00,
105780330,00000101,false,Rx,0,8,00,FF,FE,00,00,00,00,00,
105780595,00000102,false,Rx,0,8,01,90,01,00,00,01,00,00,
105850192,00000108,false,Rx,0,8,01,F4,01,6B,9A,01,00,00,
105850433,00000109,false,Rx,0,8,01,E5,01,08,00,24,FF,FE,
105880062,00000100,false,Rx,0,8,00,00,00,00,9A,01,C8,00,
105880327,00000101,false,Rx,0,8,00,FF,FE,00,00,00,00,00,
105880594,00000102,false,Rx,0,8,01,90,01,00,00,01,00,00,
105950193,00000108,false,Rx,0,8,01,F4,01,6B,9A,01,00,00,
105950434,00000109,false,Rx,0,8,01,E3,01,08,00,24,FF,FE,
105980062,00000100,false,Rx,0,8,00,00,00,00,9A,01,C8,00,
105980328,00000101,false,Rx,0,8,00,FF,FE,00,00,00,00,00,
105980594,00000102,false,Rx,0,8,01,90,01,00,00,01,00,00,
105998899,00000523,false,Rx,0,6,02,02,FB,FF,FF,FF,00,00,
105999139,00000523,false,Rx,0,6,02,02,FB,FF,FF,FF,00,00,
105999374,00000523,false,Rx,0,6,02,02,FB,FF,FF,FF,00,00,
105999608,00000523,false,Rx,0,6,02,02,FB,FF,FF,FF,00,00,
105999847,00000523,false,Rx,0,6,02,02,FB,FF,FF,FF,00,00,
106000080,00000523,false,Rx,0,6,02,02,FB,FF,FF,FF,00,00,
106000322,00000523,false,Rx,0,6,02,02,FB,FF,FF,FF,00,00,
106050197,00000108,false,Rx,0,8,01,F4,01,6B,9A,01,00,00,
106050438,00000109,false,Rx,0,8,01,E0,01,08,00,24,FF,FE,
106080056,00000100,false,Rx,0,8,00,00,00,00,9A,01,C8,00,
106080328,00000101,false,Rx,0,8,00,FF,FE,00,00,00,00,00,
106080587,00000102,false,Rx,0,8,01,90,01,00,00,01,00,00,
106104432,00000521,false,Rx,0,6,00,07,F6,FF,FF,FF,00,00,
106150967,00000108,false,Rx,0,8,01,F4,01,6B,9A,01,00,00,
106151206,00000109,false,Rx,0,8,01,DD,01,08,00,24,FF,FE,
106152249,00000524,false,Rx,0,6,03,00,F0,FF,FF,FF,00,00,
106152478,00000528,false,Rx,0,6,07,08,00,00,00,00,00,00,
106176525,00000527,false,Rx,0,6,06,0A,00,00,00,00,00,00,
106181751,00000100,false,Rx,0,8,00,00,00,00,9A,01,C8,00,
106182016,00000101,false,Rx,0,8,00,FF,FE,00,00,00,00,00,
106188634,00000102,false,Rx,0,8,01,90,01,00,00,01,00,00,
106232958,00000525,false,Rx,0,6,04,0E,71,00,00,00,00,00,
106241346,00000526,false,Rx,0,6,05,0C,07,00,00,00,00,00,
106250198,00000108,false,Rx,0,8,01,F4,01,6B,9A,01,00,00,
106250693,00000109,false,Rx,0,8,01,DA,01,08,00,24,FF,FE,
106283297,00000100,false,Rx,0,8,00,00,00,00,9A,01,C8,00,
106283557,00000101,false,Rx,0,8,00,FF,FE,00,00,00,00,00,
106283821,00000102,false,Rx,0,8,01,90,01,00,00,01,00,00,
106350971,00000108,false,Rx,0,8,01,F4,01,6B,9A,01,00,00,
106351723,00000109,false,Rx,0,8,01,D7,01,08,00,24,FF,FE,
106383715,00000100,false,Rx,0,8,00,00,00,00,9A,01,C8,00,
106383986,00000101,false,Rx,0,8,00,FF,FE,00,00,00,00,00,
106384250,00000102,false,Rx,0,8,01,90,01,00,00,01,00,00,
106406831,00000522,false,Rx,0,6,01,05,EB,A5,05,00,00,00,
106451563,00000108,false,Rx,0,8,01,F4,01,6B,9A,01,00,00,
106452093,00000109,false,Rx,0,8,01,D4,01,08,00,24,FF,FE,
106480055,00000100,false,Rx,0,8,00,00,00,00,9A,01,C8,00,
106486352,00000101,false,Rx,0,8,00,FF,FE,00,00,00,00,00,
106488502,00000102,false,Rx,0,8,01,90,01,00,00,01,00,00,
106556024,00000108,false,Rx,0,8,01,F4,01,6B,9A,01,00,00,
106556778,00000109,false,Rx,0,8,01,D2,01,08,00,24,FF,FE,
106580050,00000100,false,Rx,0,8,00,00,00,00,9A,01,C8,00,
106582867,00000101,false,Rx,0,8,00,FF,FE,00,00,00,00,00,
106583131,00000102,false,Rx,0,8,01,90,01,00,00,01,00,00,
106648581,00000523,false,Rx,0,6,02,03,F8,FF,FF,FF,00,00,
106652515,00000108,false,Rx,0,8,01,F4,01,6B,9A,01,00,00,
106652754,00000109,false,Rx,0,8,01,CF,01,08,00,24,FF,FE,
106680046,00000100,false,Rx,0,8,00,00,00,00,9A,01,C8,00,
106680883,00000101,false,Rx,0,8,00,FF,FE,00,00,00,00,00,
106681141,00000102,false,Rx,0,8,01,90,01,00,00,01,00,00,
106707427,00000521,false,Rx,0,6,00,08,F7,FF,FF,FF,00,00,
106707662,00000521,false,Rx,0,6,00,08,F7,FF,FF,FF,00,00,
106707895,00000521,false,Rx,0,6,00,08,F7,FF,FF,FF,00,00,
106708128,00000521,false,Rx,0,6,00,08,F7,FF,FF,FF,00,00,
106750211,00000108,false,Rx,0,8,01,F4,01,6B,9A,01,00,00,
106750444,00000109,false,Rx,0,8,01,CC,01,08,00,24,FF,FE,
106779804,00000528,false,Rx,0,6,07,09,00,00,00,00,00,00,
106780056,00000100,false,Rx,0,8,00,00,00,00,9A,01,C8,00,
106780323,00000101,false,Rx,0,8,00,FF,FE,00,00,00,00,00,
106780583,00000102,false,Rx,0,8,01,90,01,00,00,01,00,00,
106820090,00000524,false,Rx,0,6,03,01,FA,FF,FF,FF,00,00,
106850208,00000108,false,Rx,0,8,01,F4,01,6B,9A,01,00,00,
106850449,00000109,false,Rx,0,8,01,CB,01,08,00,24,FF,FE,
106880047,00000100,false,Rx,0,8,00,00,00,00,9A,01,C8,00,
106880310,00000101,false,Rx,0,8,00,FF,FE,00,00,00,00,00,
106880570,00000102,false,Rx,0,8,01,90,01,00,00,01,00,00,
106898834,00000527,false,Rx,0,6,06,0B,00,00,00,00,00,00,
106899074,00000527,false,Rx,0,6,06,0B,00,00,00,00,00,00,
106899316,00000527,false,Rx,0,6,06,0B,00,00,00,00,00,00,
106899551,00000527,false,Rx,0,6,06,0B,00,00,00,00,00,00,
106899790,00000527,false,Rx,0,6,06,0B,00,00,00,00,00,00,
106900023,00000527,false,Rx,0,6,06,0B,00,00,00,00,00,00,
106900262,00000527,false,Rx,0,6,06,0B,00,00,00,00,00,00,
106900503,00000527,false,Rx,0,6,06,0B,00,00,00,00,00,00,
106900750,00000527,false,Rx,0,6,06,0B,00,00,00,00,00,00,
106900978,00000527,false,Rx,0,6,06,0B,00,00,00,00,00,00,
106901217,00000527,false,Rx,0,6,06,0B,00,00,00,00,00,00,
106901457,00000527,false,Rx,0,6,06,0B,00,00,00,00,00,00,
106918967,00000525,false,Rx,0,6,04,0F,71,00,00,00,00,00,
106919194,00000525,false,Rx,0,6,04,0F,71,00,00,00,00,00,
106950209,00000108,false,Rx,0,8,01,F4,01,6B,9A,01,00,00,
106950457,00000109,false,Rx,0,8,01,C8,01,08,00,24,FF,FE,
106980040,00000100,false,Rx,0,8,00,00,00,00,9A,01,C8,00,
106980310,00000101,false,Rx,0,8,00,FF,FE,00,00,00,00,00,
106980569,00000102,false,Rx,0,8,01,90,01,00,00,01,00,00,
107024134,00000526,false,Rx,0,6,05,0D,00,00,00,00,00,00,
107038374,00000522,false,Rx,0,6,01,06,E0,A5,05,00,00,00,
107050993,00000108,false,Rx,0,8,01,F4,01,6B,9A,01,00,00,
107051500,00000109,false,Rx,0,8,01,C5,01,08,00,24,FF,FE,
107080042,00000100,false,Rx,0,8,00,00,00,00,9A,01,C8,00,
107086952,00000101,false,Rx,0,8,00,FF,FE,00,00,00,00,00,
107087204,00000102,false,Rx,0,8,01,90,01,00,00,01,00,00,
107150475,00000108,false,Rx,0,8,01,F4,01,6B,9A,01,00,00,
107150963,00000109,false,Rx,0,8,01,C3,01,08,00,24,FF,FE,
107181365,00000100,false,Rx,0,8,00,00,00,00,9A,01,C8,00,
107181613,00000101,false,Rx,0,8,00,FF,FE,00,00,00,00,00,
107181859,00000102,false,Rx,0,8,01,90,01,00,00,01,00,00,
107250219,00000108,false,Rx,0,8,01,F4,01,6B,9A,01,00,00,
107250459,00000109,false,Rx,0,8,01,C0,01,08,00,24,FF,FE,
107282242,00000100,false,Rx,0,8,00,00,00,00,9A,01,C8,00,
107282514,00000101,false,Rx,0,8,00,FF,FE,00,00,00,00,00,
107282766,00000102,false,Rx,0,8,01,90,01,00,00,01,00,00,
107298251,00000523,false,Rx,0,6,02,04,E5,FF,FF,FF,00,00,
107320006,00000521,false,Rx,0,6,00,09,F7,FF,FF,FF,00,00,
107350767,00000108,false,Rx,0,8,01,F4,01,6B,9A,01,00,00,
107351019,00000109,false,Rx,0,8,01,BE,01,08,00,24,FF,FE,
107382570,00000100,false,Rx,0,8,00,00,00,00,9A,01,C8,00,
107382835,00000101,false,Rx,0,8,00,FF,FE,00,00,00,00,00,
107383099,00000102,false,Rx,0,8,01,90,01,00,00,01,00,00,
107450504,00000108,false,Rx,0,8,01,F4,01,6B,9A,01,00,00,
107450750,00000109,false,Rx,0,8,01,BC,01,08,00,24,FF,FE,
107486618,00000100,false,Rx,0,8,00,00,00,00,9A,01,C8,00,
107486863,00000101,false,Rx,0,8,00,FF,FE,00,00,00,00,00,
107487115,00000102,false,Rx,0,8,01,90,01,00,00,01,00,00,
107487924,00000524,false,Rx,0,6,03,02,EC,FF,FF,FF,00,00,
107520949,00000528,false,Rx,0,6,07,0A,00,00,00,00,00,00,
107521188,00000528,false,Rx,0,6,07,0A,00,00,00,00,00,00,
107521428,00000528,false,Rx,0,6,07,0A,00,00,00,00,00,00,
107521663,00000528,false,Rx,0,6,07,0A,00,00,00,00,00,00,
107521902,00000528,false,Rx,0,6,07,0A,00,00,00,00,00,00,
107522142,00000528,false,Rx,0,6,07,0A,00,00,00,00,00,00,
107550222,00000108,false,Rx,0,8,01,F4,01,6B,9A,01,00,00,
107550475,00000109,false,Rx,0,8,01,B9,01,08,00,24,FF,FE,
107580028,00000100,false,Rx,0,8,00,00,00,00,9A,01,C8,00,
107580281,00000101,false,Rx,0,8,00,FF,FE,00,00,00,00,00,
107580527,00000102,false,Rx,0,8,01,90,01,00,00,01,00,00,
107604951,00000525,false,Rx,0,6,04,00,71,00,00,00,00,00,
107621145,00000527,false,Rx,0,6,06,0C,00,00,00,00,00,00,
107649652,00000526,false,Rx,0,6,05,0E,01,00,00,00,00,00,
107650224,00000108,false,Rx,0,8,01,F4,01,6B,9A,01,00,00,
107650491,00000109,false,Rx,0,8,01,B7,01,08,00,24,FF,FE,
107667463,00000522,false,Rx,0,6,01,07,E1,A5,05,00,00,00,
107680028,00000100,false,Rx,0,8,00,00,00,00,9A,01,C8,00,
107680274,00000101,false,Rx,0,8,00,FF,FE,00,00,00,00,00,
107680522,00000102,false,Rx,0,8,01,90,01,00,00,01,00,00,
107750229,00000108,false,Rx,0,8,01,F4,01,6B,9A,01,00,00,
107750482,00000109,false,Rx,0,8,01,B5,01,08,00,24,FF,FE,
107780026,00000100,false,Rx,0,8,00,00,00,00,9A,01,C8,00,
107780271,00000101,false,Rx,0,8,00,FF,FE,00,00,00,00,00,
107780526,00000102,false,Rx,0,8,01,90,01,00,00,01,00,00,
107850228,00000108,false,Rx,0,8,01,F4,01,6B,9A,01,00,00,
107850495,00000109,false,Rx,0,8,01,B3,01,08,00,24,FF,FE,
107880024,00000100,false,Rx,0,8,00,00,00,00,9A,01,C8,00,
107880269,00000101,false,Rx,0,8,00,FF,FE,00,00,00,00,00,
107880523,00000102,false,Rx,0,8,01,90,01,00,00,01,00,00,
107932779,00000521,false,Rx,0,6,00,0A,F5,FF,FF,FF,00,00,
107947927,00000523,false,Rx,0,6,02,05,E5,FF,FF,FF,00,00,
107950230,00000108,false,Rx,0,8,01,F4,01,6B,9A,01,00,00,
107950496,00000109,false,Rx,0,8,01,B2,01,08,00,24,FF,FE,
107980019,00000100,false,Rx,0,8,00,00,00,00,9A,01,C8,00,
107980271,00000101,false,Rx,0,8,00,FF,FE,00,00,00,00,00,
107980519,00000102,false,Rx,0,8,01,90,01,00,00,01,00,00,
108050232,00000108,false,Rx,0,8,01,F4,01,6B,9A,01,00,00,
108050498,00000109,false,Rx,0,8,01,AF,01,08,00,24,FF,FE,
108080020,00000100,false,Rx,0,8,00,00,00,00,9A,01,C8,00,
108080265,00000101,false,Rx,0,8,00,FF,FE,00,00,00,00,00,
108080519,00000102,false,Rx,0,8,01,90,01,00,00,01,00,00,
108150235,00000108,false,Rx,0,8,01,F4,01,6B,9A,01,00,00,
108150501,00000109,false,Rx,0,8,01,AC,01,08,00,24,FF,FE,
108155744,00000524,false,Rx,0,6,03,03,EA,FF,FF,FF,00,00,
108180017,00000100,false,Rx,0,8,00,00,00,00,9A,01,C8,00,
108180263,00000101,false,Rx,0,8,00,FF,FE,00,00,00,00,00,
108180523,00000102,false,Rx,0,8,01,90,01,00,00,01,00,00,
108250235,00000108,false,Rx,0,8,01,F4,01,6B,9A,01,00,00,
108250482,00000109,false,Rx,0,8,01,AA,01,08,00,24,FF,FE,
108260734,00000528,false,Rx,0,6,07,0B,00,00,00,00,00,00,
108280014,00000100,false,Rx,0,8,00,00,00,00,9A,01,C8,00,
108280266,00000101,false,Rx,0,8,00,FF,FE,00,00,00,00,00,
108280520,00000102,false,Rx,0,8,01,90,01,00,00,01,00,00,
108290933,00000525,false,Rx,0,6,04,01,71,00,00,00,00,00,
108298977,00000522,false,Rx,0,6,01,08,E0,A5,05,00,00,00,
108343445,00000527,false,Rx,0,6,06,0D,00,00,00,00,00,00,
108350239,00000108,false,Rx,0,8,01,F4,01,6B,9A,01,00,00,
108350480,00000109,false,Rx,0,8,01,A8,01,08,00,24,FF,FE,
108353755,00000526,false,Rx,0,6,05,0F,06,00,00,00,00,00,
108380009,00000100,false,Rx,0,8,00,00,00,00,9A,01,C8,00,
108380261,00000101,false,Rx,0,8,00,FF,FE,00,00,00,00,00,
108380514,00000102,false,Rx,0,8,01,90,01,00,00,01,00,00,
108450245,00000108,false,Rx,0,8,01,F4,01,6B,9A,01,00,00,
108450494,00000109,false,Rx,0,8,01,A5,01,08,00,24,FF,FE,
108480010,00000100,false,Rx,0,8,00,00,00,00,9A,01,C8,00,
108480256,00000101,false,Rx,0,8,00,FF,FE,00,00,00,00,00,
108480517,00000102,false,Rx,0,8,01,90,01,00,00,01,00,00,
108546149,00000521,false,Rx,0,6,00,0B,F6,FF,FF,FF,00,00,
108550245,00000108,false,Rx,0,8,01,F4,01,6B,9A,01,00,00,
108550493,00000109,false,Rx,0,8,01,A2,01,08,00,24,FF,FE,
108580004,00000100,false,Rx,0,8,00,00,00,00,9A,01,C8,00,
108580256,00000101,false,Rx,0,8,00,FF,FE,00,00,00,00,00,
108580501,00000102,false,Rx,0,8,01,90,01,00,00,01,00,00,
108597610,00000523,false,Rx,0,6,02,06,FB,FF,FF,FF,00,00,
108650247,00000108,false,Rx,0,8,01,F4,01,6B,9A,01,00,00,
108650496,00000109,false,Rx,0,8,01,A0,01,08,00,24,FF,FE,
108680005,00000100,false,Rx,0,8,00,00,00,00,9A,01,C8,00,
108680257,00000101,false,Rx,0,8,00,FF,FE,00,00,00,00,00,
108680503,00000102,false,Rx,0,8,01,90,01,00,00,01,00,00,
108750253,00000108,false,Rx,0,8,01,F4,01,6B,9A,01,00,00,
108750495,00000109,false,Rx,0,8,01,9E,01,08,00,24,FF,FE,
108780004,00000100,false,Rx,0,8,00,00,00,00,9A,01,C8,00,
108780250,00000101,false,Rx,0,8,00,FF,FE,00,00,00,00,00,
108780498,00000102,false,Rx,0,8,01,90,01,00,00,01,00,00,
108823567,00000524,false,Rx,0,6,03,04,F7,FF,FF,FF,00,00,
108850247,00000108,false,Rx,0,8,01,F4,01,6B,9A,01,00,00,
108850495,00000109,false,Rx,0,8,01,9B,01,08,00,24,FF,FE,
108880001,00000100,false,Rx,0,8,00,00,00,00,9A,01,C8,00,
108880253,00000101,false,Rx,0,8,00,FF,FE,00,00,00,00,00,
108880501,00000102,false,Rx,0,8,01,90,01,00,00,01,00,00,
108930480,00000522,false,Rx,0,6,01,09,DD,A5,05,00,00,00,
108950249,00000108,false,Rx,0,8,01,F4,01,6B,9A,01,00,00,
108950497,00000109,false,Rx,0,8,01,9A,01,08,00,24,FF,FE,
108976914,00000525,false,Rx,0,6,04,02,71,00,00,00,00,00,
108979996,00000100,false,Rx,0,8,00,00,00,00,9A,01,C8,00,
108980248,00000101,false,Rx,0,8,00,FF,FE,00,00,00,00,00,
108980501,00000102,false,Rx,0,8,01,90,01,00,00,01,00,00,
109001179,00000528,false,Rx,0,6,07,0C,00,00,00,00,00,00,
109050257,00000108,false,Rx,0,8,01,F4,01,6B,9A,01,00,00,
109050505,00000109,false,Rx,0,8,01,98,01,08,00,24,FF,FE,
109057925,00000526,false,Rx,0,6,05,00,02,00,00,00,00,00,
109065739,00000527,false,Rx,0,6,06,0E,00,00,00,00,00,00,
109065979,00000527,false,Rx,0,6,06,0E,00,00,00,00,00,00,
109066219,00000527,false,Rx,0,6,06,0E,00,00,00,00,00,00,
109066453,00000527,false,Rx,0,6,06,0E,00,00,00,00,00,00,
109066694,00000527,false,Rx,0,6,06,0E,00,00,00,00,00,00,
109066933,00000527,false,Rx,0,6,06,0E,00,00,00,00,00,00,
109079995,00000100,false,Rx,0,8,00,00,00,00,9A,01,C8,00,
109080247,00000101,false,Rx,0,8,00,FF,FE,00,00,00,00,00,
109080500,00000102,false,Rx,0,8,01,90,01,00,00,01,00,00,
109150260,00000108,false,Rx,0,8,01,F4,01,6B,9A,01,00,00,
109150502,00000109,false,Rx,0,8,01,96,01,08,00,24,FF,FE,
109159493,00000521,false,Rx,0,6,00,0C,F4,FF,FF,FF,00,00,
109179991,00000100,false,Rx,0,8,00,00,00,00,9A,01,C8,00,
109180243,00000101,false,Rx,0,8,00,FF,FE,00,00,00,00,00,
109180497,00000102,false,Rx,0,8,01,90,01,00,00,01,00,00,
109247269,00000523,false,Rx,0,6,02,07,F5,FF,FF,FF,00,00,
109250259,00000108,false,Rx,0,8,01,F4,01,6B,9A,01,00,00,
109250500,00000109,false,Rx,0,8,01,94,01,08,00,24,FF,FE,
109279989,00000100,false,Rx,0,8,00,00,00,00,9A,01,C8,00,
109280241,00000101,false,Rx,0,8,00,FF,FE,00,00,00,00,00,
109280495,00000102,false,Rx,0,8,01,90,01,00,00,01,00,00,
109350257,00000108,false,Rx,0,8,01,F4,01,6B,9A,01,00,00,
109350503,00000109,false,Rx,0,8,01,96,01,08,00,24,FF,FE,
109379997,00000100,false,Rx,0,8,00,00,00,00,9A,01,C8,00,
109380243,00000101,false,Rx,0,8,00,FF,FE,00,00,00,00,00,
109380497,00000102,false,Rx,0,8,01,90,01,00,00,01,00,00,
109450520,00000108,false,Rx,0,8,01,F4,01,6B,9A,01,00,00,
109450753,00000109,false,Rx,0,8,01,99,01,08,00,24,FF,FE,
109479991,00000100,false,Rx,0,8,00,00,00,00,9A,01,C8,00,
109480236,00000101,false,Rx,0,8,00,FF,FE,00,00,00,00,00,
109480483,00000102,false,Rx,0,8,01,90,01,00,00,01,00,00,
109491385,00000524,false,Rx,0,6,03,05,E6,FF,FF,FF,00,00,
109550266,00000108,false,Rx,0,8,01,F4,01,6B,9A,01,00,00,
109550514,00000109,false,Rx,0,8,01,98,01,08,00,24,FF,FE,
109561988,00000522,false,Rx,0,6,01,0A,F4,A5,05,00,00,00,
109562222,00000522,false,Rx,0,6,01,0A,F4,A5,05,00,00,00,
109562451,00000522,false,Rx,0,6,01,0A,F4,A5,05,00,00,00,
109562679,00000522,false,Rx,0,6,01,0A,F4,A5,05,00,00,00,
109562912,00000522,false,Rx,0,6,01,0A,F4,A5,05,00,00,00,
109563139,00000522,false,Rx,0,6,01,0A,F4,A5,05,00,00,00,
109563372,00000522,false,Rx,0,6,01,0A,F4,A5,05,00,00,00,
109563600,00000522,false,Rx,0,6,01,0A,F4,A5,05,00,00,00,
109563834,00000522,false,Rx,0,6,01,0A,F4,A5,05,00,00,00,
109579982,00000100,false,Rx,0,8,00,00,00,00,9A,01,C8,00,
109580235,00000101,false,Rx,0,8,00,FF,FE,00,00,00,00,00,
109580481,00000102,false,Rx,0,8,01,90,01,00,00,01,00,00,
109650266,00000108,false,Rx,0,8,01,F4,01,6B,9A,01,00,00,
109650514,00000109,false,Rx,0,8,01,96,01,08,00,24,FF,FE,
109662901,00000525,false,Rx,0,6,04,03,71,00,00,00,00,00,
109679983,00000100,false,Rx,0,8,00,00,00,00,9A,01,C8,00,
109680235,00000101,false,Rx,0,8,00,FF,FE,00,00,00,00,00,
109680482,00000102,false,Rx,0,8,01,90,01,00,00,01,00,00,
109741640,00000528,false,Rx,0,6,07,0D,00,00,00,00,00,00,
109750269,00000108,false,Rx,0,8,01,F4,01,6B,9A,01,00,00,
109750518,00000109,false,Rx,0,8,01,97,01,08,00,24,FF,FE,
109761881,00000526,false,Rx,0,6,05,01,01,00,00,00,00,00,
109772829,00000521,false,Rx,0,6,00,0D,F3,FF,FF,FF,00,00,
109779979,00000100,false,Rx,0,8,00,00,00,00,9A,01,C8,00,
109780231,00000101,false,Rx,0,8,00,FF,FE,00,00,00,00,00,
109780477,00000102,false,Rx,0,8,01,90,01,00,00,01,00,00,
109788040,00000527,false,Rx,0,6,06,0F,00,00,00,00,00,00,
109788280,00000527,false,Rx,0,6,06,0F,00,00,00,00,00,00,
109850270,00000108,false,Rx,0,8,01,F4,01,6B,9A,01,00,00,
109850518,00000109,false,Rx,0,8,01,97,01,08,00,24,FF,FE,
109879982,00000100,false,Rx,0,8,00,00,00,00,9A,01,C8,00,
109880227,00000101,false,Rx,0,8,00,FF,FE,00,00,00,00,00,
109880474,00000102,false,Rx,0,8,01,90,01,00,00,01,00,00,
109896921,00000523,false,Rx,0,6,02,08,F5,FF,FF,FF,00,00,
109950529,00000108,false,Rx,0,8,01,F4,01,6B,9A,01,00,00,
109951273,00000109,false,Rx,0,8,01,97,01,08,00,24,FF,FE,
109983688,00000100,false,Rx,0,8,00,00,00,00,9A,01,C8,00,
109983940,00000101,false,Rx,0,8,00,FF,FE,00,00,00,00,00,
109984186,00000102,false,Rx,0,8,01,90,01,00,00,01,00,00,
110051634,00000108,false,Rx,0,8,01,F4,01,6B,9A,01,00,00,
110051893,00000109,false,Rx,0,8,01,97,01,08,00,24,FF,FE,
110080808,00000100,false,Rx,0,8,00,00,00,00,9A,01,C8,00,
110081072,00000101,false,Rx,0,8,00,FF,FE,00,00,00,00,00,
110081337,00000102,false,Rx,0,8,01,90,01,00,00,01,00,00,
110150551,00000108,false,Rx,0,8,01,F4,01,6B,9A,01,00,00,
110151619,00000109,false,Rx,0,8,01,98,01,08,00,24,FF,FE,
110159235,00000524,false,Rx,0,6,03,06,DE,FF,FF,FF,00,00,
110180816,00000100,false,Rx,0,8,00,00,00,00,9A,01,C8,00,
110181086,00000101,false,Rx,0,8,00,FF,FE,00,00,00,00,00,
110181345,00000102,false,Rx,0,8,01,90,01,00,00,01,00,00,
110194090,00000522,false,Rx,0,6,01,0B,E0,A5,05,00,00,00,
110251366,00000108,false,Rx,0,8,01,F4,01,6B,9A,01,00,00,
110251897,00000109,false,Rx,0,8,01,98,01,08,00,24,FF,FE,
110281102,00000100,false,Rx,0,8,00,00,00,00,9A,01,C8,00,
110281360,00000101,false,Rx,0,8,00,FF,FE,00,00,00,00,00,
110281626,00000102,false,Rx,0,8,01,90,01,00,00,01,00,00,
110350711,00000525,false,Rx,0,6,04,04,71,00,00,00,00,00,
110351501,00000108,false,Rx,0,8,01,F4,01,6B,9A,01,00,00,
110355353,00000109,false,Rx,0,8,01,97,01,08,00,24,FF,FE,
110381377,00000100,false,Rx,0,8,00,00,00,00,9A,01,C8,00,
110381644,00000101,false,Rx,0,8,00,FF,FE,00,00,00,00,00,
110381908,00000102,false,Rx,0,8,01,90,01,00,00,01,00,00,
110387424,00000521,false,Rx,0,6,00,0E,F2,FF,FF,FF,00,00,
110450538,00000108,false,Rx,0,8,01,F4,01,6B,9A,01,00,00,
110454933,00000109,false,Rx,0,8,01,98,01,08,00,24,FF,FE,
110468516,00000526,false,Rx,0,6,05,02,07,00,00,00,00,00,
110468749,00000526,false,Rx,0,6,05,02,07,00,00,00,00,00,
110479970,00000100,false,Rx,0,8,00,00,00,00,9A,01,C8,00,
110480234,00000101,false,Rx,0,8,00,FF,FE,00,00,00,00,00,
110480500,00000102,false,Rx,0,8,01,90,01,00,00,01,00,00,
110482123,00000528,false,Rx,0,6,07,0E,00,00,00,00,00,00,
110482358,00000528,false,Rx,0,6,07,0E,00,00,00,00,00,00,
110482600,00000528,false,Rx,0,6,07,0E,00,00,00,00,00,00,
110482832,00000528,false,Rx,0,6,07,0E,00,00,00,00,00,00,
110510364,00000527,false,Rx,0,6,06,00,00,00,00,00,00,00,
110511190,00000527,false,Rx,0,6,06,00,00,00,00,00,00,00,
110511202,00000527,false,Rx,0,6,06,00,00,00,00,00,00,00,
110511212,00000527,false,Rx,0,6,06,00,00,00,00,00,00,00,
110511320,00000527,false,Rx,0,6,06,00,00,00,00,00,00,00,
110511555,00000527,false,Rx,0,6,06,00,00,00,00,00,00,00,
110511788,00000527,false,Rx,0,6,06,00,00,00,00,00,00,00,
110512027,00000527,false,Rx,0,6,06,00,00,00,00,00,00,00,
110512267,00000527,false,Rx,0,6,06,00,00,00,00,00,00,00,
110546612,00000523,false,Rx,0,6,02,09,F6,FF,FF,FF,00,00,
110546845,00000523,false,Rx,0,6,02,09,F6,FF,FF,FF,00,00,
110547085,00000523,false,Rx,0,6,02,09,F6,FF,FF,FF,00,00,
110547322,00000523,false,Rx,0,6,02,09,F6,FF,FF,FF,00,00,
110550285,00000108,false,Rx,0,8,01,F4,01,6B,9A,01,00,00,
110550539,00000109,false,Rx,0,8,01,97,01,08,00,24,FF,FE,
110579964,00000100,false,Rx,0,8,00,00,00,00,9A,01,C8,00,
110580228,00000101,false,Rx,0,8,00,FF,FE,00,00,00,00,00,
110580500,00000102,false,Rx,0,8,01,90,01,00,00,01,00,00,
110650289,00000108,false,Rx,0,8,01,F4,01,6B,9A,01,00,00,
110650543,00000109,false,Rx,0,8,01,97,01,08,00,24,FF,FE,
110679964,00000100,false,Rx,0,8,00,00,00,00,9A,01,C8,00,
110680229,00000101,false,Rx,0,8,00,FF,FE,00,00,00,00,00,
110680501,00000102,false,Rx,0,8,01,90,01,00,00,01,00,00,
110753842,00000108,false,Rx,0,8,01,F4,01,6B,9A,01,00,00,
110757702,00000109,false,Rx,0,8,01,98,01,08,00,24,FF,FE,
110779959,00000100,false,Rx,0,8,00,00,00,00,9A,01,C8,00,
110780223,00000101,false,Rx,0,8,00,FF,FE,00,00,00,00,00,
110787644,00000102,false,Rx,0,8,01,90,01,00,00,01,00,00,
110825040,00000522,false,Rx,0,6,01,0C,E0,A5,05,00,00,00,
110827059,00000524,false,Rx,0,6,03,07,F4,FF,FF,FF,00,00,
110851061,00000108,false,Rx,0,8,01,F4,01,6B,9A,01,00,00,
110851556,00000109,false,Rx,0,8,01,98,01,08,00,24,FF,FE,
110882122,00000100,false,Rx,0,8,00,00,00,00,9A,01,C8,00,
110882381,00000101,false,Rx,0,8,00,FF,FE,00,00,00,00,00,
110882931,00000102,false,Rx,0,8,01,90,01,00,00,01,00,00,
110950559,00000108,false,Rx,0,8,01,F4,01,6B,9A,01,00,00,
110950798,00000109,false,Rx,0,8,01,98,01,08,00,24,FF,FE,
110982210,00000100,false,Rx,0,8,00,00,00,00,9A,01,C8,00,
110982475,00000101,false,Rx,0,8,00,FF,FE,00,00,00,00,00,
110982742,00000102,false,Rx,0,8,01,90,01,00,00,01,00,00,
111000559,00000521,false,Rx,0,6,00,0F,F3,FF,FF,FF,00,00,
111034887,00000525,false,Rx,0,6,04,05,71,00,00,00,00,00,
111050294,00000108,false,Rx,0,8,01,F4,01,6B,9A,01,00,00,
111051048,00000109,false,Rx,0,8,01,98,01,08,00,24,FF,FE,
111079955,00000100,false,Rx,0,8,00,00,00,00,9A,01,C8,00,
111087137,00000101,false,Rx,0,8,00,FF,FE,00,00,00,00,00,
111087383,00000102,false,Rx,0,8,01,90,01,00,00,01,00,00,
111150564,00000108,false,Rx,0,8,01,F4,01,6B,9A,01,00,00,
111151064,00000109,false,Rx,0,8,01,98,01,08,00,24,FF,FE,
111170387,00000526,false,Rx,0,6,05,03,0A,00,00,00,00,00,
111181545,00000100,false,Rx,0,8,00,00,00,00,9A,01,C8,00,
111181797,00000101,false,Rx,0,8,00,FF,FE,00,00,00,00,00,
111182043,00000102,false,Rx,0,8,01,90,01,00,00,01,00,00,
111196289,00000523,false,Rx,0,6,02,0A,F0,FF,FF,FF,00,00,
111223068,00000528,false,Rx,0,6,07,0F,00,00,00,00,00,00,
111232674,00000527,false,Rx,0,6,06,01,00,00,00,00,00,00,
111250554,00000108,false,Rx,0,8,01,F4,01,6B,9A,01,00,00,
111250793,00000109,false,Rx,0,8,01,98,01,08,00,24,FF,FE,
111281911,00000100,false,Rx,0,8,00,00,00,00,9A,01,C8,00,
111282176,00000101,false,Rx,0,8,00,FF,FE,00,00,00,00,00,
111282719,00000102,false,Rx,0,8,01,90,01,00,00,01,00,00,
111350566,00000108,false,Rx,0,8,01,F4,01,6B,9A,01,00,00,
111350806,00000109,false,Rx,0,8,01,97,01,08,00,24,FF,FE,
111381915,00000100,false,Rx,0,8,00,00,00,00,9A,01,C8,00,
111382186,00000101,false,Rx,0,8,00,FF,FE,00,00,00,00,00,
111382451,00000102,false,Rx,0,8,01,90,01,00,00,01,00,00,
111450558,00000108,false,Rx,0,8,01,F4,01,6B,9A,01,00,00,
111450798,00000109,false,Rx,0,8,01,98,01,08,00,24,FF,FE,
111456549,00000522,false,Rx,0,6,01,0D,E9,A5,05,00,00,00,
111479949,00000100,false,Rx,0,8,00,00,00,00,9A,01,C8,00,
111486290,00000101,false,Rx,0,8,00,FF,FE,00,00,00,00,00,
111486538,00000102,false,Rx,0,8,01,90,01,00,00,01,00,00,
111494908,00000524,false,Rx,0,6,03,08,00,00,00,00,00,00,
111550822,00000108,false,Rx,0,8,01,F4,01,6B,9A,01,00,00,
111551321,00000109,false,Rx,0,8,01,98,01,08,00,24,FF,FE,
111580739,00000100,false,Rx,0,8,00,00,00,00,9A,01,C8,00,
111580990,00000101,false,Rx,0,8,00,FF,FE,00,00,00,00,00,
111581236,00000102,false,Rx,0,8,01,90,01,00,00,01,00,00,
111616173,00000521,false,Rx,0,6,00,00,F2,FF,FF,FF,00,00,
111651380,00000108,false,Rx,0,8,01,F4,01,6B,9A,01,00,00,
111653816,00000109,false,Rx,0,8,01,98,01,08,00,24,FF,FE,
111681004,00000100,false,Rx,0,8,00,00,00,00,9A,01,C8,00,
111681255,00000101,false,Rx,0,8,00,FF,FE,00,00,00,00,00,
111681502,00000102,false,Rx,0,8,01,90,01,00,00,01,00,00,
111722466,00000525,false,Rx,0,6,04,06,71,00,00,00,00,00,
111750310,00000108,false,Rx,0,8,01,F4,01,6B,9A,01,00,00,
111750570,00000109,false,Rx,0,8,01,98,01,08,00,24,FF,FE,
111779940,00000100,false,Rx,0,8,00,00,00,00,9A,01,C8,00,
111780192,00000101,false,Rx,0,8,00,FF,FE,00,00,00,00,00,
111780438,00000102,false,Rx,0,8,01,90,01,00,00,01,00,00,
111845977,00000523,false,Rx,0,6,02,0B,F0,FF,FF,FF,00,00,
111850314,00000108,false,Rx,0,8,01,F4,01,6B,9A,01,00,00,
111850568,00000109,false,Rx,0,8,01,98,01,08,00,24,FF,FE,
111874556,00000526,false,Rx,0,6,05,04,05,00,00,00,00,00,
111879937,00000100,false,Rx,0,8,00,00,00,00,9A,01,C8,00,
111880189,00000101,false,Rx,0,8,00,FF,FE,00,00,00,00,00,
111880436,00000102,false,Rx,0,8,01,90,01,00,00,01,00,00,
111950320,00000108,false,Rx,0,8,01,F4,01,6B,9A,01,00,00,
111950567,00000109,false,Rx,0,8,01,98,01,08,00,24,FF,FE,
111954982,00000527,false,Rx,0,6,06,02,00,00,00,00,00,00,
111963317,00000528,false,Rx,0,6,07,00,00,00,00,00,00,00,
