Time Stamp,ID,Extended,Dir,Bus,LEN,D1,D2,D3,D4,D5,D6,D7,D8
15044584,00000100,false,Rx,0,8,00,00,00,00,9A,01,C8,00,
15046437,00000101,false,Rx,0,8,00,FF,FE,00,00,00,00,00,
15046685,00000102,false,Rx,0,8,01,90,01,00,00,01,00,00,
15059221,00000521,false,Rx,0,6,00,08,F8,FF,FF,FF,00,00,
15076391,00000524,false,Rx,0,6,03,07,EE,FF,FF,FF,00,00,
15144581,00000100,false,Rx,0,8,00,00,00,00,9A,01,C8,00,
15146190,00000523,false,Rx,0,6,02,0C,E6,FF,FF,FF,00,00,
15146436,00000101,false,Rx,0,8,00,FF,FE,00,00,00,00,00,
15146925,00000523,false,Rx,0,6,02,0C,E6,FF,FF,FF,00,00,
15147170,00000102,false,Rx,0,8,01,90,01,00,00,01,00,00,
15147405,00000523,false,Rx,0,6,02,0C,E6,FF,FF,FF,00,00,
15251813,00000100,false,Rx,0,8,00,00,00,00,9A,01,C8,00,
15252058,00000101,false,Rx,0,8,00,FF,FE,00,00,00,00,00,
15252303,00000102,false,Rx,0,8,01,90,01,00,00,01,00,00,
15344574,00000100,false,Rx,0,8,00,00,00,00,9A,01,C8,00,
15346969,00000101,false,Rx,0,8,00,FF,FE,00,00,00,00,00,
15347214,00000102,false,Rx,0,8,01,90,01,00,00,01,00,00,
15396175,00000525,false,Rx,0,6,04,09,71,00,00,00,00,00,
15447630,00000100,false,Rx,0,8,00,00,00,00,9A,01,C8,00,
15449877,00000101,false,Rx,0,8,00,FF,FE,00,00,00,00,00,
15450147,00000102,false,Rx,0,8,01,90,01,00,00,01,00,00,
15503607,00000528,false,Rx,0,6,07,07,E7,2B,00,00,00,00,
15545136,00000100,false,Rx,0,8,00,00,00,00,9A,01,C8,00,
15545401,00000101,false,Rx,0,8,00,FF,FE,00,00,00,00,00,
15545667,00000102,false,Rx,0,8,01,90,01,00,00,01,00,00,
15612021,00000522,false,Rx,0,6,01,07,B6,A5,05,00,00,00,
15644569,00000100,false,Rx,0,8,00,00,00,00,9A,01,C8,00,
15644832,00000101,false,Rx,0,8,00,FF,FE,00,00,00,00,00,
15645096,00000102,false,Rx,0,8,01,90,01,00,00,01,00,00,
15672543,00000521,false,Rx,0,6,00,09,F4,FF,FF,FF,00,00,
15703197,00000527,false,Rx,0,6,06,02,9C,AE,01,00,00,00,
15729425,00000526,false,Rx,0,6,05,0D,05,00,00,00,00,00,
15744185,00000524,false,Rx,0,6,03,08,06,00,00,00,00,00,
15749780,00000100,false,Rx,0,8,00,00,00,00,9A,01,C8,00,
15750033,00000101,false,Rx,0,8,00,FF,FE,00,00,00,00,00,
15750279,00000102,false,Rx,0,8,01,90,01,00,00,01,00,00,
15796995,00000523,false,Rx,0,6,02,0D,E6,FF,FF,FF,00,00,
15797235,00000523,false,Rx,0,6,02,0D,E6,FF,FF,FF,00,00,
15797468,00000523,false,Rx,0,6,02,0D,E6,FF,FF,FF,00,00,
15844570,00000100,false,Rx,0,8,00,00,00,00,9A,01,C8,00,
15844812,00000101,false,Rx,0,8,00,FF,FE,00,00,00,00,00,
15845066,00000102,false,Rx,0,8,01,90,01,00,00,01,00,00,
15944565,00000100,false,Rx,0,8,00,00,00,00,9A,01,C8,00,
15944811,00000101,false,Rx,0,8,00,FF,FE,00,00,00,00,00,
15945059,00000102,false,Rx,0,8,01,90,01,00,00,01,00,00,
16044564,00000100,false,Rx,0,8,00,00,00,00,9A,01,C8,00,
16044809,00000101,false,Rx,0,8,00,FF,FE,00,00,00,00,00,
16045057,00000102,false,Rx,0,8,01,90,01,00,00,01,00,00,
16082145,00000525,false,Rx,0,6,04,0A,70,00,00,00,00,00,
16144558,00000100,false,Rx,0,8,00,00,00,00,9A,01,C8,00,
16144810,00000101,false,Rx,0,8,00,FF,FE,00,00,00,00,00,
16145059,00000102,false,Rx,0,8,01,90,01,00,00,01,00,00,
16244100,00000522,false,Rx,0,6,01,08,B2,A5,05,00,00,00,
16244328,00000522,false,Rx,0,6,01,08,B2,A5,05,00,00,00,
16244576,00000100,false,Rx,0,8,00,00,00,00,9A,01,C8,00,
16244828,00000101,false,Rx,0,8,00,FF,FE,00,00,00,00,00,
16245076,00000102,false,Rx,0,8,01,90,01,00,00,01,00,00,
16245305,00000522,false,Rx,0,6,01,08,B2,A5,05,00,00,00,
16245522,00000528,false,Rx,0,6,07,08,E7,2B,00,00,00,00,
16285894,00000521,false,Rx,0,6,00,0A,F5,FF,FF,FF,00,00,
16286128,00000521,false,Rx,0,6,00,0A,F5,FF,FF,FF,00,00,
16286362,00000521,false,Rx,0,6,00,0A,F5,FF,FF,FF,00,00,
16286597,00000521,false,Rx,0,6,00,0A,F5,FF,FF,FF,00,00,
16344556,00000100,false,Rx,0,8,00,00,00,00,9A,01,C8,00,
16344802,00000101,false,Rx,0,8,00,FF,FE,00,00,00,00,00,
16345050,00000102,false,Rx,0,8,01,90,01,00,00,01,00,00,
16412014,00000524,false,Rx,0,6,03,09,F7,FF,FF,FF,00,00,
16425177,00000527,false,Rx,0,6,06,03,9C,AE,01,00,00,00,
16433525,00000526,false,Rx,0,6,05,0E,04,00,00,00,00,00,
16444549,00000100,false,Rx,0,8,00,00,00,00,9A,01,C8,00,
16444801,00000101,false,Rx,0,8,00,FF,FE,00,00,00,00,00,
16445049,00000102,false,Rx,0,8,01,90,01,00,00,01,00,00,
16445297,00000523,false,Rx,0,6,02,0E,F7,FF,FF,FF,00,00,
16445531,00000523,false,Rx,0,6,02,0E,F7,FF,FF,FF,00,00,
16445764,00000523,false,Rx,0,6,02,0E,F7,FF,FF,FF,00,00,
16445997,00000523,false,Rx,0,6,02,0E,F7,FF,FF,FF,00,00,
16446236,00000523,false,Rx,0,6,02,0E,F7,FF,FF,FF,00,00,
16446470,00000523,false,Rx,0,6,02,0E,F7,FF,FF,FF,00,00,
16446705,00000523,false,Rx,0,6,02,0E,F7,FF,FF,FF,00,00,
16544553,00000100,false,Rx,0,8,00,00,00,00,9A,01,C8,00,
16544798,00000101,false,Rx,0,8,00,FF,FE,00,00,00,00,00,
16545051,00000102,false,Rx,0,8,01,90,01,00,00,01,00,00,
16644546,00000100,false,Rx,0,8,00,00,00,00,9A,01,C8,00,
16644798,00000101,false,Rx,0,8,00,FF,FE,00,00,00,00,00,
16645044,00000102,false,Rx,0,8,01,90,01,00,00,01,00,00,
16745607,00000100,false,Rx,0,8,00,00,00,00,9A,01,C8,00,
16745859,00000101,false,Rx,0,8,00,FF,FE,00,00,00,00,00,
16746105,00000102,false,Rx,0,8,01,90,01,00,00,01,00,00,
16768124,00000525,false,Rx,0,6,04,0B,70,00,00,00,00,00,
16846408,00000100,false,Rx,0,8,00,00,00,00,9A,01,C8,00,
16846652,00000101,false,Rx,0,8,00,FF,FE,00,00,00,00,00,
16846904,00000102,false,Rx,0,8,01,90,01,00,00,01,00,00,
16875033,00000522,false,Rx,0,6,01,09,BF,A5,05,00,00,00,
16899236,00000521,false,Rx,0,6,00,0B,F4,FF,FF,FF,00,00,
16944543,00000100,false,Rx,0,8,00,00,00,00,9A,01,C8,00,
16947615,00000101,false,Rx,0,8,00,FF,FE,00,00,00,00,00,
16947878,00000102,false,Rx,0,8,01,90,01,00,00,01,00,00,
16984051,00000528,false,Rx,0,6,07,09,E7,2B,00,00,00,00,
17053325,00000100,false,Rx,0,8,00,00,00,00,9A,01,C8,00,
17053568,00000101,false,Rx,0,8,00,FF,FE,00,00,00,00,00,
17053821,00000102,false,Rx,0,8,01,90,01,00,00,01,00,00,
17079830,00000524,false,Rx,0,6,03,0A,F7,FF,FF,FF,00,00,
17094961,00000523,false,Rx,0,6,02,0F,F1,FF,FF,FF,00,00,
17137652,00000526,false,Rx,0,6,05,0F,09,00,00,00,00,00,
17144540,00000100,false,Rx,0,8,00,00,00,00,9A,01,C8,00,
17147807,00000527,false,Rx,0,6,06,04,9C,AE,01,00,00,00,
17148059,00000101,false,Rx,0,8,00,FF,FE,00,00,00,00,00,
17148542,00000527,false,Rx,0,6,06,04,9C,AE,01,00,00,00,
17148787,00000102,false,Rx,0,8,01,90,01,00,00,01,00,00,
17149015,00000527,false,Rx,0,6,06,04,9C,AE,01,00,00,00,
17252507,00000100,false,Rx,0,8,00,00,00,00,9A,01,C8,00,
17252747,00000101,false,Rx,0,8,00,FF,FE,00,00,00,00,00,
17252993,00000102,false,Rx,0,8,01,90,01,00,00,01,00,00,
17344534,00000100,false,Rx,0,8,00,00,00,00,9A,01,C8,00,
17347845,00000101,false,Rx,0,8,00,FF,FE,00,00,00,00,00,
17348109,00000102,false,Rx,0,8,01,90,01,00,00,01,00,00,
17445944,00000100,false,Rx,0,8,00,00,00,00,9A,01,C8,00,
17446204,00000101,false,Rx,0,8,00,FF,FE,00,00,00,00,00,
17446469,00000102,false,Rx,0,8,01,90,01,00,00,01,00,00,
17454111,00000525,false,Rx,0,6,04,0C,70,00,00,00,00,00,
17506536,00000522,false,Rx,0,6,01,0A,B2,A5,05,00,00,00,
17512581,00000521,false,Rx,0,6,00,0C,F4,FF,FF,FF,00,00,
17549026,00000100,false,Rx,0,8,00,00,00,00,9A,01,C8,00,
17551150,00000101,false,Rx,0,8,00,FF,FE,00,00,00,00,00,
17551397,00000102,false,Rx,0,8,01,90,01,00,00,01,00,00,
17644530,00000100,false,Rx,0,8,00,00,00,00,9A,01,C8,00,
17645847,00000101,false,Rx,0,8,00,FF,FE,00,00,00,00,00,
17646098,00000102,false,Rx,0,8,01,90,01,00,00,01,00,00,
17727360,00000528,false,Rx,0,6,07,0A,E7,2B,00,00,00,00,
17727589,00000528,false,Rx,0,6,07,0A,E7,2B,00,00,00,00,
17744527,00000100,false,Rx,0,8,00,00,00,00,9A,01,C8,00,
17744772,00000101,false,Rx,0,8,00,FF,FE,00,00,00,00,00,
17745024,00000102,false,Rx,0,8,01,90,01,00,00,01,00,00,
17745239,00000523,false,Rx,0,6,02,00,F1,FF,FF,FF,00,00,
17747657,00000524,false,Rx,0,6,03,0B,EE,FF,FF,FF,00,00,
17841805,00000526,false,Rx,0,6,05,00,05,00,00,00,00,00,
17844523,00000100,false,Rx,0,8,00,00,00,00,9A,01,C8,00,
17844775,00000101,false,Rx,0,8,00,FF,FE,00,00,00,00,00,
17845021,00000102,false,Rx,0,8,01,90,01,00,00,01,00,00,
17869771,00000527,false,Rx,0,6,06,05,9C,AE,01,00,00,00,
17944525,00000100,false,Rx,0,8,00,00,00,00,9A,01,C8,00,
17944770,00000101,false,Rx,0,8,00,FF,FE,00,00,00,00,00,
17945023,00000102,false,Rx,0,8,01,90,01,00,00,01,00,00,
18044525,00000100,false,Rx,0,8,00,00,00,00,9A,01,C8,00,
18044771,00000101,false,Rx,0,8,00,FF,FE,00,00,00,00,00,
18045018,00000102,false,Rx,0,8,01,90,01,00,00,01,00,00,
18125937,00000521,false,Rx,0,6,00,0D,F3,FF,FF,FF,00,00,
18138032,00000522,false,Rx,0,6,01,0B,B3,A5,05,00,00,00,
18138260,00000522,false,Rx,0,6,01,0B,B3,A5,05,00,00,00,
18140094,00000525,false,Rx,0,6,04,0D,71,00,00,00,00,00,
18144524,00000100,false,Rx,0,8,00,00,00,00,9A,01,C8,00,
18144763,00000101,false,Rx,0,8,00,FF,FE,00,00,00,00,00,
18145015,00000102,false,Rx,0,8,01,90,01,00,00,01,00,00,
18244518,00000100,false,Rx,0,8,00,00,00,00,9A,01,C8,00,
18244765,00000101,false,Rx,0,8,00,FF,FE,00,00,00,00,00,
18245011,00000102,false,Rx,0,8,01,90,01,00,00,01,00,00,
18344524,00000100,false,Rx,0,8,00,00,00,00,9A,01,C8,00,
18344763,00000101,false,Rx,0,8,00,FF,FE,00,00,00,00,00,
18345009,00000102,false,Rx,0,8,01,90,01,00,00,01,00,00,
18394281,00000523,false,Rx,0,6,02,01,EF,FF,FF,FF,00,00,
18415478,00000524,false,Rx,0,6,03,0C,ED,FF,FF,FF,00,00,
18444519,00000100,false,Rx,0,8,00,00,00,00,9A,01,C8,00,
18444761,00000101,false,Rx,0,8,00,FF,FE,00,00,00,00,00,
18445006,00000102,false,Rx,0,8,01,90,01,00,00,01,00,00,
18464961,00000528,false,Rx,0,6,07,0B,E7,2B,00,00,00,00,
18544518,00000100,false,Rx,0,8,00,00,00,00,9A,01,C8,00,
18544758,00000101,false,Rx,0,8,00,FF,FE,00,00,00,00,00,
18545010,00000102,false,Rx,0,8,01,90,01,00,00,01,00,00,
18545985,00000526,false,Rx,0,6,05,01,04,00,00,00,00,00,
18592062,00000527,false,Rx,0,6,06,06,9C,AE,01,00,00,00,
18644502,00000100,false,Rx,0,8,00,00,00,00,9A,01,C8,00,
18644763,00000101,false,Rx,0,8,00,FF,FE,00,00,00,00,00,
18645002,00000102,false,Rx,0,8,01,90,01,00,00,01,00,00,
18739266,00000521,false,Rx,0,6,00,0E,F7,FF,FF,FF,00,00,
18739508,00000521,false,Rx,0,6,00,0E,F7,FF,FF,FF,00,00,
18739741,00000521,false,Rx,0,6,00,0E,F7,FF,FF,FF,00,00,
18744508,00000100,false,Rx,0,8,00,00,00,00,9A,01,C8,00,
18744763,00000101,false,Rx,0,8,00,FF,FE,00,00,00,00,00,
18745003,00000102,false,Rx,0,8,01,90,01,00,00,01,00,00,
18769524,00000522,false,Rx,0,6,01,0C,B3,A5,05,00,00,00,
18826043,00000525,false,Rx,0,6,04,0E,71,00,00,00,00,00,
18844508,00000100,false,Rx,0,8,00,00,00,00,9A,01,C8,00,
18844761,00000101,false,Rx,0,8,00,FF,FE,00,00,00,00,00,
18845001,00000102,false,Rx,0,8,01,90,01,00,00,01,00,00,
18944510,00000100,false,Rx,0,8,00,00,00,00,9A,01,C8,00,
18944749,00000101,false,Rx,0,8,00,FF,FE,00,00,00,00,00,
18944999,00000102,false,Rx,0,8,01,90,01,00,00,01,00,00,
19043935,00000523,false,Rx,0,6,02,02,E8,FF,FF,FF,00,00,
19044503,00000100,false,Rx,0,8,00,00,00,00,9A,01,C8,00,
19044749,00000101,false,Rx,0,8,00,FF,FE,00,00,00,00,00,
19044993,00000102,false,Rx,0,8,01,90,01,00,00,01,00,00,
19083526,00000524,false,Rx,0,6,03,0D,ED,FF,FF,FF,00,00,
19083766,00000524,false,Rx,0,6,03,0D,ED,FF,FF,FF,00,00,
19083999,00000524,false,Rx,0,6,03,0D,ED,FF,FF,FF,00,00,
19084232,00000524,false,Rx,0,6,03,0D,ED,FF,FF,FF,00,00,
19084473,00000524,false,Rx,0,6,03,0D,ED,FF,FF,FF,00,00,
19084709,00000524,false,Rx,0,6,03,0D,ED,FF,FF,FF,00,00,
19084941,00000524,false,Rx,0,6,03,0D,ED,FF,FF,FF,00,00,
19144504,00000100,false,Rx,0,8,00,00,00,00,9A,01,C8,00,
19144743,00000101,false,Rx,0,8,00,FF,FE,00,00,00,00,00,
19144995,00000102,false,Rx,0,8,01,90,01,00,00,01,00,00,
19205674,00000528,false,Rx,0,6,07,0C,E7,2B,00,00,00,00,
19244506,00000100,false,Rx,0,8,00,00,00,00,9A,01,C8,00,
19244745,00000101,false,Rx,0,8,00,FF,FE,00,00,00,00,00,
19244991,00000102,false,Rx,0,8,01,90,01,00,00,01,00,00,
19250043,00000526,false,Rx,0,6,05,02,05,00,00,00,00,00,
19314608,00000527,false,Rx,0,6,06,07,9C,AE,01,00,00,00,
19314835,00000527,false,Rx,0,6,06,07,9C,AE,01,00,00,00,
19315068,00000527,false,Rx,0,6,06,07,9C,AE,01,00,00,00,
19315302,00000527,false,Rx,0,6,06,07,9C,AE,01,00,00,00,
19315531,00000527,false,Rx,0,6,06,07,9C,AE,01,00,00,00,
19315758,00000527,false,Rx,0,6,06,07,9C,AE,01,00,00,00,
19315985,00000527,false,Rx,0,6,06,07,9C,AE,01,00,00,00,
19316218,00000527,false,Rx,0,6,06,07,9C,AE,01,00,00,00,
19344500,00000100,false,Rx,0,8,00,00,00,00,9A,01,C8,00,
19344740,00000101,false,Rx,0,8,00,FF,FE,00,00,00,00,00,
19344992,00000102,false,Rx,0,8,01,90,01,00,00,01,00,00,
19423964,00000521,false,Rx,0,6,00,0F,F7,FF,FF,FF,00,00,
19444501,00000100,false,Rx,0,8,00,00,00,00,9A,01,C8,00,
19447958,00000101,false,Rx,0,8,00,FF,FE,00,00,00,00,00,
19448203,00000102,false,Rx,0,8,01,90,01,00,00,01,00,00,
19512036,00000525,false,Rx,0,6,04,0F,71,00,00,00,00,00,
19512251,00000522,false,Rx,0,6,01,0D,BE,A5,05,00,00,00,
19544497,00000100,false,Rx,0,8,00,00,00,00,9A,01,C8,00,
19544737,00000101,false,Rx,0,8,00,FF,FE,00,00,00,00,00,
19544982,00000102,false,Rx,0,8,01,90,01,00,00,01,00,00,
19644495,00000100,false,Rx,0,8,00,00,00,00,9A,01,C8,00,
19644737,00000101,false,Rx,0,8,00,FF,FE,00,00,00,00,00,
19644983,00000102,false,Rx,0,8,01,90,01,00,00,01,00,00,
19693605,00000523,false,Rx,0,6,02,03,E8,FF,FF,FF,00,00,
19745593,00000100,false,Rx,0,8,00,00,00,00,9A,01,C8,00,
19745858,00000101,false,Rx,0,8,00,FF,FE,00,00,00,00,00,
19746121,00000102,false,Rx,0,8,01,90,01,00,00,01,00,00,
19751561,00000524,false,Rx,0,6,03,0E,F7,FF,FF,FF,00,00,
19844485,00000100,false,Rx,0,8,00,00,00,00,9A,01,C8,00,
19844747,00000101,false,Rx,0,8,00,FF,FE,00,00,00,00,00,
19845011,00000102,false,Rx,0,8,01,90,01,00,00,01,00,00,
19944479,00000100,false,Rx,0,8,00,00,00,00,9A,01,C8,00,
19944745,00000101,false,Rx,0,8,00,FF,FE,00,00,00,00,00,
19945009,00000102,false,Rx,0,8,01,90,01,00,00,01,00,00,
19945874,00000528,false,Rx,0,6,07,0D,E7,2B,00,00,00,00,
19954015,00000526,false,Rx,0,6,05,03,09,00,00,00,00,00,
19965976,00000521,false,Rx,0,6,00,00,F5,FF,FF,FF,00,00,
20032538,00000522,false,Rx,0,6,01,0E,B6,A5,05,00,00,00,
20036658,00000527,false,Rx,0,6,06,08,9C,AE,01,00,00,00,
20045603,00000100,false,Rx,0,8,00,00,00,00,9A,01,C8,00,
20045867,00000101,false,Rx,0,8,00,FF,FE,00,00,00,00,00,
20046131,00000102,false,Rx,0,8,01,90,01,00,00,01,00,00,
20146727,00000100,false,Rx,0,8,00,00,00,00,9A,01,C8,00,
20146991,00000101,false,Rx,0,8,00,FF,FE,00,00,00,00,00,
20147254,00000102,false,Rx,0,8,01,90,01,00,00,01,00,00,
20198028,00000525,false,Rx,0,6,04,00,71,00,00,00,00,00,
20244476,00000100,false,Rx,0,8,00,00,00,00,9A,01,C8,00,
20250823,00000101,false,Rx,0,8,00,FF,FE,00,00,00,00,00,
20251068,00000102,false,Rx,0,8,01,90,01,00,00,01,00,00,
20343264,00000523,false,Rx,0,6,02,04,F4,FF,FF,FF,00,00,
20346068,00000100,false,Rx,0,8,00,00,00,00,9A,01,C8,00,
20346316,00000101,false,Rx,0,8,00,FF,FE,00,00,00,00,00,
20346563,00000102,false,Rx,0,8,01,90,01,00,00,01,00,00,
20419415,00000524,false,Rx,0,6,03,0F,FD,FF,FF,FF,00,00,
20419658,00000524,false,Rx,0,6,03,0F,FD,FF,FF,FF,00,00,
20419897,00000524,false,Rx,0,6,03,0F,FD,FF,FF,FF,00,00,
20420143,00000524,false,Rx,0,6,03,0F,FD,FF,FF,FF,00,00,
20420384,00000524,false,Rx,0,6,03,0F,FD,FF,FF,FF,00,00,
20420624,00000524,false,Rx,0,6,03,0F,FD,FF,FF,FF,00,00,
20420870,00000524,false,Rx,0,6,03,0F,FD,FF,FF,FF,00,00,
20444471,00000100,false,Rx,0,8,00,00,00,00,9A,01,C8,00,
20444719,00000101,false,Rx,0,8,00,FF,FE,00,00,00,00,00,
20444964,00000102,false,Rx,0,8,01,90,01,00,00,01,00,00,
20544468,00000100,false,Rx,0,8,00,00,00,00,9A,01,C8,00,
20544717,00000101,false,Rx,0,8,00,FF,FE,00,00,00,00,00,
20544962,00000102,false,Rx,0,8,01,90,01,00,00,01,00,00,
20579314,00000521,false,Rx,0,6,00,01,F3,FF,FF,FF,00,00,
20644464,00000100,false,Rx,0,8,00,00,00,00,9A,01,C8,00,
20644717,00000101,false,Rx,0,8,00,FF,FE,00,00,00,00,00,
20644963,00000102,false,Rx,0,8,01,90,01,00,00,01,00,00,
20658339,00000526,false,Rx,0,6,05,04,09,00,00,00,00,00,
20658581,00000526,false,Rx,0,6,05,04,09,00,00,00,00,00,
20658820,00000526,false,Rx,0,6,05,04,09,00,00,00,00,00,
20659053,00000526,false,Rx,0,6,05,04,09,00,00,00,00,00,
20659294,00000526,false,Rx,0,6,05,04,09,00,00,00,00,00,
20659535,00000526,false,Rx,0,6,05,04,09,00,00,00,00,00,
20659768,00000526,false,Rx,0,6,05,04,09,00,00,00,00,00,
20660006,00000526,false,Rx,0,6,05,04,09,00,00,00,00,00,
20660246,00000526,false,Rx,0,6,05,04,09,00,00,00,00,00,
20660480,00000526,false,Rx,0,6,05,04,09,00,00,00,00,00,
20744462,00000100,false,Rx,0,8,00,00,00,00,9A,01,C8,00,
20744710,00000101,false,Rx,0,8,00,FF,FE,00,00,00,00,00,
20744962,00000102,false,Rx,0,8,01,90,01,00,00,01,00,00,
20764537,00000522,false,Rx,0,6,01,0F,C0,A5,05,00,00,00,
20846085,00000100,false,Rx,0,8,00,00,00,00,9A,01,C8,00,
20846350,00000101,false,Rx,0,8,00,FF,FE,00,00,00,00,00,
20846616,00000102,false,Rx,0,8,01,90,01,00,00,01,00,00,
20883988,00000525,false,Rx,0,6,04,01,71,00,00,00,00,00,
20884209,00000527,false,Rx,0,6,06,09,9C,AE,01,00,00,00,
20884642,00000528,false,Rx,0,6,07,0E,E7,2B,00,00,00,00,
20944455,00000100,false,Rx,0,8,00,00,00,00,9A,01,C8,00,
20947278,00000101,false,Rx,0,8,00,FF,FE,00,00,00,00,00,
20947545,00000102,false,Rx,0,8,01,90,01,00,00,01,00,00,
20995190,00000523,false,Rx,0,6,02,05,02,00,00,00,00,00,
21044458,00000100,false,Rx,0,8,00,00,00,00,9A,01,C8,00,
21044724,00000101,false,Rx,0,8,00,FF,FE,00,00,00,00,00,
21044988,00000102,false,Rx,0,8,01,90,01,00,00,01,00,00,
21087270,00000524,false,Rx,0,6,03,00,FD,FF,FF,FF,00,00,
21144453,00000100,false,Rx,0,8,00,00,00,00,9A,01,C8,00,
21144719,00000101,false,Rx,0,8,00,FF,FE,00,00,00,00,00,
21144984,00000102,false,Rx,0,8,01,90,01,00,00,01,00,00,
21193674,00000521,false,Rx,0,6,00,02,F7,FF,FF,FF,00,00,
21245019,00000100,false,Rx,0,8,00,00,00,00,9A,01,C8,00,
21245283,00000101,false,Rx,0,8,00,FF,FE,00,00,00,00,00,
21245543,00000102,false,Rx,0,8,01,90,01,00,00,01,00,00,
21295556,00000522,false,Rx,0,6,01,00,B3,A5,05,00,00,00,
21350260,00000100,false,Rx,0,8,00,00,00,00,9A,01,C8,00,
21350506,00000101,false,Rx,0,8,00,FF,FE,00,00,00,00,00,
21350767,00000102,false,Rx,0,8,01,90,01,00,00,01,00,00,
21362487,00000526,false,Rx,0,6,05,05,0A,00,00,00,00,00,
21426997,00000528,false,Rx,0,6,07,0F,E7,2B,00,00,00,00,
21444714,00000100,false,Rx,0,8,00,00,00,00,9A,01,C8,00,
21444960,00000101,false,Rx,0,8,00,FF,FE,00,00,00,00,00,
21445212,00000102,false,Rx,0,8,01,90,01,00,00,01,00,00,
21481244,00000527,false,Rx,0,6,06,0A,9C,AE,01,00,00,00,
21546040,00000100,false,Rx,0,8,00,00,00,00,9A,01,C8,00,
21546294,00000101,false,Rx,0,8,00,FF,FE,00,00,00,00,00,
21546541,00000102,false,Rx,0,8,01,90,01,00,00,01,00,00,
21569967,00000525,false,Rx,0,6,04,02,71,00,00,00,00,00,
21642583,00000523,false,Rx,0,6,02,06,02,00,00,00,00,00,
21644446,00000100,false,Rx,0,8,00,00,00,00,9A,01,C8,00,
21644960,00000101,false,Rx,0,8,00,FF,FE,00,00,00,00,00,
21647419,00000102,false,Rx,0,8,01,90,01,00,00,01,00,00,
21744444,00000100,false,Rx,0,8,00,00,00,00,9A,01,C8,00,
21745840,00000101,false,Rx,0,8,00,FF,FE,00,00,00,00,00,
21746104,00000102,false,Rx,0,8,01,90,01,00,00,01,00,00,
21754581,00000524,false,Rx,0,6,03,01,F7,FF,FF,FF,00,00,
21808162,00000521,false,Rx,0,6,00,03,F1,FF,FF,FF,00,00,
21844444,00000100,false,Rx,0,8,00,00,00,00,9A,01,C8,00,
21844703,00000101,false,Rx,0,8,00,FF,FE,00,00,00,00,00,
21846659,00000102,false,Rx,0,8,01,90,01,00,00,01,00,00,
21927272,00000522,false,Rx,0,6,01,01,B6,A5,05,00,00,00,
21944998,00000100,false,Rx,0,8,00,00,00,00,9A,01,C8,00,
21945269,00000101,false,Rx,0,8,00,FF,FE,00,00,00,00,00,
21945536,00000102,false,Rx,0,8,01,90,01,00,00,01,00,00,
22049384,00000100,false,Rx,0,8,00,00,00,00,9A,01,C8,00,
22049631,00000101,false,Rx,0,8,00,FF,FE,00,00,00,00,00,
22049877,00000102,false,Rx,0,8,01,90,01,00,00,01,00,00,
22066620,00000526,false,Rx,0,6,05,06,00,00,00,00,00,00,
22144696,00000100,false,Rx,0,8,00,00,00,00,9A,01,C8,00,
22144948,00000101,false,Rx,0,8,00,FF,FE,00,00,00,00,00,
22145194,00000102,false,Rx,0,8,01,90,01,00,00,01,00,00,
22167474,00000528,false,Rx,0,6,07,00,E7,2B,00,00,00,00,
22203536,00000527,false,Rx,0,6,06,0B,9C,AE,01,00,00,00,
22245762,00000100,false,Rx,0,8,00,00,00,00,9A,01,C8,00,
22246007,00000101,false,Rx,0,8,00,FF,FE,00,00,00,00,00,
22246259,00000102,false,Rx,0,8,01,90,01,00,00,01,00,00,
22255952,00000525,false,Rx,0,6,04,03,71,00,00,00,00,00,
22292246,00000523,false,Rx,0,6,02,07,FA,FF,FF,FF,00,00,
22347182,00000100,false,Rx,0,8,00,00,00,00,9A,01,C8,00,
22347447,00000101,false,Rx,0,8,00,FF,FE,00,00,00,00,00,
22347713,00000102,false,Rx,0,8,01,90,01,00,00,01,00,00,
22420505,00000521,false,Rx,0,6,00,04,F6,FF,FF,FF,00,00,
22422390,00000524,false,Rx,0,6,03,02,FE,FF,FF,FF,00,00,
22452987,00000100,false,Rx,0,8,00,00,00,00,9A,01,C8,00,
22453240,00000101,false,Rx,0,8,00,FF,FE,00,00,00,00,00,
22453486,00000102,false,Rx,0,8,01,90,01,00,00,01,00,00,
22544422,00000100,false,Rx,0,8,00,00,00,00,9A,01,C8,00,
22545479,00000101,false,Rx,0,8,00,FF,FE,00,00,00,00,00,
22545727,00000102,false,Rx,0,8,01,90,01,00,00,01,00,00,
22558539,00000522,false,Rx,0,6,01,02,B8,A5,05,00,00,00,
22644421,00000100,false,Rx,0,8,00,00,00,00,9A,01,C8,00,
22646894,00000101,false,Rx,0,8,00,FF,FE,00,00,00,00,00,
22648853,00000102,false,Rx,0,8,01,90,01,00,00,01,00,00,
22753747,00000100,false,Rx,0,8,00,00,00,00,9A,01,C8,00,
22754018,00000101,false,Rx,0,8,00,FF,FE,00,00,00,00,00,
22754276,00000102,false,Rx,0,8,01,90,01,00,00,01,00,00,
22770685,00000526,false,Rx,0,6,05,07,07,00,00,00,00,00,
22846397,00000100,false,Rx,0,8,00,00,00,00,9A,01,C8,00,
22846656,00000101,false,Rx,0,8,00,FF,FE,00,00,00,00,00,
22849191,00000102,false,Rx,0,8,01,90,01,00,00,01,00,00,
22907657,00000528,false,Rx,0,6,07,01,E7,2B,00,00,00,00,
22926257,00000527,false,Rx,0,6,06,0C,9C,AE,01,00,00,00,
22926486,00000527,false,Rx,0,6,06,0C,9C,AE,01,00,00,00,
22926715,00000527,false,Rx,0,6,06,0C,9C,AE,01,00,00,00,
22941931,00000523,false,Rx,0,6,02,08,E7,FF,FF,FF,00,00,
22942153,00000525,false,Rx,0,6,04,04,71,00,00,00,00,00,
22942387,00000525,false,Rx,0,6,04,04,71,00,00,00,00,00,
22942616,00000525,false,Rx,0,6,04,04,71,00,00,00,00,00,
22944419,00000100,false,Rx,0,8,00,00,00,00,9A,01,C8,00,
22944685,00000101,false,Rx,0,8,00,FF,FE,00,00,00,00,00,
22944943,00000102,false,Rx,0,8,01,90,01,00,00,01,00,00,
23033687,00000521,false,Rx,0,6,00,05,F0,FF,FF,FF,00,00,
23044413,00000100,false,Rx,0,8,00,00,00,00,9A,01,C8,00,
23044679,00000101,false,Rx,0,8,00,FF,FE,00,00,00,00,00,
23044943,00000102,false,Rx,0,8,01,90,01,00,00,01,00,00,
23090188,00000524,false,Rx,0,6,03,03,FE,FF,FF,FF,00,00,
23144413,00000100,false,Rx,0,8,00,00,00,00,9A,01,C8,00,
23144679,00000101,false,Rx,0,8,00,FF,FE,00,00,00,00,00,
23144944,00000102,false,Rx,0,8,01,90,01,00,00,01,00,00,
23190044,00000522,false,Rx,0,6,01,03,BE,A5,05,00,00,00,
23244413,00000100,false,Rx,0,8,00,00,00,00,9A,01,C8,00,
23244680,00000101,false,Rx,0,8,00,FF,FE,00,00,00,00,00,
23244944,00000102,false,Rx,0,8,01,90,01,00,00,01,00,00,
23344407,00000100,false,Rx,0,8,00,00,00,00,9A,01,C8,00,
23344673,00000101,false,Rx,0,8,00,FF,FE,00,00,00,00,00,
23344938,00000102,false,Rx,0,8,01,90,01,00,00,01,00,00,
23444403,00000100,false,Rx,0,8,00,00,00,00,9A,01,C8,00,
23444668,00000101,false,Rx,0,8,00,FF,FE,00,00,00,00,00,
23444932,00000102,false,Rx,0,8,01,90,01,00,00,01,00,00,
23474834,00000526,false,Rx,0,6,05,08,06,00,00,00,00,00,
23544407,00000100,false,Rx,0,8,00,00,00,00,9A,01,C8,00,
23544673,00000101,false,Rx,0,8,00,FF,FE,00,00,00,00,00,
23544931,00000102,false,Rx,0,8,01,90,01,00,00,01,00,00,
23591546,00000523,false,Rx,0,6,02,09,E7,FF,FF,FF,00,00,
23591786,00000523,false,Rx,0,6,02,09,E7,FF,FF,FF,00,00,
23592019,00000523,false,Rx,0,6,02,09,E7,FF,FF,FF,00,00,
23592258,00000523,false,Rx,0,6,02,09,E7,FF,FF,FF,00,00,
23592500,00000523,false,Rx,0,6,02,09,E7,FF,FF,FF,00,00,
23592727,00000523,false,Rx,0,6,02,09,E7,FF,FF,FF,00,00,
23592967,00000523,false,Rx,0,6,02,09,E7,FF,FF,FF,00,00,
23593200,00000523,false,Rx,0,6,02,09,E7,FF,FF,FF,00,00,
23593434,00000523,false,Rx,0,6,02,09,E7,FF,FF,FF,00,00,
23627868,00000525,false,Rx,0,6,04,05,71,00,00,00,00,00,
23644401,00000100,false,Rx,0,8,00,00,00,00,9A,01,C8,00,
23644667,00000101,false,Rx,0,8,00,FF,FE,00,00,00,00,00,
23644931,00000102,false,Rx,0,8,01,90,01,00,00,01,00,00,
23647014,00000521,false,Rx,0,6,00,06,F5,FF,FF,FF,00,00,
23648507,00000527,false,Rx,0,6,06,0D,9C,AE,01,00,00,00,
23648737,00000528,false,Rx,0,6,07,02,E7,2B,00,00,00,00,
23744399,00000100,false,Rx,0,8,00,00,00,00,9A,01,C8,00,
23744665,00000101,false,Rx,0,8,00,FF,FE,00,00,00,00,00,
23744929,00000102,false,Rx,0,8,01,90,01,00,00,01,00,00,
23757990,00000524,false,Rx,0,6,03,04,E9,FF,FF,FF,00,00,
23821536,00000522,false,Rx,0,6,01,04,C1,A5,05,00,00,00,
23844393,00000100,false,Rx,0,8,00,00,00,00,9A,01,C8,00,
23844665,00000101,false,Rx,0,8,00,FF,FE,00,00,00,00,00,
23844923,00000102,false,Rx,0,8,01,90,01,00,00,01,00,00,
23944396,00000100,false,Rx,0,8,00,00,00,00,9A,01,C8,00,
23944662,00000101,false,Rx,0,8,00,FF,FE,00,00,00,00,00,
23944926,00000102,false,Rx,0,8,01,90,01,00,00,01,00,00,
24044390,00000100,false,Rx,0,8,00,00,00,00,9A,01,C8,00,
24044657,00000101,false,Rx,0,8,00,FF,FE,00,00,00,00,00,
24044921,00000102,false,Rx,0,8,01,90,01,00,00,01,00,00,
24144388,00000100,false,Rx,0,8,00,00,00,00,9A,01,C8,00,
24144654,00000101,false,Rx,0,8,00,FF,FE,00,00,00,00,00,
24144918,00000102,false,Rx,0,8,01,90,01,00,00,01,00,00,
24178790,00000526,false,Rx,0,6,05,09,06,00,00,00,00,00,
24241196,00000523,false,Rx,0,6,02,0A,E7,FF,FF,FF,00,00,
24244390,00000100,false,Rx,0,8,00,00,00,00,9A,01,C8,00,
24244652,00000101,false,Rx,0,8,00,FF,FE,00,00,00,00,00,
24244916,00000102,false,Rx,0,8,01,90,01,00,00,01,00,00,
24260353,00000521,false,Rx,0,6,00,07,EF,FF,FF,FF,00,00,
24313842,00000525,false,Rx,0,6,04,06,71,00,00,00,00,00,
24344388,00000100,false,Rx,0,8,00,00,00,00,9A,01,C8,00,
24344651,00000101,false,Rx,0,8,00,FF,FE,00,00,00,00,00,
24344915,00000102,false,Rx,0,8,01,90,01,00,00,01,00,00,
24370383,00000527,false,Rx,0,6,06,0E,9C,AE,01,00,00,00,
24388553,00000528,false,Rx,0,6,07,03,E7,2B,00,00,00,00,
24425802,00000524,false,Rx,0,6,03,05,F4,FF,FF,FF,00,00,
24444385,00000100,false,Rx,0,8,00,00,00,00,9A,01,C8,00,
24444647,00000101,false,Rx,0,8,00,FF,FE,00,00,00,00,00,
24444912,00000102,false,Rx,0,8,01,90,01,00,00,01,00,00,
24453029,00000522,false,Rx,0,6,01,05,BA,A5,05,00,00,00,
24544383,00000100,false,Rx,0,8,00,00,00,00,9A,01,C8,00,
24544654,00000101,false,Rx,0,8,00,FF,FE,00,00,00,00,00,
24544913,00000102,false,Rx,0,8,01,90,01,00,00,01,00,00,
24644382,00000100,false,Rx,0,8,00,00,00,00,9A,01,C8,00,
24644649,00000101,false,Rx,0,8,00,FF,FE,00,00,00,00,00,
24644909,00000102,false,Rx,0,8,01,90,01,00,00,01,00,00,
24744378,00000100,false,Rx,0,8,00,00,00,00,9A,01,C8,00,
24744644,00000101,false,Rx,0,8,00,FF,FE,00,00,00,00,00,
24744912,00000102,false,Rx,0,8,01,90,01,00,00,01,00,00,
24844376,00000100,false,Rx,0,8,00,00,00,00,9A,01,C8,00,
24844642,00000101,false,Rx,0,8,00,FF,FE,00,00,00,00,00,
24844909,00000102,false,Rx,0,8,01,90,01,00,00,01,00,00,
24873681,00000521,false,Rx,0,6,00,08,F4,FF,FF,FF,00,00,
24883104,00000526,false,Rx,0,6,05,0A,03,00,00,00,00,00,
24890838,00000523,false,Rx,0,6,02,0B,EA,FF,FF,FF,00,00,
24891071,00000523,false,Rx,0,6,02,0B,EA,FF,FF,FF,00,00,
24944376,00000100,false,Rx,0,8,00,00,00,00,9A,01,C8,00,
24944642,00000101,false,Rx,0,8,00,FF,FE,00,00,00,00,00,
24944903,00000102,false,Rx,0,8,01,90,01,00,00,01,00,00,
24999808,00000525,false,Rx,0,6,04,07,71,00,00,00,00,00,
25044373,00000100,false,Rx,0,8,00,00,00,00,9A,01,C8,00,
25044639,00000101,false,Rx,0,8,00,FF,FE,00,00,00,00,00,
25044904,00000102,false,Rx,0,8,01,90,01,00,00,01,00,00,
25084525,00000522,false,Rx,0,6,01,06,C1,A5,05,00,00,00,
25084752,00000522,false,Rx,0,6,01,06,C1,A5,05,00,00,00,
25084986,00000522,false,Rx,0,6,01,06,C1,A5,05,00,00,00,
25085219,00000522,false,Rx,0,6,01,06,C1,A5,05,00,00,00,
25085454,00000522,false,Rx,0,6,01,06,C1,A5,05,00,00,00,
25092659,00000527,false,Rx,0,6,06,0F,9C,AE,01,00,00,00,
25092891,00000527,false,Rx,0,6,06,0F,9C,AE,01,00,00,00,
25093125,00000527,false,Rx,0,6,06,0F,9C,AE,01,00,00,00,
25144369,00000100,false,Rx,0,8,00,00,00,00,9A,01,C8,00,
25144635,00000101,false,Rx,0,8,00,FF,FE,00,00,00,00,00,
25144899,00000102,false,Rx,0,8,01,90,01,00,00,01,00,00,
25200029,00000524,false,Rx,0,6,03,06,F4,FF,FF,FF,00,00,
25244368,00000100,false,Rx,0,8,00,00,00,00,9A,01,C8,00,
25244633,00000101,false,Rx,0,8,00,FF,FE,00,00,00,00,00,
25244898,00000102,false,Rx,0,8,01,90,01,00,00,01,00,00,
25344365,00000100,false,Rx,0,8,00,00,00,00,9A,01,C8,00,
25344631,00000101,false,Rx,0,8,00,FF,FE,00,00,00,00,00,
25344895,00000102,false,Rx,0,8,01,90,01,00,00,01,00,00,
25444643,00000100,false,Rx,0,8,00,00,00,00,9A,01,C8,00,
25444913,00000101,false,Rx,0,8,00,FF,FE,00,00,00,00,00,
25445178,00000102,false,Rx,0,8,01,90,01,00,00,01,00,00,
25487029,00000521,false,Rx,0,6,00,09,F6,FF,FF,FF,00,00,
25487244,00000528,false,Rx,0,6,07,04,E7,2B,00,00,00,00,
25540502,00000523,false,Rx,0,6,02,0C,EA,FF,FF,FF,00,00,
25545771,00000100,false,Rx,0,8,00,00,00,00,9A,01,C8,00,
25546035,00000101,false,Rx,0,8,00,FF,FE,00,00,00,00,00,
25546302,00000102,false,Rx,0,8,01,90,01,00,00,01,00,00,
25587237,00000526,false,Rx,0,6,05,0B,03,00,00,00,00,00,
25650431,00000100,false,Rx,0,8,00,00,00,00,9A,01,C8,00,
25650679,00000101,false,Rx,0,8,00,FF,FE,00,00,00,00,00,
25650931,00000102,false,Rx,0,8,01,90,01,00,00,01,00,00,
25685776,00000525,false,Rx,0,6,04,08,71,00,00,00,00,00,
25716029,00000522,false,Rx,0,6,01,07,BC,A5,05,00,00,00,
25745682,00000100,false,Rx,0,8,00,00,00,00,9A,01,C8,00,
25745935,00000101,false,Rx,0,8,00,FF,FE,00,00,00,00,00,
25746181,00000102,false,Rx,0,8,01,90,01,00,00,01,00,00,
25761437,00000524,false,Rx,0,6,03,07,EC,FF,FF,FF,00,00,
25814943,00000527,false,Rx,0,6,06,00,9C,AE,01,00,00,00,
25846268,00000100,false,Rx,0,8,00,00,00,00,9A,01,C8,00,
25846534,00000101,false,Rx,0,8,00,FF,FE,00,00,00,00,00,
25846792,00000102,false,Rx,0,8,01,90,01,00,00,01,00,00,
25869743,00000528,false,Rx,0,6,07,05,E7,2B,00,00,00,00,
25947449,00000100,false,Rx,0,8,00,00,00,00,9A,01,C8,00,
25947715,00000101,false,Rx,0,8,00,FF,FE,00,00,00,00,00,
25947979,00000102,false,Rx,0,8,01,90,01,00,00,01,00,00,
26048275,00000100,false,Rx,0,8,00,00,00,00,9A,01,C8,00,
26051473,00000101,false,Rx,0,8,00,FF,FE,00,00,00,00,00,
26051721,00000102,false,Rx,0,8,01,90,01,00,00,01,00,00,
26100362,00000521,false,Rx,0,6,00,0A,F6,FF,FF,FF,00,00,
26146528,00000100,false,Rx,0,8,00,00,00,00,9A,01,C8,00,
26146793,00000101,false,Rx,0,8,00,FF,FE,00,00,00,00,00,
26147050,00000102,false,Rx,0,8,01,90,01,00,00,01,00,00,
26190150,00000523,false,Rx,0,6,02,0D,F4,FF,FF,FF,00,00,
26244347,00000100,false,Rx,0,8,00,00,00,00,9A,01,C8,00,
26244612,00000101,false,Rx,0,8,00,FF,FE,00,00,00,00,00,
26244877,00000102,false,Rx,0,8,01,90,01,00,00,01,00,00,
26292058,00000526,false,Rx,0,6,05,0C,09,00,00,00,00,00,
26345475,00000100,false,Rx,0,8,00,00,00,00,9A,01,C8,00,
26345741,00000101,false,Rx,0,8,00,FF,FE,00,00,00,00,00,
26346006,00000102,false,Rx,0,8,01,90,01,00,00,01,00,00,
26347525,00000522,false,Rx,0,6,01,08,BF,A5,05,00,00,00,
26371753,00000525,false,Rx,0,6,04,09,71,00,00,00,00,00,
26429244,00000524,false,Rx,0,6,03,08,F4,FF,FF,FF,00,00,
26446598,00000100,false,Rx,0,8,00,00,00,00,9A,01,C8,00,
26446863,00000101,false,Rx,0,8,00,FF,FE,00,00,00,00,00,
26447127,00000102,false,Rx,0,8,01,90,01,00,00,01,00,00,
26537232,00000527,false,Rx,0,6,06,01,9C,AE,01,00,00,00,
26551709,00000100,false,Rx,0,8,00,00,00,00,9A,01,C8,00,
26551955,00000101,false,Rx,0,8,00,FF,FE,00,00,00,00,00,
26552207,00000102,false,Rx,0,8,01,90,01,00,00,01,00,00,
26609874,00000528,false,Rx,0,6,07,06,E7,2B,00,00,00,00,
26644342,00000100,false,Rx,0,8,00,00,00,00,9A,01,C8,00,
26644590,00000101,false,Rx,0,8,00,FF,FE,00,00,00,00,00,
26644835,00000102,false,Rx,0,8,01,90,01,00,00,01,00,00,
26713705,00000521,false,Rx,0,6,00,0B,F3,FF,FF,FF,00,00,
26744602,00000100,false,Rx,0,8,00,00,00,00,9A,01,C8,00,
26744854,00000101,false,Rx,0,8,00,FF,FE,00,00,00,00,00,
26745100,00000102,false,Rx,0,8,01,90,01,00,00,01,00,00,
26839812,00000523,false,Rx,0,6,02,0E,FB,FF,FF,FF,00,00,
26844333,00000100,false,Rx,0,8,00,00,00,00,9A,01,C8,00,
26844580,00000101,false,Rx,0,8,00,FF,FE,00,00,00,00,00,
26844832,00000102,false,Rx,0,8,01,90,01,00,00,01,00,00,
26945145,00000100,false,Rx,0,8,00,00,00,00,9A,01,C8,00,
26945410,00000101,false,Rx,0,8,00,FF,FE,00,00,00,00,00,
26945676,00000102,false,Rx,0,8,01,90,01,00,00,01,00,00,
26979889,00000522,false,Rx,0,6,01,09,BA,A5,05,00,00,00,
26995450,00000526,false,Rx,0,6,05,0D,01,00,00,00,00,00,
27044334,00000100,false,Rx,0,8,00,00,00,00,9A,01,C8,00,
27044593,00000101,false,Rx,0,8,00,FF,FE,00,00,00,00,00,
27044845,00000102,false,Rx,0,8,01,90,01,00,00,01,00,00,
27057712,00000525,false,Rx,0,6,04,0A,71,00,00,00,00,00,
27097044,00000524,false,Rx,0,6,03,09,F4,FF,FF,FF,00,00,
27097277,00000524,false,Rx,0,6,03,09,F4,FF,FF,FF,00,00,
27097518,00000524,false,Rx,0,6,03,09,F4,FF,FF,FF,00,00,
27097745,00000524,false,Rx,0,6,03,09,F4,FF,FF,FF,00,00,
27097978,00000524,false,Rx,0,6,03,09,F4,FF,FF,FF,00,00,
27098211,00000524,false,Rx,0,6,03,09,F4,FF,FF,FF,00,00,
27144327,00000100,false,Rx,0,8,00,00,00,00,9A,01,C8,00,
27144575,00000101,false,Rx,0,8,00,FF,FE,00,00,00,00,00,
27144827,00000102,false,Rx,0,8,01,90,01,00,00,01,00,00,
27244329,00000100,false,Rx,0,8,00,00,00,00,9A,01,C8,00,
27244578,00000101,false,Rx,0,8,00,FF,FE,00,00,00,00,00,
27244824,00000102,false,Rx,0,8,01,90,01,00,00,01,00,00,
27259502,00000527,false,Rx,0,6,06,02,9C,AE,01,00,00,00,
27327017,00000521,false,Rx,0,6,00,0C,F5,FF,FF,FF,00,00,
27344329,00000100,false,Rx,0,8,00,00,00,00,9A,01,C8,00,
27344574,00000101,false,Rx,0,8,00,FF,FE,00,00,00,00,00,
27344820,00000102,false,Rx,0,8,01,90,01,00,00,01,00,00,
27350291,00000528,false,Rx,0,6,07,07,E7,2B,00,00,00,00,
27350526,00000528,false,Rx,0,6,07,07,E7,2B,00,00,00,00,
27350758,00000528,false,Rx,0,6,07,07,E7,2B,00,00,00,00,
27350992,00000528,false,Rx,0,6,07,07,E7,2B,00,00,00,00,
27351225,00000528,false,Rx,0,6,07,07,E7,2B,00,00,00,00,
27351465,00000528,false,Rx,0,6,07,07,E7,2B,00,00,00,00,
27351694,00000528,false,Rx,0,6,07,07,E7,2B,00,00,00,00,
27351927,00000528,false,Rx,0,6,07,07,E7,2B,00,00,00,00,
27352167,00000528,false,Rx,0,6,07,07,E7,2B,00,00,00,00,
27352401,00000528,false,Rx,0,6,07,07,E7,2B,00,00,00,00,
27352630,00000528,false,Rx,0,6,07,07,E7,2B,00,00,00,00,
27444322,00000100,false,Rx,0,8,00,00,00,00,9A,01,C8,00,
27444569,00000101,false,Rx,0,8,00,FF,FE,00,00,00,00,00,
27444821,00000102,false,Rx,0,8,01,90,01,00,00,01,00,00,
27489438,00000523,false,Rx,0,6,02,0F,FB,FF,FF,FF,00,00,
27544324,00000100,false,Rx,0,8,00,00,00,00,9A,01,C8,00,
27544572,00000101,false,Rx,0,8,00,FF,FE,00,00,00,00,00,
27544817,00000102,false,Rx,0,8,01,90,01,00,00,01,00,00,
27610789,00000522,false,Rx,0,6,01,0A,BC,A5,05,00,00,00,
27611016,00000522,false,Rx,0,6,01,0A,BC,A5,05,00,00,00,
27644322,00000100,false,Rx,0,8,00,00,00,00,9A,01,C8,00,
27644569,00000101,false,Rx,0,8,00,FF,FE,00,00,00,00,00,
27644816,00000102,false,Rx,0,8,01,90,01,00,00,01,00,00,
27717498,00000526,false,Rx,0,6,05,0E,00,00,00,00,00,00,
27746336,00000100,false,Rx,0,8,00,00,00,00,9A,01,C8,00,
27746552,00000525,false,Rx,0,6,04,0B,71,00,00,00,00,00,
27746805,00000101,false,Rx,0,8,00,FF,FE,00,00,00,00,00,
27747069,00000102,false,Rx,0,8,01,90,01,00,00,01,00,00,
27747272,00000525,false,Rx,0,6,04,0B,71,00,00,00,00,00,
27764833,00000524,false,Rx,0,6,03,0A,FE,FF,FF,FF,00,00,
27844320,00000100,false,Rx,0,8,00,00,00,00,9A,01,C8,00,
27844580,00000101,false,Rx,0,8,00,FF,FE,00,00,00,00,00,
27844844,00000102,false,Rx,0,8,01,90,01,00,00,01,00,00,
27940346,00000521,false,Rx,0,6,00,0D,F5,FF,FF,FF,00,00,
27944316,00000100,false,Rx,0,8,00,00,00,00,9A,01,C8,00,
27944575,00000101,false,Rx,0,8,00,FF,FE,00,00,00,00,00,
27944839,00000102,false,Rx,0,8,01,90,01,00,00,01,00,00,
27982030,00000527,false,Rx,0,6,06,03,9C,AE,01,00,00,00,
28044319,00000100,false,Rx,0,8,00,00,00,00,9A,01,C8,00,
28044573,00000101,false,Rx,0,8,00,FF,FE,00,00,00,00,00,
28044837,00000102,false,Rx,0,8,01,90,01,00,00,01,00,00,
28090715,00000528,false,Rx,0,6,07,08,E7,2B,00,00,00,00,
28139082,00000523,false,Rx,0,6,02,00,F1,FF,FF,FF,00,00,
28144306,00000100,false,Rx,0,8,00,00,00,00,9A,01,C8,00,
28144575,00000101,false,Rx,0,8,00,FF,FE,00,00,00,00,00,
28144839,00000102,false,Rx,0,8,01,90,01,00,00,01,00,00,
28241959,00000522,false,Rx,0,6,01,0B,B9,A5,05,00,00,00,
28244306,00000100,false,Rx,0,8,00,00,00,00,9A,01,C8,00,
28244568,00000101,false,Rx,0,8,00,FF,FE,00,00,00,00,00,
28244832,00000102,false,Rx,0,8,01,90,01,00,00,01,00,00,
28344301,00000100,false,Rx,0,8,00,00,00,00,9A,01,C8,00,
28344567,00000101,false,Rx,0,8,00,FF,FE,00,00,00,00,00,
28344832,00000102,false,Rx,0,8,01,90,01,00,00,01,00,00,
28403505,00000526,false,Rx,0,6,05,0F,01,00,00,00,00,00,
28429614,00000525,false,Rx,0,6,04,0C,71,00,00,00,00,00,
28432622,00000524,false,Rx,0,6,03,0B,EF,FF,FF,FF,00,00,
28444306,00000100,false,Rx,0,8,00,00,00,00,9A,01,C8,00,
28444548,00000101,false,Rx,0,8,00,FF,FE,00,00,00,00,00,
28444801,00000102,false,Rx,0,8,01,90,01,00,00,01,00,00,
28544302,00000100,false,Rx,0,8,00,00,00,00,9A,01,C8,00,
28544549,00000101,false,Rx,0,8,00,FF,FE,00,00,00,00,00,
28544794,00000102,false,Rx,0,8,01,90,01,00,00,01,00,00,
28553660,00000521,false,Rx,0,6,00,0E,F6,FF,FF,FF,00,00,
28644297,00000100,false,Rx,0,8,00,00,00,00,9A,01,C8,00,
28644544,00000101,false,Rx,0,8,00,FF,FE,00,00,00,00,00,
28644793,00000102,false,Rx,0,8,01,90,01,00,00,01,00,00,
28704031,00000527,false,Rx,0,6,06,04,9C,AE,01,00,00,00,
28744297,00000100,false,Rx,0,8,00,00,00,00,9A,01,C8,00,
28744545,00000101,false,Rx,0,8,00,FF,FE,00,00,00,00,00,
28744790,00000102,false,Rx,0,8,01,90,01,00,00,01,00,00,
28788718,00000523,false,Rx,0,6,02,01,F4,FF,FF,FF,00,00,
28788951,00000523,false,Rx,0,6,02,01,F4,FF,FF,FF,00,00,
28789184,00000523,false,Rx,0,6,02,01,F4,FF,FF,FF,00,00,
28789418,00000523,false,Rx,0,6,02,01,F4,FF,FF,FF,00,00,
28789652,00000523,false,Rx,0,6,02,01,F4,FF,FF,FF,00,00,
28789885,00000523,false,Rx,0,6,02,01,F4,FF,FF,FF,00,00,
28790119,00000523,false,Rx,0,6,02,01,F4,FF,FF,FF,00,00,
28790352,00000523,false,Rx,0,6,02,01,F4,FF,FF,FF,00,00,
28790587,00000523,false,Rx,0,6,02,01,F4,FF,FF,FF,00,00,
28831140,00000528,false,Rx,0,6,07,09,E7,2B,00,00,00,00,
28831368,00000528,false,Rx,0,6,07,09,E7,2B,00,00,00,00,
28831604,00000528,false,Rx,0,6,07,09,E7,2B,00,00,00,00,
28831830,00000528,false,Rx,0,6,07,09,E7,2B,00,00,00,00,
28832064,00000528,false,Rx,0,6,07,09,E7,2B,00,00,00,00,
28832291,00000528,false,Rx,0,6,07,09,E7,2B,00,00,00,00,
28844291,00000100,false,Rx,0,8,00,00,00,00,9A,01,C8,00,
28844545,00000101,false,Rx,0,8,00,FF,FE,00,00,00,00,00,
28844791,00000102,false,Rx,0,8,01,90,01,00,00,01,00,00,
28873430,00000522,false,Rx,0,6,01,0C,C7,A5,05,00,00,00,
28944290,00000100,false,Rx,0,8,00,00,00,00,9A,01,C8,00,
28944537,00000101,false,Rx,0,8,00,FF,FE,00,00,00,00,00,
28944790,00000102,false,Rx,0,8,01,90,01,00,00,01,00,00,
29044285,00000100,false,Rx,0,8,00,00,00,00,9A,01,C8,00,
29044541,00000101,false,Rx,0,8,00,FF,FE,00,00,00,00,00,
29044787,00000102,false,Rx,0,8,01,90,01,00,00,01,00,00,
29100418,00000524,false,Rx,0,6,03,0C,EF,FF,FF,FF,00,00,
29107813,00000526,false,Rx,0,6,05,00,02,00,00,00,00,00,
29115567,00000525,false,Rx,0,6,04,0D,70,00,00,00,00,00,
29144283,00000100,false,Rx,0,8,00,00,00,00,9A,01,C8,00,
29144538,00000101,false,Rx,0,8,00,FF,FE,00,00,00,00,00,
29144784,00000102,false,Rx,0,8,01,90,01,00,00,01,00,00,
29167346,00000521,false,Rx,0,6,00,0F,F6,FF,FF,FF,00,00,
29244287,00000100,false,Rx,0,8,00,00,00,00,9A,01,C8,00,
29244535,00000101,false,Rx,0,8,00,FF,FE,00,00,00,00,00,
29244780,00000102,false,Rx,0,8,01,90,01,00,00,01,00,00,
29344282,00000100,false,Rx,0,8,00,00,00,00,9A,01,C8,00,
29344536,00000101,false,Rx,0,8,00,FF,FE,00,00,00,00,00,
29344782,00000102,false,Rx,0,8,01,90,01,00,00,01,00,00,
29426302,00000527,false,Rx,0,6,06,05,9C,AE,01,00,00,00,
29426536,00000527,false,Rx,0,6,06,05,9C,AE,01,00,00,00,
29426763,00000527,false,Rx,0,6,06,05,9C,AE,01,00,00,00,
29444283,00000100,false,Rx,0,8,00,00,00,00,9A,01,C8,00,
29444532,00000101,false,Rx,0,8,00,FF,FE,00,00,00,00,00,
29444777,00000102,false,Rx,0,8,01,90,01,00,00,01,00,00,
29530749,00000522,false,Rx,0,6,01,0D,C0,A5,05,00,00,00,
29546467,00000100,false,Rx,0,8,00,00,00,00,9A,01,C8,00,
29546733,00000101,false,Rx,0,8,00,FF,FE,00,00,00,00,00,
29546998,00000102,false,Rx,0,8,01,90,01,00,00,01,00,00,
29571569,00000528,false,Rx,0,6,07,0A,E7,2B,00,00,00,00,
29571790,00000523,false,Rx,0,6,02,02,F4,FF,FF,FF,00,00,
29645682,00000100,false,Rx,0,8,00,00,00,00,9A,01,C8,00,
29645947,00000101,false,Rx,0,8,00,FF,FE,00,00,00,00,00,
29646211,00000102,false,Rx,0,8,01,90,01,00,00,01,00,00,
29750925,00000100,false,Rx,0,8,00,00,00,00,9A,01,C8,00,
29751178,00000101,false,Rx,0,8,00,FF,FE,00,00,00,00,00,
29751424,00000102,false,Rx,0,8,01,90,01,00,00,01,00,00,
29768221,00000524,false,Rx,0,6,03,0D,F8,FF,FF,FF,00,00,
29780752,00000521,false,Rx,0,6,00,00,F4,FF,FF,FF,00,00,
29801520,00000525,false,Rx,0,6,04,0E,71,00,00,00,00,00,
29811925,00000526,false,Rx,0,6,05,01,0A,00,00,00,00,00,
29848045,00000100,false,Rx,0,8,00,00,00,00,9A,01,C8,00,
29848316,00000101,false,Rx,0,8,00,FF,FE,00,00,00,00,00,
29848575,00000102,false,Rx,0,8,01,90,01,00,00,01,00,00,
29944270,00000100,false,Rx,0,8,00,00,00,00,9A,01,C8,00,
29946240,00000101,false,Rx,0,8,00,FF,FE,00,00,00,00,00,
29946507,00000102,false,Rx,0,8,01,90,01,00,00,01,00,00,
30044269,00000100,false,Rx,0,8,00,00,00,00,9A,01,C8,00,
30044532,00000101,false,Rx,0,8,00,FF,FE,00,00,00,00,00,
30044795,00000102,false,Rx,0,8,01,90,01,00,00,01,00,00,
30087993,00000523,false,Rx,0,6,02,03,F0,FF,FF,FF,00,00,
30136399,00000522,false,Rx,0,6,01,0E,BC,A5,05,00,00,00,
30144263,00000100,false,Rx,0,8,00,00,00,00,9A,01,C8,00,
30144532,00000101,false,Rx,0,8,00,FF,FE,00,00,00,00,00,
30144796,00000102,false,Rx,0,8,01,90,01,00,00,01,00,00,
30148570,00000527,false,Rx,0,6,06,06,9C,AE,01,00,00,00,
30244264,00000100,false,Rx,0,8,00,00,00,00,9A,01,C8,00,
30245665,00000101,false,Rx,0,8,00,FF,FE,00,00,00,00,00,
30245929,00000102,false,Rx,0,8,01,90,01,00,00,01,00,00,
30313553,00000528,false,Rx,0,6,07,0B,E7,2B,00,00,00,00,
30350596,00000100,false,Rx,0,8,00,00,00,00,9A,01,C8,00,
30350848,00000101,false,Rx,0,8,00,FF,FE,00,00,00,00,00,
30351095,00000102,false,Rx,0,8,01,90,01,00,00,01,00,00,
30393633,00000521,false,Rx,0,6,00,01,F5,FF,FF,FF,00,00,
30436013,00000524,false,Rx,0,6,03,0E,F6,FF,FF,FF,00,00,
30446948,00000100,false,Rx,0,8,00,00,00,00,9A,01,C8,00,
30447212,00000101,false,Rx,0,8,00,FF,FE,00,00,00,00,00,
30447477,00000102,false,Rx,0,8,01,90,01,00,00,01,00,00,
30488358,00000525,false,Rx,0,6,04,0F,71,00,00,00,00,00,
30516037,00000526,false,Rx,0,6,05,02,00,00,00,00,00,00,
30544258,00000100,false,Rx,0,8,00,00,00,00,9A,01,C8,00,
30544527,00000101,false,Rx,0,8,00,FF,FE,00,00,00,00,00,
30548454,00000102,false,Rx,0,8,01,90,01,00,00,01,00,00,
30644256,00000100,false,Rx,0,8,00,00,00,00,9A,01,C8,00,
30652195,00000101,false,Rx,0,8,00,FF,FE,00,00,00,00,00,
30652442,00000102,false,Rx,0,8,01,90,01,00,00,01,00,00,
30738728,00000523,false,Rx,0,6,02,04,E8,FF,FF,FF,00,00,
30744249,00000100,false,Rx,0,8,00,00,00,00,9A,01,C8,00,
30744503,00000101,false,Rx,0,8,00,FF,FE,00,00,00,00,00,
30744748,00000102,false,Rx,0,8,01,90,01,00,00,01,00,00,
30767872,00000522,false,Rx,0,6,01,0F,C7,A5,05,00,00,00,
30844254,00000100,false,Rx,0,8,00,00,00,00,9A,01,C8,00,
30848178,00000101,false,Rx,0,8,00,FF,FE,00,00,00,00,00,
30848437,00000102,false,Rx,0,8,01,90,01,00,00,01,00,00,
30870832,00000527,false,Rx,0,6,06,07,9C,AE,01,00,00,00,
30944245,00000100,false,Rx,0,8,00,00,00,00,9A,01,C8,00,
30944524,00000101,false,Rx,0,8,00,FF,FE,00,00,00,00,00,
30944779,00000102,false,Rx,0,8,01,90,01,00,00,01,00,00,
31006955,00000521,false,Rx,0,6,00,02,F4,FF,FF,FF,00,00,
31044247,00000100,false,Rx,0,8,00,00,00,00,9A,01,C8,00,
31045647,00000101,false,Rx,0,8,00,FF,FE,00,00,00,00,00,
31045911,00000102,false,Rx,0,8,01,90,01,00,00,01,00,00,
31052427,00000528,false,Rx,0,6,07,0C,E7,2B,00,00,00,00,
31104040,00000524,false,Rx,0,6,03,0F,F6,FF,FF,FF,00,00,
31104273,00000524,false,Rx,0,6,03,0F,F6,FF,FF,FF,00,00,
31104514,00000524,false,Rx,0,6,03,0F,F6,FF,FF,FF,00,00,
31104741,00000524,false,Rx,0,6,03,0F,F6,FF,FF,FF,00,00,
31104974,00000524,false,Rx,0,6,03,0F,F6,FF,FF,FF,00,00,
31105213,00000524,false,Rx,0,6,03,0F,F6,FF,FF,FF,00,00,
31144243,00000100,false,Rx,0,8,00,00,00,00,9A,01,C8,00,
31144517,00000101,false,Rx,0,8,00,FF,FE,00,00,00,00,00,
31144906,00000102,false,Rx,0,8,01,90,01,00,00,01,00,00,
31173427,00000525,false,Rx,0,6,04,00,70,00,00,00,00,00,
31219848,00000526,false,Rx,0,6,05,03,00,00,00,00,00,00,
31244239,00000100,false,Rx,0,8,00,00,00,00,9A,01,C8,00,
31244509,00000101,false,Rx,0,8,00,FF,FE,00,00,00,00,00,
31244782,00000102,false,Rx,0,8,01,90,01,00,00,01,00,00,
31344237,00000100,false,Rx,0,8,00,00,00,00,9A,01,C8,00,
31344507,00000101,false,Rx,0,8,00,FF,FE,00,00,00,00,00,
31344780,00000102,false,Rx,0,8,01,90,01,00,00,01,00,00,
31387272,00000523,false,Rx,0,6,02,05,E8,FF,FF,FF,00,00,
31399355,00000522,false,Rx,0,6,01,00,C7,A5,05,00,00,00,
31399584,00000522,false,Rx,0,6,01,00,C7,A5,05,00,00,00,
31399811,00000522,false,Rx,0,6,01,00,C7,A5,05,00,00,00,
31444239,00000100,false,Rx,0,8,00,00,00,00,9A,01,C8,00,
31444506,00000101,false,Rx,0,8,00,FF,FE,00,00,00,00,00,
31444771,00000102,false,Rx,0,8,01,90,01,00,00,01,00,00,
31544233,00000100,false,Rx,0,8,00,00,00,00,9A,01,C8,00,
31544506,00000101,false,Rx,0,8,00,FF,FE,00,00,00,00,00,
31544764,00000102,false,Rx,0,8,01,90,01,00,00,01,00,00,
31593376,00000527,false,Rx,0,6,06,08,9C,AE,01,00,00,00,
31620315,00000521,false,Rx,0,6,00,03,F7,FF,FF,FF,00,00,
31644233,00000100,false,Rx,0,8,00,00,00,00,9A,01,C8,00,
31644509,00000101,false,Rx,0,8,00,FF,FE,00,00,00,00,00,
31644761,00000102,false,Rx,0,8,01,90,01,00,00,01,00,00,
31744234,00000100,false,Rx,0,8,00,00,00,00,9A,01,C8,00,
31744506,00000101,false,Rx,0,8,00,FF,FE,00,00,00,00,00,
31744764,00000102,false,Rx,0,8,01,90,01,00,00,01,00,00,
31771611,00000524,false,Rx,0,6,03,00,F3,FF,FF,FF,00,00,
31771844,00000524,false,Rx,0,6,03,00,F3,FF,FF,FF,00,00,
31792925,00000528,false,Rx,0,6,07,0D,E7,2B,00,00,00,00,
31844232,00000100,false,Rx,0,8,00,00,00,00,9A,01,C8,00,
31844504,00000101,false,Rx,0,8,00,FF,FE,00,00,00,00,00,
31844756,00000102,false,Rx,0,8,01,90,01,00,00,01,00,00,
31859385,00000525,false,Rx,0,6,04,01,71,00,00,00,00,00,
31924233,00000526,false,Rx,0,6,05,04,0C,00,00,00,00,00,
31944231,00000100,false,Rx,0,8,00,00,00,00,9A,01,C8,00,
31944504,00000101,false,Rx,0,8,00,FF,FE,00,00,00,00,00,
31944756,00000102,false,Rx,0,8,01,90,01,00,00,01,00,00,
32030831,00000522,false,Rx,0,6,01,01,BA,A5,05,00,00,00,
32031065,00000522,false,Rx,0,6,01,01,BA,A5,05,00,00,00,
32031292,00000522,false,Rx,0,6,01,01,BA,A5,05,00,00,00,
32031527,00000522,false,Rx,0,6,01,01,BA,A5,05,00,00,00,
32031754,00000522,false,Rx,0,6,01,01,BA,A5,05,00,00,00,
32031981,00000522,false,Rx,0,6,01,01,BA,A5,05,00,00,00,
32032215,00000522,false,Rx,0,6,01,01,BA,A5,05,00,00,00,
32032443,00000522,false,Rx,0,6,01,01,BA,A5,05,00,00,00,
32032671,00000522,false,Rx,0,6,01,01,BA,A5,05,00,00,00,
32032905,00000522,false,Rx,0,6,01,01,BA,A5,05,00,00,00,
32044222,00000100,false,Rx,0,8,00,00,00,00,9A,01,C8,00,
32044502,00000101,false,Rx,0,8,00,FF,FE,00,00,00,00,00,
32045448,00000102,false,Rx,0,8,01,90,01,00,00,01,00,00,
32137373,00000523,false,Rx,0,6,02,06,F3,FF,FF,FF,00,00,
32150580,00000100,false,Rx,0,8,00,00,00,00,9A,01,C8,00,
32150826,00000101,false,Rx,0,8,00,FF,FE,00,00,00,00,00,
32151078,00000102,false,Rx,0,8,01,90,01,00,00,01,00,00,
32233607,00000521,false,Rx,0,6,00,04,F8,FF,FF,FF,00,00,
32245810,00000100,false,Rx,0,8,00,00,00,00,9A,01,C8,00,
32246062,00000101,false,Rx,0,8,00,FF,FE,00,00,00,00,00,
32246319,00000102,false,Rx,0,8,01,90,01,00,00,01,00,00,
32315371,00000527,false,Rx,0,6,06,09,9C,AE,01,00,00,00,
32344216,00000100,false,Rx,0,8,00,00,00,00,9A,01,C8,00,
32346975,00000101,false,Rx,0,8,00,FF,FE,00,00,00,00,00,
32347239,00000102,false,Rx,0,8,01,90,01,00,00,01,00,00,
32439397,00000524,false,Rx,0,6,03,01,F1,FF,FF,FF,00,00,
32450401,00000100,false,Rx,0,8,00,00,00,00,9A,01,C8,00,
32452252,00000101,false,Rx,0,8,00,FF,FE,00,00,00,00,00,
32452506,00000102,false,Rx,0,8,01,90,01,00,00,01,00,00,
32533271,00000528,false,Rx,0,6,07,0E,E7,2B,00,00,00,00,
32544215,00000100,false,Rx,0,8,00,00,00,00,9A,01,C8,00,
32547366,00000525,false,Rx,0,6,04,02,70,00,00,00,00,00,
32547619,00000101,false,Rx,0,8,00,FF,FE,00,00,00,00,00,
32548105,00000525,false,Rx,0,6,04,02,70,00,00,00,00,00,
32550328,00000102,false,Rx,0,8,01,90,01,00,00,01,00,00,
32628099,00000526,false,Rx,0,6,05,05,0D,00,00,00,00,00,
32644211,00000100,false,Rx,0,8,00,00,00,00,9A,01,C8,00,
32644476,00000101,false,Rx,0,8,00,FF,FE,00,00,00,00,00,
32644742,00000102,false,Rx,0,8,01,90,01,00,00,01,00,00,
32664083,00000522,false,Rx,0,6,01,02,C0,A5,05,00,00,00,
32686534,00000523,false,Rx,0,6,02,07,E1,FF,FF,FF,00,00,
32744208,00000100,false,Rx,0,8,00,00,00,00,9A,01,C8,00,
32744473,00000101,false,Rx,0,8,00,FF,FE,00,00,00,00,00,
32744739,00000102,false,Rx,0,8,01,90,01,00,00,01,00,00,
32845054,00000100,false,Rx,0,8,00,00,00,00,9A,01,C8,00,
32845325,00000101,false,Rx,0,8,00,FF,FE,00,00,00,00,00,
32845585,00000102,false,Rx,0,8,01,90,01,00,00,01,00,00,
32846919,00000521,false,Rx,0,6,00,05,F0,FF,FF,FF,00,00,
32950027,00000100,false,Rx,0,8,00,00,00,00,9A,01,C8,00,
32950278,00000101,false,Rx,0,8,00,FF,FE,00,00,00,00,00,
32950526,00000102,false,Rx,0,8,01,90,01,00,00,01,00,00,
33037653,00000527,false,Rx,0,6,06,0A,9C,AE,01,00,00,00,
33044204,00000100,false,Rx,0,8,00,00,00,00,9A,01,C8,00,
33047686,00000101,false,Rx,0,8,00,FF,FE,00,00,00,00,00,
33047950,00000102,false,Rx,0,8,01,90,01,00,00,01,00,00,
33107206,00000524,false,Rx,0,6,03,02,F1,FF,FF,FF,00,00,
33152842,00000100,false,Rx,0,8,00,00,00,00,9A,01,C8,00,
33153094,00000101,false,Rx,0,8,00,FF,FE,00,00,00,00,00,
33153341,00000102,false,Rx,0,8,01,90,01,00,00,01,00,00,
33232835,00000525,false,Rx,0,6,04,03,71,00,00,00,00,00,
33233061,00000525,false,Rx,0,6,04,03,71,00,00,00,00,00,
33233296,00000525,false,Rx,0,6,04,03,71,00,00,00,00,00,
33233524,00000525,false,Rx,0,6,04,03,71,00,00,00,00,00,
33233757,00000525,false,Rx,0,6,04,03,71,00,00,00,00,00,
33233990,00000525,false,Rx,0,6,04,03,71,00,00,00,00,00,
33244203,00000100,false,Rx,0,8,00,00,00,00,9A,01,C8,00,
33244449,00000101,false,Rx,0,8,00,FF,FE,00,00,00,00,00,
33244697,00000102,false,Rx,0,8,01,90,01,00,00,01,00,00,
33273959,00000528,false,Rx,0,6,07,0F,E7,2B,00,00,00,00,
33274193,00000528,false,Rx,0,6,07,0F,E7,2B,00,00,00,00,
33274427,00000528,false,Rx,0,6,07,0F,E7,2B,00,00,00,00,
33274655,00000528,false,Rx,0,6,07,0F,E7,2B,00,00,00,00,
33274888,00000528,false,Rx,0,6,07,0F,E7,2B,00,00,00,00,
33293799,00000522,false,Rx,0,6,01,03,C0,A5,05,00,00,00,
33332480,00000526,false,Rx,0,6,05,06,08,00,00,00,00,00,
33336165,00000523,false,Rx,0,6,02,08,E1,FF,FF,FF,00,00,
33344195,00000100,false,Rx,0,8,00,00,00,00,9A,01,C8,00,
33344448,00000101,false,Rx,0,8,00,FF,FE,00,00,00,00,00,
33344694,00000102,false,Rx,0,8,01,90,01,00,00,01,00,00,
33444199,00000100,false,Rx,0,8,00,00,00,00,9A,01,C8,00,
33444446,00000101,false,Rx,0,8,00,FF,FE,00,00,00,00,00,
33444693,00000102,false,Rx,0,8,01,90,01,00,00,01,00,00,
33460237,00000521,false,Rx,0,6,00,06,F1,FF,FF,FF,00,00,
33460471,00000521,false,Rx,0,6,00,06,F1,FF,FF,FF,00,00,
33460706,00000521,false,Rx,0,6,00,06,F1,FF,FF,FF,00,00,
33544197,00000100,false,Rx,0,8,00,00,00,00,9A,01,C8,00,
33544444,00000101,false,Rx,0,8,00,FF,FE,00,00,00,00,00,
33544692,00000102,false,Rx,0,8,01,90,01,00,00,01,00,00,
33644194,00000100,false,Rx,0,8,00,00,00,00,9A,01,C8,00,
33644442,00000101,false,Rx,0,8,00,FF,FE,00,00,00,00,00,
33644690,00000102,false,Rx,0,8,01,90,01,00,00,01,00,00,
33744187,00000100,false,Rx,0,8,00,00,00,00,9A,01,C8,00,
33744440,00000101,false,Rx,0,8,00,FF,FE,00,00,00,00,00,
33744688,00000102,false,Rx,0,8,01,90,01,00,00,01,00,00,
33759908,00000527,false,Rx,0,6,06,0B,9C,AE,01,00,00,00,
33760141,00000527,false,Rx,0,6,06,0B,9C,AE,01,00,00,00,
33760375,00000527,false,Rx,0,6,06,0B,9C,AE,01,00,00,00,
33760610,00000527,false,Rx,0,6,06,0B,9C,AE,01,00,00,00,
33760837,00000527,false,Rx,0,6,06,0B,9C,AE,01,00,00,00,
33761071,00000527,false,Rx,0,6,06,0B,9C,AE,01,00,00,00,
33844190,00000100,false,Rx,0,8,00,00,00,00,9A,01,C8,00,
33844437,00000101,false,Rx,0,8,00,FF,FE,00,00,00,00,00,
33844688,00000102,false,Rx,0,8,01,90,01,00,00,01,00,00,
33865382,00000524,false,Rx,0,6,03,03,EA,FF,FF,FF,00,00,
33918332,00000525,false,Rx,0,6,04,04,71,00,00,00,00,00,
33925262,00000522,false,Rx,0,6,01,04,B8,A5,05,00,00,00,
33944182,00000100,false,Rx,0,8,00,00,00,00,9A,01,C8,00,
33944435,00000101,false,Rx,0,8,00,FF,FE,00,00,00,00,00,
33944685,00000102,false,Rx,0,8,01,90,01,00,00,01,00,00,
33985799,00000523,false,Rx,0,6,02,09,F2,FF,FF,FF,00,00,
34014122,00000528,false,Rx,0,6,07,00,E7,2B,00,00,00,00,
34036576,00000526,false,Rx,0,6,05,07,0B,00,00,00,00,00,
34046319,00000100,false,Rx,0,8,00,00,00,00,9A,01,C8,00,
34046561,00000101,false,Rx,0,8,00,FF,FE,00,00,00,00,00,
34049246,00000102,false,Rx,0,8,01,90,01,00,00,01,00,00,
34073565,00000521,false,Rx,0,6,00,07,F5,FF,FF,FF,00,00,
34144181,00000100,false,Rx,0,8,00,00,00,00,9A,01,C8,00,
34144446,00000101,false,Rx,0,8,00,FF,FE,00,00,00,00,00,
34144714,00000102,false,Rx,0,8,01,90,01,00,00,01,00,00,
34245590,00000100,false,Rx,0,8,00,00,00,00,9A,01,C8,00,
34245851,00000101,false,Rx,0,8,00,FF,FE,00,00,00,00,00,
34246115,00000102,false,Rx,0,8,01,90,01,00,00,01,00,00,
34346712,00000100,false,Rx,0,8,00,00,00,00,9A,01,C8,00,
34346976,00000101,false,Rx,0,8,00,FF,FE,00,00,00,00,00,
34347240,00000102,false,Rx,0,8,01,90,01,00,00,01,00,00,
34442813,00000524,false,Rx,0,6,03,04,EF,FF,FF,FF,00,00,
34444172,00000100,false,Rx,0,8,00,00,00,00,9A,01,C8,00,
34444437,00000101,false,Rx,0,8,00,FF,FE,00,00,00,00,00,
34444702,00000102,false,Rx,0,8,01,90,01,00,00,01,00,00,
34483695,00000527,false,Rx,0,6,06,0C,9C,AE,01,00,00,00,
34544171,00000100,false,Rx,0,8,00,00,00,00,9A,01,C8,00,
34544436,00000101,false,Rx,0,8,00,FF,FE,00,00,00,00,00,
34550462,00000102,false,Rx,0,8,01,90,01,00,00,01,00,00,
34556765,00000522,false,Rx,0,6,01,05,B9,A5,05,00,00,00,
34603190,00000525,false,Rx,0,6,04,05,71,00,00,00,00,00,
34636832,00000523,false,Rx,0,6,02,0A,F9,FF,FF,FF,00,00,
34637065,00000523,false,Rx,0,6,02,0A,F9,FF,FF,FF,00,00,
34637301,00000523,false,Rx,0,6,02,0A,F9,FF,FF,FF,00,00,
34637536,00000523,false,Rx,0,6,02,0A,F9,FF,FF,FF,00,00,
34644168,00000100,false,Rx,0,8,00,00,00,00,9A,01,C8,00,
34644421,00000101,false,Rx,0,8,00,FF,FE,00,00,00,00,00,
34644667,00000102,false,Rx,0,8,01,90,01,00,00,01,00,00,
34686904,00000521,false,Rx,0,6,00,08,F7,FF,FF,FF,00,00,
34740412,00000526,false,Rx,0,6,05,08,00,00,00,00,00,00,
34744172,00000100,false,Rx,0,8,00,00,00,00,9A,01,C8,00,
34744419,00000101,false,Rx,0,8,00,FF,FE,00,00,00,00,00,
34744667,00000102,false,Rx,0,8,01,90,01,00,00,01,00,00,
34754565,00000528,false,Rx,0,6,07,01,E7,2B,00,00,00,00,
34844170,00000100,false,Rx,0,8,00,00,00,00,9A,01,C8,00,
34844418,00000101,false,Rx,0,8,00,FF,FE,00,00,00,00,00,
34844666,00000102,false,Rx,0,8,01,90,01,00,00,01,00,00,
34944164,00000100,false,Rx,0,8,00,00,00,00,9A,01,C8,00,
34944418,00000101,false,Rx,0,8,00,FF,FE,00,00,00,00,00,
34944666,00000102,false,Rx,0,8,01,90,01,00,00,01,00,00,
35044159,00000100,false,Rx,0,8,00,00,00,00,9A,01,C8,00,
35044412,00000101,false,Rx,0,8,00,FF,FE,00,00,00,00,00,
35044660,00000102,false,Rx,0,8,01,90,01,00,00,01,00,00,
35110598,00000524,false,Rx,0,6,03,05,EF,FF,FF,FF,00,00,
35144160,00000100,false,Rx,0,8,00,00,00,00,9A,01,C8,00,
35144410,00000101,false,Rx,0,8,00,FF,FE,00,00,00,00,00,
35144658,00000102,false,Rx,0,8,01,90,01,00,00,01,00,00,
35188257,00000522,false,Rx,0,6,01,06,B7,A5,05,00,00,00,
35204470,00000527,false,Rx,0,6,06,0D,9C,AE,01,00,00,00,
35244159,00000100,false,Rx,0,8,00,00,00,00,9A,01,C8,00,
35244409,00000101,false,Rx,0,8,00,FF,FE,00,00,00,00,00,
35244656,00000102,false,Rx,0,8,01,90,01,00,00,01,00,00,
35285129,00000523,false,Rx,0,6,02,0B,F9,FF,FF,FF,00,00,
35289168,00000525,false,Rx,0,6,04,06,71,00,00,00,00,00,
35300240,00000521,false,Rx,0,6,00,09,F3,FF,FF,FF,00,00,
35344154,00000100,false,Rx,0,8,00,00,00,00,9A,01,C8,00,
35344403,00000101,false,Rx,0,8,00,FF,FE,00,00,00,00,00,
35344651,00000102,false,Rx,0,8,01,90,01,00,00,01,00,00,
35444153,00000100,false,Rx,0,8,00,00,00,00,9A,01,C8,00,
35444400,00000101,false,Rx,0,8,00,FF,FE,00,00,00,00,00,
35444655,00000102,false,Rx,0,8,01,90,01,00,00,01,00,00,
35444869,00000526,false,Rx,0,6,05,09,05,00,00,00,00,00,
35445109,00000526,false,Rx,0,6,05,09,05,00,00,00,00,00,
35445350,00000526,false,Rx,0,6,05,09,05,00,00,00,00,00,
35445585,00000526,false,Rx,0,6,05,09,05,00,00,00,00,00,
35495012,00000528,false,Rx,0,6,07,02,E7,2B,00,00,00,00,
35544152,00000100,false,Rx,0,8,00,00,00,00,9A,01,C8,00,
35544399,00000101,false,Rx,0,8,00,FF,FE,00,00,00,00,00,
35544652,00000102,false,Rx,0,8,01,90,01,00,00,01,00,00,
35575383,00000108,false,Rx,0,8,01,F4,01,6B,9A,01,00,00,
35575629,00000109,false,Rx,0,8,01,09,00,08,00,20,00,00,
35644146,00000100,false,Rx,0,8,00,00,00,00,9A,01,C8,00,
35644397,00000101,false,Rx,0,8,00,FF,FE,00,00,00,00,00,
35644646,00000102,false,Rx,0,8,01,90,01,00,00,01,00,00,
35675386,00000108,false,Rx,0,8,01,F4,01,6B,9A,01,00,00,
35675625,00000109,false,Rx,0,8,01,09,00,08,00,20,00,00,
35744146,00000100,false,Rx,0,8,00,00,00,00,9A,01,C8,00,
35744399,00000101,false,Rx,0,8,00,FF,FE,00,00,00,00,00,
35744644,00000102,false,Rx,0,8,01,90,01,00,00,01,00,00,
35775387,00000108,false,Rx,0,8,01,F4,01,6B,9A,01,00,00,
35775628,00000109,false,Rx,0,8,01,09,00,08,00,20,00,00,
35778438,00000524,false,Rx,0,6,03,06,F1,FF,FF,FF,00,00,
35819760,00000522,false,Rx,0,6,01,07,BA,A5,05,00,00,00,
35844146,00000100,false,Rx,0,8,00,00,00,00,9A,01,C8,00,
35844392,00000101,false,Rx,0,8,00,FF,FE,00,00,00,00,00,
35844645,00000102,false,Rx,0,8,01,90,01,00,00,01,00,00,
35875405,00000108,false,Rx,0,8,01,F4,01,6B,9A,01,00,00,
35875647,00000109,false,Rx,0,8,01,09,00,08,00,20,00,00,
35913580,00000521,false,Rx,0,6,00,0A,F3,FF,FF,FF,00,00,
35926758,00000527,false,Rx,0,6,06,0E,9C,AE,01,00,00,00,
35926985,00000527,false,Rx,0,6,06,0E,9C,AE,01,00,00,00,
35927217,00000527,false,Rx,0,6,06,0E,9C,AE,01,00,00,00,
35927452,00000527,false,Rx,0,6,06,0E,9C,AE,01,00,00,00,
35934767,00000523,false,Rx,0,6,02,0C,EE,FF,FF,FF,00,00,
35944140,00000100,false,Rx,0,8,00,00,00,00,9A,01,C8,00,
35944392,00000101,false,Rx,0,8,00,FF,FE,00,00,00,00,00,
35944765,00000102,false,Rx,0,8,01,90,01,00,00,01,00,00,
35975143,00000525,false,Rx,0,6,04,07,71,00,00,00,00,00,
35975397,00000108,false,Rx,0,8,01,F4,01,6B,9A,01,00,00,
35975638,00000109,false,Rx,0,8,01,09,00,08,00,20,00,00,
36044138,00000100,false,Rx,0,8,00,00,00,00,9A,01,C8,00,
36044391,00000101,false,Rx,0,8,00,FF,FE,00,00,00,00,00,
36044638,00000102,false,Rx,0,8,01,90,01,00,00,01,00,00,
36075393,00000108,false,Rx,0,8,01,F4,01,6B,9A,01,00,00,
36075633,00000109,false,Rx,0,8,01,09,00,08,00,20,FF,FE,
36144137,00000100,false,Rx,0,8,00,00,00,00,9A,01,C8,00,
36144390,00000101,false,Rx,0,8,00,FF,FE,00,00,00,00,00,
36144638,00000102,false,Rx,0,8,01,90,01,00,00,01,00,00,
36148942,00000526,false,Rx,0,6,05,0A,05,00,00,00,00,00,
36175393,00000108,false,Rx,0,8,01,F4,01,6B,9A,01,00,00,
36175641,00000109,false,Rx,0,8,01,09,00,08,00,20,FF,FE,
36235536,00000528,false,Rx,0,6,07,03,E7,2B,00,00,00,00,
36235770,00000528,false,Rx,0,6,07,03,E7,2B,00,00,00,00,
36236003,00000528,false,Rx,0,6,07,03,E7,2B,00,00,00,00,
36236243,00000528,false,Rx,0,6,07,03,E7,2B,00,00,00,00,
36236477,00000528,false,Rx,0,6,07,03,E7,2B,00,00,00,00,
36236711,00000528,false,Rx,0,6,07,03,E7,2B,00,00,00,00,
36236951,00000528,false,Rx,0,6,07,03,E7,2B,00,00,00,00,
36244135,00000100,false,Rx,0,8,00,00,00,00,9A,01,C8,00,
36244388,00000101,false,Rx,0,8,00,FF,FE,00,00,00,00,00,
36244635,00000102,false,Rx,0,8,01,90,01,00,00,01,00,00,
36275400,00000108,false,Rx,0,8,01,F4,01,6B,9A,01,00,00,
36275641,00000109,false,Rx,0,8,01,09,00,08,00,20,FF,FE,
36344133,00000100,false,Rx,0,8,00,00,00,00,9A,01,C8,00,
36344386,00000101,false,Rx,0,8,00,FF,FE,00,00,00,00,00,
36344634,00000102,false,Rx,0,8,01,90,01,00,00,01,00,00,
36375400,00000108,false,Rx,0,8,01,F4,01,6B,9A,01,00,00,
36375641,00000109,false,Rx,0,8,01,09,00,08,00,20,FF,FE,
36444134,00000100,false,Rx,0,8,00,00,00,00,9A,01,C8,00,
36444381,00000101,false,Rx,0,8,00,FF,FE,00,00,00,00,00,
36444643,00000102,false,Rx,0,8,01,90,01,00,00,01,00,00,
36446230,00000524,false,Rx,0,6,03,07,F4,FF,FF,FF,00,00,
36446463,00000524,false,Rx,0,6,03,07,F4,FF,FF,FF,00,00,
36446704,00000524,false,Rx,0,6,03,07,F4,FF,FF,FF,00,00,
36475399,00000108,false,Rx,0,8,01,F4,01,6B,9A,01,00,00,
36475640,00000109,false,Rx,0,8,01,09,00,08,00,20,FF,FE,
36544131,00000100,false,Rx,0,8,00,00,00,00,9A,01,C8,00,
36544378,00000101,false,Rx,0,8,00,FF,FE,00,00,00,00,00,
36544625,00000102,false,Rx,0,8,01,90,01,00,00,01,00,00,
36550728,00000521,false,Rx,0,6,00,0B,F8,FF,FF,FF,00,00,
36575659,00000108,false,Rx,0,8,01,F4,01,6B,9A,01,00,00,
36576157,00000109,false,Rx,0,8,01,09,00,08,00,24,FF,FE,
36584421,00000523,false,Rx,0,6,02,0D,E6,FF,FF,FF,00,00,
36584631,00000522,false,Rx,0,6,01,08,C4,A5,05,00,00,00,
36646787,00000100,false,Rx,0,8,00,00,00,00,9A,01,C8,00,
36647035,00000101,false,Rx,0,8,00,FF,FE,00,00,00,00,00,
36647287,00000102,false,Rx,0,8,01,90,01,00,00,01,00,00,
36649047,00000527,false,Rx,0,6,06,0F,9C,AE,01,00,00,00,
36661776,00000525,false,Rx,0,6,04,08,71,00,00,00,00,00,
36675659,00000108,false,Rx,0,8,01,F4,01,6B,9A,01,00,00,
36677443,00000109,false,Rx,0,8,01,0B,00,08,00,24,FF,FE,
36748003,00000100,false,Rx,0,8,00,00,00,00,9A,01,C8,00,
36748274,00000101,false,Rx,0,8,00,FF,FE,00,00,00,00,00,
36748536,00000102,false,Rx,0,8,01,90,01,00,00,01,00,00,
36775409,00000108,false,Rx,0,8,01,F4,01,6B,9A,01,00,00,
36775651,00000109,false,Rx,0,8,01,0C,00,08,00,24,FF,FE,
36844124,00000100,false,Rx,0,8,00,00,00,00,9A,01,C8,00,
36844389,00000101,false,Rx,0,8,00,FF,FE,00,00,00,00,00,
36844655,00000102,false,Rx,0,8,01,90,01,00,00,01,00,00,
36853125,00000526,false,Rx,0,6,05,0B,01,00,00,00,00,00,
36876438,00000108,false,Rx,0,8,01,F4,01,6B,9A,01,00,00,
36876679,00000109,false,Rx,0,8,01,0C,00,08,00,24,FF,FE,
36944964,00000100,false,Rx,0,8,00,00,00,00,9A,01,C8,00,
36945228,00000101,false,Rx,0,8,00,FF,FE,00,00,00,00,00,
36945500,00000102,false,Rx,0,8,01,90,01,00,00,01,00,00,
36975411,00000108,false,Rx,0,8,01,F4,01,6B,9A,01,00,00,
36976690,00000109,false,Rx,0,8,01,0D,00,08,00,24,FF,FE,
36976892,00000528,false,Rx,0,6,07,04,E7,2B,00,00,00,00,
37050743,00000100,false,Rx,0,8,00,00,00,00,9A,01,C8,00,
37050991,00000101,false,Rx,0,8,00,FF,FE,00,00,00,00,00,
37051237,00000102,false,Rx,0,8,01,90,01,00,00,01,00,00,
37076233,00000108,false,Rx,0,8,01,F4,01,6B,9A,01,00,00,
37076499,00000109,false,Rx,0,8,01,57,00,08,00,24,FF,FE,
37082755,00000522,false,Rx,0,6,01,09,C0,A5,05,00,00,00,
37114016,00000524,false,Rx,0,6,03,08,F4,FF,FF,FF,00,00,
37140252,00000521,false,Rx,0,6,00,0C,F7,FF,FF,FF,00,00,
37145973,00000100,false,Rx,0,8,00,00,00,00,9A,01,C8,00,
37146225,00000101,false,Rx,0,8,00,FF,FE,00,00,00,00,00,
37146472,00000102,false,Rx,0,8,01,90,01,00,00,01,00,00,
37175420,00000108,false,Rx,0,8,01,F4,01,6B,9A,01,00,00,
37177570,00000109,false,Rx,0,8,01,77,01,08,00,24,FF,FE,
37234049,00000523,false,Rx,0,6,02,0E,E6,FF,FF,FF,00,00,
37244113,00000100,false,Rx,0,8,00,00,00,00,9A,01,C8,00,
37246618,00000101,false,Rx,0,8,00,FF,FE,00,00,00,00,00,
37246882,00000102,false,Rx,0,8,01,90,01,00,00,01,00,00,
37275418,00000108,false,Rx,0,8,01,F4,01,6B,9A,01,00,00,
37276499,00000109,false,Rx,0,8,01,C0,01,08,00,24,FF,FE,
37347141,00000525,false,Rx,0,6,04,09,71,00,00,00,00,00,
37350185,00000100,false,Rx,0,8,00,00,00,00,9A,01,C8,00,
37351777,00000101,false,Rx,0,8,00,FF,FE,00,00,00,00,00,
37352023,00000102,false,Rx,0,8,01,90,01,00,00,01,00,00,
37373053,00000527,false,Rx,0,6,06,00,9C,AE,01,00,00,00,
37375418,00000108,false,Rx,0,8,01,F4,01,6B,9A,01,00,00,
37375943,00000109,false,Rx,0,8,01,D6,01,08,00,24,FF,FE,
37444111,00000100,false,Rx,0,8,00,00,00,00,9A,01,C8,00,
37445702,00000101,false,Rx,0,8,00,FF,FE,00,00,00,00,00,
37445948,00000102,false,Rx,0,8,01,90,01,00,00,01,00,00,
37475424,00000108,false,Rx,0,8,01,F4,01,6B,9A,01,00,00,
37476220,00000109,false,Rx,0,8,01,DC,01,08,00,24,FF,FE,
37544375,00000100,false,Rx,0,8,00,00,00,00,9A,01,C8,00,
37544623,00000101,false,Rx,0,8,00,FF,FE,00,00,00,00,00,
37544869,00000102,false,Rx,0,8,01,90,01,00,00,01,00,00,
37557184,00000526,false,Rx,0,6,05,0C,08,00,00,00,00,00,
37575714,00000108,false,Rx,0,8,01,F4,01,6B,9A,01,00,00,
37575967,00000109,false,Rx,0,8,01,DB,01,08,00,24,FF,FE,
37644108,00000100,false,Rx,0,8,00,00,00,00,9A,01,C8,00,
37644355,00000101,false,Rx,0,8,00,FF,FE,00,00,00,00,00,
37644603,00000102,false,Rx,0,8,01,90,01,00,00,01,00,00,
37679035,00000108,false,Rx,0,8,01,F4,01,6B,9A,01,00,00,
37679275,00000109,false,Rx,0,8,01,D9,01,08,00,24,FF,FE,
37714215,00000522,false,Rx,0,6,01,0A,C2,A5,05,00,00,00,
37716324,00000528,false,Rx,0,6,07,05,E7,2B,00,00,00,00,
37744899,00000100,false,Rx,0,8,00,00,00,00,9A,01,C8,00,
37745151,00000101,false,Rx,0,8,00,FF,FE,00,00,00,00,00,
37745398,00000102,false,Rx,0,8,01,90,01,00,00,01,00,00,
37753568,00000521,false,Rx,0,6,00,0D,F6,FF,FF,FF,00,00,
37775430,00000108,false,Rx,0,8,01,F4,01,6B,9A,01,00,00,
37775918,00000109,false,Rx,0,8,01,D6,01,08,00,24,FF,FE,
37781821,00000524,false,Rx,0,6,03,09,EA,FF,FF,FF,00,00,
37845467,00000100,false,Rx,0,8,00,00,00,00,9A,01,C8,00,
37845727,00000101,false,Rx,0,8,00,FF,FE,00,00,00,00,00,
37845991,00000102,false,Rx,0,8,01,90,01,00,00,01,00,00,
37875430,00000108,false,Rx,0,8,01,F4,01,6B,9A,01,00,00,
37877722,00000109,false,Rx,0,8,01,D3,01,08,00,24,FF,FE,
37883715,00000523,false,Rx,0,6,02,0F,E6,FF,FF,FF,00,00,
37944096,00000100,false,Rx,0,8,00,00,00,00,9A,01,C8,00,
37946636,00000101,false,Rx,0,8,00,FF,FE,00,00,00,00,00,
37946900,00000102,false,Rx,0,8,01,90,01,00,00,01,00,00,
37975435,00000108,false,Rx,0,8,01,F4,01,6B,9A,01,00,00,
37976441,00000109,false,Rx,0,8,01,D0,01,08,00,24,FF,FE,
38034598,00000525,false,Rx,0,6,04,0A,71,00,00,00,00,00,
38034831,00000525,false,Rx,0,6,04,0A,71,00,00,00,00,00,
38035065,00000525,false,Rx,0,6,04,0A,71,00,00,00,00,00,
38035299,00000525,false,Rx,0,6,04,0A,71,00,00,00,00,00,
38035533,00000525,false,Rx,0,6,04,0A,71,00,00,00,00,00,
38035766,00000525,false,Rx,0,6,04,0A,71,00,00,00,00,00,
38035998,00000525,false,Rx,0,6,04,0A,71,00,00,00,00,00,
38044098,00000100,false,Rx,0,8,00,00,00,00,9A,01,C8,00,
38044364,00000101,false,Rx,0,8,00,FF,FE,00,00,00,00,00,
38044630,00000102,false,Rx,0,8,01,90,01,00,00,01,00,00,
38075437,00000108,false,Rx,0,8,01,F4,01,6B,9A,01,00,00,
38075672,00000109,false,Rx,0,8,01,CD,01,08,00,24,FF,FE,
38094094,00000527,false,Rx,0,6,06,01,9C,AE,01,00,00,00,
38094324,00000527,false,Rx,0,6,06,01,9C,AE,01,00,00,00,
38094546,00000527,false,Rx,0,6,06,01,9C,AE,01,00,00,00,
38094773,00000527,false,Rx,0,6,06,01,9C,AE,01,00,00,00,
38095006,00000527,false,Rx,0,6,06,01,9C,AE,01,00,00,00,
38095233,00000527,false,Rx,0,6,06,01,9C,AE,01,00,00,00,
38095461,00000527,false,Rx,0,6,06,01,9C,AE,01,00,00,00,
38144096,00000100,false,Rx,0,8,00,00,00,00,9A,01,C8,00,
38144361,00000101,false,Rx,0,8,00,FF,FE,00,00,00,00,00,
38144627,00000102,false,Rx,0,8,01,90,01,00,00,01,00,00,
38175439,00000108,false,Rx,0,8,01,F4,01,6B,9A,01,00,00,
38175674,00000109,false,Rx,0,8,01,CB,01,08,00,24,FF,FE,
38244092,00000100,false,Rx,0,8,00,00,00,00,9A,01,C8,00,
38244356,00000101,false,Rx,0,8,00,FF,FE,00,00,00,00,00,
38244623,00000102,false,Rx,0,8,01,90,01,00,00,01,00,00,
38261325,00000526,false,Rx,0,6,05,0D,0A,00,00,00,00,00,
38275443,00000108,false,Rx,0,8,01,F4,01,6B,9A,01,00,00,
38275683,00000109,false,Rx,0,8,01,C8,01,08,00,24,FF,FE,
38344091,00000100,false,Rx,0,8,00,00,00,00,9A,01,C8,00,
38344356,00000101,false,Rx,0,8,00,FF,FE,00,00,00,00,00,
38344623,00000102,false,Rx,0,8,01,90,01,00,00,01,00,00,
38345720,00000522,false,Rx,0,6,01,0B,BF,A5,05,00,00,00,
38367945,00000521,false,Rx,0,6,00,0E,F7,FF,FF,FF,00,00,
38375438,00000108,false,Rx,0,8,01,F4,01,6B,9A,01,00,00,
38375679,00000109,false,Rx,0,8,01,C5,01,08,00,24,FF,FE,
38444091,00000100,false,Rx,0,8,00,00,00,00,9A,01,C8,00,
38444356,00000101,false,Rx,0,8,00,FF,FE,00,00,00,00,00,
38444623,00000102,false,Rx,0,8,01,90,01,00,00,01,00,00,
38449631,00000524,false,Rx,0,6,03,0A,E1,FF,FF,FF,00,00,
38456755,00000528,false,Rx,0,6,07,06,E7,2B,00,00,00,00,
38456988,00000528,false,Rx,0,6,07,06,E7,2B,00,00,00,00,
38457222,00000528,false,Rx,0,6,07,06,E7,2B,00,00,00,00,
38457456,00000528,false,Rx,0,6,07,06,E7,2B,00,00,00,00,
38457684,00000528,false,Rx,0,6,07,06,E7,2B,00,00,00,00,
38475441,00000108,false,Rx,0,8,01,F4,01,6B,9A,01,00,00,
38475682,00000109,false,Rx,0,8,01,C3,01,08,00,24,FF,FE,
38533362,00000523,false,Rx,0,6,02,00,E3,FF,FF,FF,00,00,
38544088,00000100,false,Rx,0,8,00,00,00,00,9A,01,C8,00,
38544353,00000101,false,Rx,0,8,00,FF,FE,00,00,00,00,00,
38544619,00000102,false,Rx,0,8,01,90,01,00,00,01,00,00,
38575445,00000108,false,Rx,0,8,01,F4,01,6B,9A,01,00,00,
38575687,00000109,false,Rx,0,8,01,C0,01,08,00,24,FF,FE,
38644083,00000100,false,Rx,0,8,00,00,00,00,9A,01,C8,00,
38644348,00000101,false,Rx,0,8,00,FF,FE,00,00,00,00,00,
38644615,00000102,false,Rx,0,8,01,90,01,00,00,01,00,00,
38675448,00000108,false,Rx,0,8,01,F4,01,6B,9A,01,00,00,
38675683,00000109,false,Rx,0,8,01,BD,01,08,00,24,FF,FE,
38718973,00000525,false,Rx,0,6,04,0B,71,00,00,00,00,00,
38744081,00000100,false,Rx,0,8,00,00,00,00,9A,01,C8,00,
38744346,00000101,false,Rx,0,8,00,FF,FE,00,00,00,00,00,
38744611,00000102,false,Rx,0,8,01,90,01,00,00,01,00,00,
38775449,00000108,false,Rx,0,8,01,F4,01,6B,9A,01,00,00,
38775690,00000109,false,Rx,0,8,01,BB,01,08,00,24,FF,FE,
38815856,00000527,false,Rx,0,6,06,02,9C,AE,01,00,00,00,
38844078,00000100,false,Rx,0,8,00,00,00,00,9A,01,C8,00,
38844343,00000101,false,Rx,0,8,00,FF,FE,00,00,00,00,00,
38844609,00000102,false,Rx,0,8,01,90,01,00,00,01,00,00,
38875451,00000108,false,Rx,0,8,01,F4,01,6B,9A,01,00,00,
38875694,00000109,false,Rx,0,8,01,B8,01,08,00,24,FF,FE,
38944078,00000100,false,Rx,0,8,00,00,00,00,9A,01,C8,00,
38944342,00000101,false,Rx,0,8,00,FF,FE,00,00,00,00,00,
38944608,00000102,false,Rx,0,8,01,90,01,00,00,01,00,00,
38965434,00000526,false,Rx,0,6,05,0E,0A,00,00,00,00,00,
38975450,00000108,false,Rx,0,8,01,F4,01,6B,9A,01,00,00,
38975698,00000109,false,Rx,0,8,01,B6,01,08,00,24,FF,FE,
38977190,00000522,false,Rx,0,6,01,0C,C4,A5,05,00,00,00,
38981236,00000521,false,Rx,0,6,00,0F,F4,FF,FF,FF,00,00,
39044077,00000100,false,Rx,0,8,00,00,00,00,9A,01,C8,00,
39044342,00000101,false,Rx,0,8,00,FF,FE,00,00,00,00,00,
39044608,00000102,false,Rx,0,8,01,90,01,00,00,01,00,00,
39075456,00000108,false,Rx,0,8,01,F4,01,6B,9A,01,00,00,
39075697,00000109,false,Rx,0,8,01,B4,01,08,00,24,FF,FE,
39117433,00000524,false,Rx,0,6,03,0B,E1,FF,FF,FF,00,00,
39144073,00000100,false,Rx,0,8,00,00,00,00,9A,01,C8,00,
39144338,00000101,false,Rx,0,8,00,FF,FE,00,00,00,00,00,
39144603,00000102,false,Rx,0,8,01,90,01,00,00,01,00,00,
39144886,00000102,false,Rx,0,8,01,90,01,00,00,01,00,00,
39145163,00000102,false,Rx,0,8,01,90,01,00,00,01,00,00,
39175455,00000108,false,Rx,0,8,01,F4,01,6B,9A,01,00,00,
39175696,00000109,false,Rx,0,8,01,B3,01,08,00,24,FF,FE,
39182990,00000523,false,Rx,0,6,02,01,E3,FF,FF,FF,00,00,
39197403,00000528,false,Rx,0,6,07,07,E7,2B,00,00,00,00,
39244074,00000100,false,Rx,0,8,00,00,00,00,9A,01,C8,00,
39244339,00000101,false,Rx,0,8,00,FF,FE,00,00,00,00,00,
39244605,00000102,false,Rx,0,8,01,90,01,00,00,01,00,00,
39275457,00000108,false,Rx,0,8,01,F4,01,6B,9A,01,00,00,
39275704,00000109,false,Rx,0,8,01,B0,01,08,00,24,FF,FE,
39344072,00000100,false,Rx,0,8,00,00,00,00,9A,01,C8,00,
39344338,00000101,false,Rx,0,8,00,FF,FE,00,00,00,00,00,
39344598,00000102,false,Rx,0,8,01,90,01,00,00,01,00,00,
39375467,00000108,false,Rx,0,8,01,F4,01,6B,9A,01,00,00,
39375708,00000109,false,Rx,0,8,01,AE,01,08,00,24,FF,FE,
39404928,00000525,false,Rx,0,6,04,0C,71,00,00,00,00,00,
39444067,00000100,false,Rx,0,8,00,00,00,00,9A,01,C8,00,
39444333,00000101,false,Rx,0,8,00,FF,FE,00,00,00,00,00,
39444599,00000102,false,Rx,0,8,01,90,01,00,00,01,00,00,
39475464,00000108,false,Rx,0,8,01,F4,01,6B,9A,01,00,00,
39475700,00000109,false,Rx,0,8,01,AB,01,08,00,24,FF,FE,
39538121,00000527,false,Rx,0,6,06,03,9C,AE,01,00,00,00,
39544063,00000100,false,Rx,0,8,00,00,00,00,9A,01,C8,00,
39544328,00000101,false,Rx,0,8,00,FF,FE,00,00,00,00,00,
39544594,00000102,false,Rx,0,8,01,90,01,00,00,01,00,00,
39575464,00000108,false,Rx,0,8,01,F4,01,6B,9A,01,00,00,
39575706,00000109,false,Rx,0,8,01,A9,01,08,00,24,FF,FE,
39594542,00000521,false,Rx,0,6,00,00,F4,FF,FF,FF,00,00,
39608987,00000522,false,Rx,0,6,01,0D,C4,A5,05,00,00,00,
39644064,00000100,false,Rx,0,8,00,00,00,00,9A,01,C8,00,
39644331,00000101,false,Rx,0,8,00,FF,FE,00,00,00,00,00,
39644597,00000102,false,Rx,0,8,01,90,01,00,00,01,00,00,
39644874,00000102,false,Rx,0,8,01,90,01,00,00,01,00,00,
39669591,00000526,false,Rx,0,6,05,0F,04,00,00,00,00,00,
39669830,00000526,false,Rx,0,6,05,0F,04,00,00,00,00,00,
39670070,00000526,false,Rx,0,6,05,0F,04,00,00,00,00,00,
39675469,00000108,false,Rx,0,8,01,F4,01,6B,9A,01,00,00,
39675710,00000109,false,Rx,0,8,01,A6,01,08,00,24,FF,FE,
39744060,00000100,false,Rx,0,8,00,00,00,00,9A,01,C8,00,
39744332,00000101,false,Rx,0,8,00,FF,FE,00,00,00,00,00,
39744592,00000102,false,Rx,0,8,01,90,01,00,00,01,00,00,
39775469,00000108,false,Rx,0,8,01,F4,01,6B,9A,01,00,00,
39775965,00000109,false,Rx,0,8,01,A4,01,08,00,24,FF,FE,
39785205,00000524,false,Rx,0,6,03,0C,F9,FF,FF,FF,00,00,
39833287,00000523,false,Rx,0,6,02,02,F3,FF,FF,FF,00,00,
39846032,00000100,false,Rx,0,8,00,00,00,00,9A,01,C8,00,
39846305,00000101,false,Rx,0,8,00,FF,FE,00,00,00,00,00,
39846565,00000102,false,Rx,0,8,01,90,01,00,00,01,00,00,
39875467,00000108,false,Rx,0,8,01,F4,01,6B,9A,01,00,00,
39877524,00000109,false,Rx,0,8,01,A1,01,08,00,24,FF,FE,
39937588,00000528,false,Rx,0,6,07,08,E7,2B,00,00,00,00,
39944055,00000100,false,Rx,0,8,00,00,00,00,9A,01,C8,00,
39950954,00000101,false,Rx,0,8,00,FF,FE,00,00,00,00,00,
39951200,00000102,false,Rx,0,8,01,90,01,00,00,01,00,00,
39976566,00000108,false,Rx,0,8,01,F4,01,6B,9A,01,00,00,
39977368,00000109,false,Rx,0,8,01,9F,01,08,00,24,FF,FE,
40045124,00000100,false,Rx,0,8,00,00,00,00,9A,01,C8,00,
40045371,00000101,false,Rx,0,8,00,FF,FE,00,00,00,00,00,
40045618,00000102,false,Rx,0,8,01,90,01,00,00,01,00,00,
40075476,00000108,false,Rx,0,8,01,F4,01,6B,9A,01,00,00,
40076277,00000109,false,Rx,0,8,01,9D,01,08,00,24,FF,FE,
40092429,00000525,false,Rx,0,6,04,0D,71,00,00,00,00,00,
40146257,00000100,false,Rx,0,8,00,00,00,00,9A,01,C8,00,
40146523,00000101,false,Rx,0,8,00,FF,FE,00,00,00,00,00,
40146787,00000102,false,Rx,0,8,01,90,01,00,00,01,00,00,
40176019,00000108,false,Rx,0,8,01,F4,01,6B,9A,01,00,00,
40176278,00000109,false,Rx,0,8,01,9B,01,08,00,24,FF,FE,
40207866,00000521,false,Rx,0,6,00,01,F6,FF,FF,FF,00,00,
40241654,00000522,false,Rx,0,6,01,0E,BD,A5,05,00,00,00,
40241881,00000522,false,Rx,0,6,01,0E,BD,A5,05,00,00,00,
40242109,00000522,false,Rx,0,6,01,0E,BD,A5,05,00,00,00,
40244054,00000100,false,Rx,0,8,00,00,00,00,9A,01,C8,00,
40244324,00000101,false,Rx,0,8,00,FF,FE,00,00,00,00,00,
40244584,00000102,false,Rx,0,8,01,90,01,00,00,01,00,00,
40260387,00000527,false,Rx,0,6,06,04,9C,AE,01,00,00,00,
40275486,00000108,false,Rx,0,8,01,F4,01,6B,9A,01,00,00,
40275741,00000109,false,Rx,0,8,01,99,01,08,00,24,FF,FE,
40344050,00000100,false,Rx,0,8,00,00,00,00,9A,01,C8,00,
40344315,00000101,false,Rx,0,8,00,FF,FE,00,00,00,00,00,
40344580,00000102,false,Rx,0,8,01,90,01,00,00,01,00,00,
40373610,00000526,false,Rx,0,6,05,00,07,00,00,00,00,00,
40375479,00000108,false,Rx,0,8,01,F4,01,6B,9A,01,00,00,
40375733,00000109,false,Rx,0,8,01,97,01,08,00,24,FF,FE,
40444050,00000100,false,Rx,0,8,00,00,00,00,9A,01,C8,00,
40444316,00000101,false,Rx,0,8,00,FF,FE,00,00,00,00,00,
40444577,00000102,false,Rx,0,8,01,90,01,00,00,01,00,00,
40452996,00000524,false,Rx,0,6,03,0D,F6,FF,FF,FF,00,00,
40475482,00000108,false,Rx,0,8,01,F4,01,6B,9A,01,00,00,
40475743,00000109,false,Rx,0,8,01,95,01,08,00,24,FF,FE,
40482252,00000523,false,Rx,0,6,02,03,F1,FF,FF,FF,00,00,
40544042,00000100,false,Rx,0,8,00,00,00,00,9A,01,C8,00,
40544318,00000101,false,Rx,0,8,00,FF,FE,00,00,00,00,00,
40544572,00000102,false,Rx,0,8,01,90,01,00,00,01,00,00,
40575486,00000108,false,Rx,0,8,01,F4,01,6B,9A,01,00,00,
40575739,00000109,false,Rx,0,8,01,93,01,08,00,24,FF,FE,
40644043,00000100,false,Rx,0,8,00,00,00,00,9A,01,C8,00,
40644314,00000101,false,Rx,0,8,00,FF,FE,00,00,00,00,00,
40644573,00000102,false,Rx,0,8,01,90,01,00,00,01,00,00,
40675485,00000108,false,Rx,0,8,01,F4,01,6B,9A,01,00,00,
40675745,00000109,false,Rx,0,8,01,98,01,08,00,24,FF,FE,
40678091,00000528,false,Rx,0,6,07,09,E7,2B,00,00,00,00,
40744043,00000100,false,Rx,0,8,00,00,00,00,9A,01,C8,00,
40744315,00000101,false,Rx,0,8,00,FF,FE,00,00,00,00,00,
40744568,00000102,false,Rx,0,8,01,90,01,00,00,01,00,00,
40775499,00000108,false,Rx,0,8,01,F4,01,6B,9A,01,00,00,
40775745,00000109,false,Rx,0,8,01,98,01,08,00,24,FF,FE,
40776819,00000525,false,Rx,0,6,04,0E,71,00,00,00,00,00,
40821188,00000521,false,Rx,0,6,00,02,F2,FF,FF,FF,00,00,
40844037,00000100,false,Rx,0,8,00,00,00,00,9A,01,C8,00,
40844301,00000101,false,Rx,0,8,00,FF,FE,00,00,00,00,00,
40844568,00000102,false,Rx,0,8,01,90,01,00,00,01,00,00,
40871622,00000522,false,Rx,0,6,01,0F,C1,A5,05,00,00,00,
40871849,00000522,false,Rx,0,6,01,0F,C1,A5,05,00,00,00,
40872082,00000522,false,Rx,0,6,01,0F,C1,A5,05,00,00,00,
40872318,00000522,false,Rx,0,6,01,0F,C1,A5,05,00,00,00,
40872548,00000522,false,Rx,0,6,01,0F,C1,A5,05,00,00,00,
40872781,00000522,false,Rx,0,6,01,0F,C1,A5,05,00,00,00,
40873014,00000522,false,Rx,0,6,01,0F,C1,A5,05,00,00,00,
40873241,00000522,false,Rx,0,6,01,0F,C1,A5,05,00,00,00,
40875498,00000108,false,Rx,0,8,01,F4,01,6B,9A,01,00,00,
40875751,00000109,false,Rx,0,8,01,96,01,08,00,24,FF,FE,
40944038,00000100,false,Rx,0,8,00,00,00,00,9A,01,C8,00,
40944303,00000101,false,Rx,0,8,00,FF,FE,00,00,00,00,00,
40944568,00000102,false,Rx,0,8,01,90,01,00,00,01,00,00,
40975498,00000108,false,Rx,0,8,01,F4,01,6B,9A,01,00,00,
40975751,00000109,false,Rx,0,8,01,97,01,08,00,24,FF,FE,
40982912,00000527,false,Rx,0,6,06,05,9C,AE,01,00,00,00,
41044032,00000100,false,Rx,0,8,00,00,00,00,9A,01,C8,00,
41044305,00000101,false,Rx,0,8,00,FF,FE,00,00,00,00,00,
41044564,00000102,false,Rx,0,8,01,90,01,00,00,01,00,00,
41075502,00000108,false,Rx,0,8,01,F4,01,6B,9A,01,00,00,
41075749,00000109,false,Rx,0,8,01,97,01,08,00,24,FF,FE,
41077565,00000526,false,Rx,0,6,05,01,02,00,00,00,00,00,
41121314,00000524,false,Rx,0,6,03,0E,F6,FF,FF,FF,00,00,
41131885,00000523,false,Rx,0,6,02,04,F1,FF,FF,FF,00,00,
41132118,00000523,false,Rx,0,6,02,04,F1,FF,FF,FF,00,00,
41132358,00000523,false,Rx,0,6,02,04,F1,FF,FF,FF,00,00,
41132592,00000523,false,Rx,0,6,02,04,F1,FF,FF,FF,00,00,
41132831,00000523,false,Rx,0,6,02,04,F1,FF,FF,FF,00,00,
41133064,00000523,false,Rx,0,6,02,04,F1,FF,FF,FF,00,00,
41133304,00000523,false,Rx,0,6,02,04,F1,FF,FF,FF,00,00,
41144032,00000100,false,Rx,0,8,00,00,00,00,9A,01,C8,00,
41144296,00000101,false,Rx,0,8,00,FF,FE,00,00,00,00,00,
41144561,00000102,false,Rx,0,8,01,90,01,00,00,01,00,00,
41175505,00000108,false,Rx,0,8,01,F4,01,6B,9A,01,00,00,
41175751,00000109,false,Rx,0,8,01,98,01,08,00,24,FF,FE,
41244028,00000100,false,Rx,0,8,00,00,00,00,9A,01,C8,00,
41244300,00000101,false,Rx,0,8,00,FF,FE,00,00,00,00,00,
41244559,00000102,false,Rx,0,8,01,90,01,00,00,01,00,00,
41275507,00000108,false,Rx,0,8,01,F4,01,6B,9A,01,00,00,
41275753,00000109,false,Rx,0,8,01,97,01,08,00,24,FF,FE,
41344029,00000100,false,Rx,0,8,00,00,00,00,9A,01,C8,00,
41344281,00000101,false,Rx,0,8,00,FF,FE,00,00,00,00,00,
41344529,00000102,false,Rx,0,8,01,90,01,00,00,01,00,00,
41375515,00000108,false,Rx,0,8,01,F4,01,6B,9A,01,00,00,
41375760,00000109,false,Rx,0,8,01,97,01,08,00,24,FF,FE,
41418430,00000528,false,Rx,0,6,07,0A,E7,2B,00,00,00,00,
41434501,00000521,false,Rx,0,6,00,03,F2,FF,FF,FF,00,00,
41444026,00000100,false,Rx,0,8,00,00,00,00,9A,01,C8,00,
41444278,00000101,false,Rx,0,8,00,FF,FE,00,00,00,00,00,
41444526,00000102,false,Rx,0,8,01,90,01,00,00,01,00,00,
41462770,00000525,false,Rx,0,6,04,0F,71,00,00,00,00,00,
41475503,00000108,false,Rx,0,8,01,F4,01,6B,9A,01,00,00,
41475755,00000109,false,Rx,0,8,01,97,01,08,00,24,FF,FE,
41503094,00000522,false,Rx,0,6,01,00,C1,A5,05,00,00,00,
41544023,00000100,false,Rx,0,8,00,00,00,00,9A,01,C8,00,
41544274,00000101,false,Rx,0,8,00,FF,FE,00,00,00,00,00,
41544522,00000102,false,Rx,0,8,01,90,01,00,00,01,00,00,
41575502,00000108,false,Rx,0,8,01,F4,01,6B,9A,01,00,00,
41575768,00000109,false,Rx,0,8,01,98,01,08,00,24,FF,FE,
41644023,00000100,false,Rx,0,8,00,00,00,00,9A,01,C8,00,
41644275,00000101,false,Rx,0,8,00,FF,FE,00,00,00,00,00,
41644523,00000102,false,Rx,0,8,01,90,01,00,00,01,00,00,
41675516,00000108,false,Rx,0,8,01,F4,01,6B,9A,01,00,00,
41675763,00000109,false,Rx,0,8,01,97,01,08,00,24,FF,FE,
41704912,00000527,false,Rx,0,6,06,06,9C,AE,01,00,00,00,
41744017,00000100,false,Rx,0,8,00,00,00,00,9A,01,C8,00,
41744270,00000101,false,Rx,0,8,00,FF,FE,00,00,00,00,00,
41744523,00000102,false,Rx,0,8,01,90,01,00,00,01,00,00,
41775516,00000108,false,Rx,0,8,01,F4,01,6B,9A,01,00,00,
41775768,00000109,false,Rx,0,8,01,98,01,08,00,24,FF,FE,
41781877,00000523,false,Rx,0,6,02,05,F8,FF,FF,FF,00,00,
41782110,00000523,false,Rx,0,6,02,05,F8,FF,FF,FF,00,00,
41782352,00000523,false,Rx,0,6,02,05,F8,FF,FF,FF,00,00,
41782574,00000526,false,Rx,0,6,05,02,09,00,00,00,00,00,
41788591,00000524,false,Rx,0,6,03,0F,EA,FF,FF,FF,00,00,
41844016,00000100,false,Rx,0,8,00,00,00,00,9A,01,C8,00,
41844268,00000101,false,Rx,0,8,00,FF,FE,00,00,00,00,00,
41844523,00000102,false,Rx,0,8,01,90,01,00,00,01,00,00,
41875523,00000108,false,Rx,0,8,01,F4,01,6B,9A,01,00,00,
41875768,00000109,false,Rx,0,8,01,98,01,08,00,24,FF,FE,
41944012,00000100,false,Rx,0,8,00,00,00,00,9A,01,C8,00,
41945367,00000101,false,Rx,0,8,00,FF,FE,00,00,00,00,00,
41945634,00000102,false,Rx,0,8,01,90,01,00,00,01,00,00,
41975522,00000108,false,Rx,0,8,01,F4,01,6B,9A,01,00,00,
41975768,00000109,false,Rx,0,8,01,98,01,08,00,24,FF,FE,
42047899,00000521,false,Rx,0,6,00,04,F3,FF,FF,FF,00,00,
42048145,00000100,false,Rx,0,8,00,00,00,00,9A,01,C8,00,
42048633,00000521,false,Rx,0,6,00,04,F3,FF,FF,FF,00,00,
42052747,00000101,false,Rx,0,8,00,FF,FE,00,00,00,00,00,
42052999,00000102,false,Rx,0,8,01,90,01,00,00,01,00,00,
42076060,00000108,false,Rx,0,8,01,F4,01,6B,9A,01,00,00,
42076592,00000109,false,Rx,0,8,01,98,01,08,00,24,FF,FE,
42134584,00000522,false,Rx,0,6,01,01,BC,A5,05,00,00,00,
42144010,00000100,false,Rx,0,8,00,00,00,00,9A,01,C8,00,
42148043,00000101,false,Rx,0,8,00,FF,FE,00,00,00,00,00,
42148314,00000102,false,Rx,0,8,01,90,01,00,00,01,00,00,
42148733,00000525,false,Rx,0,6,04,00,71,00,00,00,00,00,
42158869,00000528,false,Rx,0,6,07,0B,E7,2B,00,00,00,00,
42175796,00000108,false,Rx,0,8,01,F4,01,6B,9A,01,00,00,
42176054,00000109,false,Rx,0,8,01,98,01,08,00,24,FF,FE,
42245422,00000100,false,Rx,0,8,00,00,00,00,9A,01,C8,00,
42245682,00000101,false,Rx,0,8,00,FF,FE,00,00,00,00,00,
42245946,00000102,false,Rx,0,8,01,90,01,00,00,01,00,00,
42275524,00000108,false,Rx,0,8,01,F4,01,6B,9A,01,00,00,
42276321,00000109,false,Rx,0,8,01,98,01,08,00,24,FF,FE,
42345696,00000100,false,Rx,0,8,00,00,00,00,9A,01,C8,00,
42345960,00000101,false,Rx,0,8,00,FF,FE,00,00,00,00,00,
42346224,00000102,false,Rx,0,8,01,90,01,00,00,01,00,00,
42375520,00000108,false,Rx,0,8,01,F4,01,6B,9A,01,00,00,
42375779,00000109,false,Rx,0,8,01,97,01,08,00,24,FF,FE,
42427187,00000527,false,Rx,0,6,06,07,9C,AE,01,00,00,00,
42433646,00000523,false,Rx,0,6,02,06,F1,FF,FF,FF,00,00,
42444006,00000100,false,Rx,0,8,00,00,00,00,9A,01,C8,00,
42445407,00000101,false,Rx,0,8,00,FF,FE,00,00,00,00,00,
42445673,00000102,false,Rx,0,8,01,90,01,00,00,01,00,00,
42456385,00000524,false,Rx,0,6,03,00,F5,FF,FF,FF,00,00,
42475523,00000108,false,Rx,0,8,01,F4,01,6B,9A,01,00,00,
42476053,00000109,false,Rx,0,8,01,98,01,08,00,24,FF,FE,
42485974,00000526,false,Rx,0,6,05,03,06,00,00,00,00,00,
42544004,00000100,false,Rx,0,8,00,00,00,00,9A,01,C8,00,
42544268,00000101,false,Rx,0,8,00,FF,FE,00,00,00,00,00,
42544535,00000102,false,Rx,0,8,01,90,01,00,00,01,00,00,
42575527,00000108,false,Rx,0,8,01,F4,01,6B,9A,01,00,00,
42576601,00000109,false,Rx,0,8,01,98,01,08,00,24,FF,FE,
42644000,00000100,false,Rx,0,8,00,00,00,00,9A,01,C8,00,
42651653,00000101,false,Rx,0,8,00,FF,FE,00,00,00,00,00,
42651905,00000102,false,Rx,0,8,01,90,01,00,00,01,00,00,
42661140,00000521,false,Rx,0,6,00,05,F5,FF,FF,FF,00,00,
42676085,00000108,false,Rx,0,8,01,F4,01,6B,9A,01,00,00,
42676337,00000109,false,Rx,0,8,01,98,01,08,00,24,FF,FE,
42746801,00000100,false,Rx,0,8,00,00,00,00,9A,01,C8,00,
42747066,00000101,false,Rx,0,8,00,FF,FE,00,00,00,00,00,
42747331,00000102,false,Rx,0,8,01,90,01,00,00,01,00,00,
42766053,00000522,false,Rx,0,6,01,02,B7,A5,05,00,00,00,
42778621,00000108,false,Rx,0,8,01,F4,01,6B,9A,01,00,00,
42779373,00000109,false,Rx,0,8,01,98,01,08,00,24,FF,FE,
42834674,00000525,false,Rx,0,6,04,01,71,00,00,00,00,00,
42843995,00000100,false,Rx,0,8,00,00,00,00,9A,01,C8,00,
42844266,00000101,false,Rx,0,8,00,FF,FE,00,00,00,00,00,
42844527,00000102,false,Rx,0,8,01,90,01,00,00,01,00,00,
42875540,00000108,false,Rx,0,8,01,F4,01,6B,9A,01,00,00,
42876288,00000109,false,Rx,0,8,01,98,01,08,00,24,FF,FE,
42899289,00000528,false,Rx,0,6,07,0C,E7,2B,00,00,00,00,
42944277,00000100,false,Rx,0,8,00,00,00,00,9A,01,C8,00,
42944544,00000101,false,Rx,0,8,00,FF,FE,00,00,00,00,00,
42944808,00000102,false,Rx,0,8,01,90,01,00,00,01,00,00,
42975792,00000108,false,Rx,0,8,01,F4,01,6B,9A,01,00,00,
42976545,00000109,false,Rx,0,8,01,98,01,08,00,24,FF,FE,
43045402,00000100,false,Rx,0,8,00,00,00,00,9A,01,C8,00,
43045669,00000101,false,Rx,0,8,00,FF,FE,00,00,00,00,00,
43045933,00000102,false,Rx,0,8,01,90,01,00,00,01,00,00,
43075540,00000108,false,Rx,0,8,01,F4,01,6B,9A,01,00,00,
43077045,00000109,false,Rx,0,8,01,97,01,08,00,24,FF,FE,
43080795,00000523,false,Rx,0,6,02,07,F1,FF,FF,FF,00,00,
43124180,00000524,false,Rx,0,6,03,01,F5,FF,FF,FF,00,00,
43150555,00000100,false,Rx,0,8,00,00,00,00,9A,01,C8,00,
43150806,00000101,false,Rx,0,8,00,FF,FE,00,00,00,00,00,
43151052,00000102,false,Rx,0,8,01,90,01,00,00,01,00,00,
43151255,00000527,false,Rx,0,6,06,08,9C,AE,01,00,00,00,
43176048,00000108,false,Rx,0,8,01,F4,01,6B,9A,01,00,00,
43176795,00000109,false,Rx,0,8,01,97,01,08,00,24,FF,FE,
43190082,00000526,false,Rx,0,6,05,04,04,00,00,00,00,00,
43245321,00000100,false,Rx,0,8,00,00,00,00,9A,01,C8,00,
43245568,00000101,false,Rx,0,8,00,FF,FE,00,00,00,00,00,
43245815,00000102,false,Rx,0,8,01,90,01,00,00,01,00,00,
43274473,00000521,false,Rx,0,6,00,06,F5,FF,FF,FF,00,00,
43276887,00000108,false,Rx,0,8,01,F4,01,6B,9A,01,00,00,
43277139,00000109,false,Rx,0,8,01,98,01,08,00,24,FF,FE,
43343989,00000100,false,Rx,0,8,00,00,00,00,9A,01,C8,00,
43346509,00000101,false,Rx,0,8,00,FF,FE,00,00,00,00,00,
43346782,00000102,false,Rx,0,8,01,90,01,00,00,01,00,00,
43375539,00000108,false,Rx,0,8,01,F4,01,6B,9A,01,00,00,
43376340,00000109,false,Rx,0,8,01,98,01,08,00,24,FF,FE,
43397531,00000522,false,Rx,0,6,01,03,C1,A5,05,00,00,00,
43443988,00000100,false,Rx,0,8,00,00,00,00,9A,01,C8,00,
43446803,00000101,false,Rx,0,8,00,FF,FE,00,00,00,00,00,
43447067,00000102,false,Rx,0,8,01,90,01,00,00,01,00,00,
43475542,00000108,false,Rx,0,8,01,F4,01,6B,9A,01,00,00,
43477436,00000109,false,Rx,0,8,01,98,01,08,00,24,FF,FE,
43520638,00000525,false,Rx,0,6,04,02,71,00,00,00,00,00,
43543980,00000100,false,Rx,0,8,00,00,00,00,9A,01,C8,00,
43544251,00000101,false,Rx,0,8,00,FF,FE,00,00,00,00,00,
43547601,00000102,false,Rx,0,8,01,90,01,00,00,01,00,00,
43575548,00000108,false,Rx,0,8,01,F4,01,6B,9A,01,00,00,
43576343,00000109,false,Rx,0,8,01,98,01,08,00,24,FF,FE,
43639710,00000528,false,Rx,0,6,07,0D,E7,2B,00,00,00,00,
43643977,00000100,false,Rx,0,8,00,00,00,00,9A,01,C8,00,
43644230,00000101,false,Rx,0,8,00,FF,FE,00,00,00,00,00,
43644476,00000102,false,Rx,0,8,01,90,01,00,00,01,00,00,
43675545,00000108,false,Rx,0,8,01,F4,01,6B,9A,01,00,00,
43676349,00000109,false,Rx,0,8,01,98,01,08,00,24,FF,FE,
43730429,00000523,false,Rx,0,6,02,08,EC,FF,FF,FF,00,00,
43744776,00000100,false,Rx,0,8,00,00,00,00,9A,01,C8,00,
43745029,00000101,false,Rx,0,8,00,FF,FE,00,00,00,00,00,
43745274,00000102,false,Rx,0,8,01,90,01,00,00,01,00,00,
43775551,00000108,false,Rx,0,8,01,F4,01,6B,9A,01,00,00,
43781227,00000109,false,Rx,0,8,01,98,01,08,00,24,FF,FE,
43791971,00000524,false,Rx,0,6,03,02,F3,FF,FF,FF,00,00,
43843976,00000100,false,Rx,0,8,00,00,00,00,9A,01,C8,00,
43844227,00000101,false,Rx,0,8,00,FF,FE,00,00,00,00,00,
43844474,00000102,false,Rx,0,8,01,90,01,00,00,01,00,00,
43873045,00000527,false,Rx,0,6,06,09,9C,AE,01,00,00,00,
43875554,00000108,false,Rx,0,8,01,F4,01,6B,9A,01,00,00,
43875788,00000109,false,Rx,0,8,01,97,01,08,00,24,FF,FE,
43887788,00000521,false,Rx,0,6,00,07,F1,FF,FF,FF,00,00,
43894139,00000526,false,Rx,0,6,05,05,05,00,00,00,00,00,
43944772,00000100,false,Rx,0,8,00,00,00,00,9A,01,C8,00,
43945018,00000101,false,Rx,0,8,00,FF,FE,00,00,00,00,00,
43945270,00000102,false,Rx,0,8,01,90,01,00,00,01,00,00,
43975552,00000108,false,Rx,0,8,01,F4,01,6B,9A,01,00,00,
43976824,00000109,false,Rx,0,8,01,98,01,08,00,24,FF,FE,
44029007,00000522,false,Rx,0,6,01,04,C7,A5,05,00,00,00,
44048024,00000100,false,Rx,0,8,00,00,00,00,9A,01,C8,00,
44048289,00000101,false,Rx,0,8,00,FF,FE,00,00,00,00,00,
44048554,00000102,false,Rx,0,8,01,90,01,00,00,01,00,00,
44075557,00000108,false,Rx,0,8,01,F4,01,6B,9A,01,00,00,
44075797,00000109,false,Rx,0,8,01,98,01,08,00,24,FF,FE,
44143972,00000100,false,Rx,0,8,00,00,00,00,9A,01,C8,00,
44144236,00000101,false,Rx,0,8,00,FF,FE,00,00,00,00,00,
44144508,00000102,false,Rx,0,8,01,90,01,00,00,01,00,00,
44175559,00000108,false,Rx,0,8,01,F4,01,6B,9A,01,00,00,
44176315,00000109,false,Rx,0,8,01,98,01,08,00,24,FF,FE,
44206586,00000525,false,Rx,0,6,04,03,71,00,00,00,00,00,
44252033,00000100,false,Rx,0,8,00,00,00,00,9A,01,C8,00,
44252279,00000101,false,Rx,0,8,00,FF,FE,00,00,00,00,00,
44252526,00000102,false,Rx,0,8,01,90,01,00,00,01,00,00,
44277146,00000108,false,Rx,0,8,01,F4,01,6B,9A,01,00,00,
44277949,00000109,false,Rx,0,8,01,98,01,08,00,24,FF,FE,
44347189,00000100,false,Rx,0,8,00,00,00,00,9A,01,C8,00,
44347455,00000101,false,Rx,0,8,00,FF,FE,00,00,00,00,00,
44347714,00000102,false,Rx,0,8,01,90,01,00,00,01,00,00,
44375563,00000108,false,Rx,0,8,01,F4,01,6B,9A,01,00,00,
44375820,00000109,false,Rx,0,8,01,98,01,08,00,24,FF,FE,
44380385,00000523,false,Rx,0,6,02,09,F2,FF,FF,FF,00,00,
44380601,00000528,false,Rx,0,6,07,0E,E7,2B,00,00,00,00,
44443966,00000100,false,Rx,0,8,00,00,00,00,9A,01,C8,00,
44444230,00000101,false,Rx,0,8,00,FF,FE,00,00,00,00,00,
44444503,00000102,false,Rx,0,8,01,90,01,00,00,01,00,00,
44459770,00000524,false,Rx,0,6,03,03,FD,FF,FF,FF,00,00,
44475567,00000108,false,Rx,0,8,01,F4,01,6B,9A,01,00,00,
44475818,00000109,false,Rx,0,8,01,98,01,08,00,24,FF,FE,
44501109,00000521,false,Rx,0,6,00,08,F7,FF,FF,FF,00,00,
44544527,00000100,false,Rx,0,8,00,00,00,00,9A,01,C8,00,
44544791,00000101,false,Rx,0,8,00,FF,FE,00,00,00,00,00,
44545056,00000102,false,Rx,0,8,01,90,01,00,00,01,00,00,
44575567,00000108,false,Rx,0,8,01,F4,01,6B,9A,01,00,00,
44576368,00000109,false,Rx,0,8,01,98,01,08,00,24,FF,FE,
44593968,00000527,false,Rx,0,6,06,0A,9C,AE,01,00,00,00,
44598270,00000526,false,Rx,0,6,05,06,06,00,00,00,00,00,
44645090,00000100,false,Rx,0,8,00,00,00,00,9A,01,C8,00,
44645355,00000101,false,Rx,0,8,00,FF,FE,00,00,00,00,00,
44645615,00000102,false,Rx,0,8,01,90,01,00,00,01,00,00,
44660485,00000522,false,Rx,0,6,01,05,C2,A5,05,00,00,00,
44675567,00000108,false,Rx,0,8,01,F4,01,6B,9A,01,00,00,
44676097,00000109,false,Rx,0,8,01,98,01,08,00,24,FF,FE,
44746209,00000100,false,Rx,0,8,00,00,00,00,9A,01,C8,00,
44746480,00000101,false,Rx,0,8,00,FF,FE,00,00,00,00,00,
44746739,00000102,false,Rx,0,8,01,90,01,00,00,01,00,00,
44775573,00000108,false,Rx,0,8,01,F4,01,6B,9A,01,00,00,
44776918,00000109,false,Rx,0,8,01,98,01,08,00,24,FF,FE,
44852717,00000100,false,Rx,0,8,00,00,00,00,9A,01,C8,00,
44852988,00000101,false,Rx,0,8,00,FF,FE,00,00,00,00,00,
44853246,00000102,false,Rx,0,8,01,90,01,00,00,01,00,00,
44876119,00000108,false,Rx,0,8,01,F4,01,6B,9A,01,00,00,
44876372,00000109,false,Rx,0,8,01,98,01,08,00,24,FF,FE,
44892970,00000525,false,Rx,0,6,04,04,71,00,00,00,00,00,
44893209,00000525,false,Rx,0,6,04,04,71,00,00,00,00,00,
44893438,00000525,false,Rx,0,6,04,04,71,00,00,00,00,00,
44893673,00000525,false,Rx,0,6,04,04,71,00,00,00,00,00,
44893906,00000525,false,Rx,0,6,04,04,71,00,00,00,00,00,
44894145,00000525,false,Rx,0,6,04,04,71,00,00,00,00,00,
44894380,00000525,false,Rx,0,6,04,04,71,00,00,00,00,00,
44943948,00000100,false,Rx,0,8,00,00,00,00,9A,01,C8,00,
44944219,00000101,false,Rx,0,8,00,FF,FE,00,00,00,00,00,
44944484,00000102,false,Rx,0,8,01,90,01,00,00,01,00,00,
44975574,00000108,false,Rx,0,8,01,F4,01,6B,9A,01,00,00,
44975833,00000109,false,Rx,0,8,01,98,01,08,00,24,FF,FE,
45029685,00000523,false,Rx,0,6,02,0A,F2,FF,FF,FF,00,00,
45029913,00000523,false,Rx,0,6,02,0A,F2,FF,FF,FF,00,00,
45030146,00000523,false,Rx,0,6,02,0A,F2,FF,FF,FF,00,00,
45030380,00000523,false,Rx,0,6,02,0A,F2,FF,FF,FF,00,00,
45030608,00000523,false,Rx,0,6,02,0A,F2,FF,FF,FF,00,00,
45043954,00000100,false,Rx,0,8,00,00,00,00,9A,01,C8,00,
45044218,00000101,false,Rx,0,8,00,FF,FE,00,00,00,00,00,
45044478,00000102,false,Rx,0,8,01,90,01,00,00,01,00,00,
45075577,00000108,false,Rx,0,8,01,F4,01,6B,9A,01,00,00,
45075835,00000109,false,Rx,0,8,01,98,01,08,00,24,FF,FE,
45114418,00000521,false,Rx,0,6,00,09,F6,FF,FF,FF,00,00,
45120548,00000528,false,Rx,0,6,07,0F,E7,2B,00,00,00,00,
45127554,00000524,false,Rx,0,6,03,04,FD,FF,FF,FF,00,00,
45143949,00000100,false,Rx,0,8,00,00,00,00,9A,01,C8,00,
45144213,00000101,false,Rx,0,8,00,FF,FE,00,00,00,00,00,
45144478,00000102,false,Rx,0,8,01,90,01,00,00,01,00,00,
45175579,00000108,false,Rx,0,8,01,F4,01,6B,9A,01,00,00,
45175837,00000109,false,Rx,0,8,01,98,01,08,00,24,FF,FE,
45243947,00000100,false,Rx,0,8,00,00,00,00,9A,01,C8,00,
45244211,00000101,false,Rx,0,8,00,FF,FE,00,00,00,00,00,
45244476,00000102,false,Rx,0,8,01,90,01,00,00,01,00,00,
45275585,00000108,false,Rx,0,8,01,F4,01,6B,9A,01,00,00,
45275837,00000109,false,Rx,0,8,01,97,01,08,00,24,FF,FE,
45291954,00000522,false,Rx,0,6,01,06,CF,A5,05,00,00,00,
45302189,00000526,false,Rx,0,6,05,07,04,00,00,00,00,00,
45316238,00000527,false,Rx,0,6,06,0B,9C,AE,01,00,00,00,
45343941,00000100,false,Rx,0,8,00,00,00,00,9A,01,C8,00,
45344212,00000101,false,Rx,0,8,00,FF,FE,00,00,00,00,00,
45344471,00000102,false,Rx,0,8,01,90,01,00,00,01,00,00,
45375582,00000108,false,Rx,0,8,01,F4,01,6B,9A,01,00,00,
45375840,00000109,false,Rx,0,8,01,98,01,08,00,24,FF,FE,
45443943,00000100,false,Rx,0,8,00,00,00,00,9A,01,C8,00,
45444207,00000101,false,Rx,0,8,00,FF,FE,00,00,00,00,00,
45444473,00000102,false,Rx,0,8,01,90,01,00,00,01,00,00,
45475588,00000108,false,Rx,0,8,01,F4,01,6B,9A,01,00,00,
45475840,00000109,false,Rx,0,8,01,98,01,08,00,24,FF,FE,
45543943,00000100,false,Rx,0,8,00,00,00,00,9A,01,C8,00,
45544207,00000101,false,Rx,0,8,00,FF,FE,00,00,00,00,00,
45544472,00000102,false,Rx,0,8,01,90,01,00,00,01,00,00,
45575588,00000108,false,Rx,0,8,01,F4,01,6B,9A,01,00,00,
45575840,00000109,false,Rx,0,8,01,98,01,08,00,24,FF,FE,
45578465,00000525,false,Rx,0,6,04,05,71,00,00,00,00,00,
45643936,00000100,false,Rx,0,8,00,00,00,00,9A,01,C8,00,
45644188,00000101,false,Rx,0,8,00,FF,FE,00,00,00,00,00,
45644436,00000102,false,Rx,0,8,01,90,01,00,00,01,00,00,
45675587,00000108,false,Rx,0,8,01,F4,01,6B,9A,01,00,00,
45675846,00000109,false,Rx,0,8,01,98,01,08,00,24,FF,FE,
45679325,00000523,false,Rx,0,6,02,0B,F5,FF,FF,FF,00,00,
45727739,00000521,false,Rx,0,6,00,0A,F6,FF,FF,FF,00,00,
45743937,00000100,false,Rx,0,8,00,00,00,00,9A,01,C8,00,
45744182,00000101,false,Rx,0,8,00,FF,FE,00,00,00,00,00,
45744435,00000102,false,Rx,0,8,01,90,01,00,00,01,00,00,
45775588,00000108,false,Rx,0,8,01,F4,01,6B,9A,01,00,00,
45775846,00000109,false,Rx,0,8,01,97,01,08,00,24,FF,FE,
45795344,00000524,false,Rx,0,6,03,05,FE,FF,FF,FF,00,00,
45843934,00000100,false,Rx,0,8,00,00,00,00,9A,01,C8,00,
45844180,00000101,false,Rx,0,8,00,FF,FE,00,00,00,00,00,
45844433,00000102,false,Rx,0,8,01,90,01,00,00,01,00,00,
45860966,00000528,false,Rx,0,6,07,00,E7,2B,00,00,00,00,
45875866,00000108,false,Rx,0,8,01,F4,01,6B,9A,01,00,00,
45876118,00000109,false,Rx,0,8,01,97,01,08,00,24,FF,FE,
45923435,00000522,false,Rx,0,6,01,07,C6,A5,05,00,00,00,
45943934,00000100,false,Rx,0,8,00,00,00,00,9A,01,C8,00,
45944179,00000101,false,Rx,0,8,00,FF,FE,00,00,00,00,00,
45944432,00000102,false,Rx,0,8,01,90,01,00,00,01,00,00,
45975598,00000108,false,Rx,0,8,01,F4,01,6B,9A,01,00,00,
45976120,00000109,false,Rx,0,8,01,98,01,08,00,24,FF,FE,
46006505,00000526,false,Rx,0,6,05,08,03,00,00,00,00,00,
46038510,00000527,false,Rx,0,6,06,0C,9C,AE,01,00,00,00,
46043926,00000100,false,Rx,0,8,00,00,00,00,9A,01,C8,00,
46044179,00000101,false,Rx,0,8,00,FF,FE,00,00,00,00,00,
46044425,00000102,false,Rx,0,8,01,90,01,00,00,01,00,00,
46075598,00000108,false,Rx,0,8,01,F4,01,6B,9A,01,00,00,
46075856,00000109,false,Rx,0,8,01,98,01,08,00,24,FF,FE,
46143928,00000100,false,Rx,0,8,00,00,00,00,9A,01,C8,00,
46144180,00000101,false,Rx,0,8,00,FF,FE,00,00,00,00,00,
46144427,00000102,false,Rx,0,8,01,90,01,00,00,01,00,00,
46175610,00000108,false,Rx,0,8,01,F4,01,6B,9A,01,00,00,
46175861,00000109,false,Rx,0,8,01,98,01,08,00,24,FF,FE,
46243926,00000100,false,Rx,0,8,00,00,00,00,9A,01,C8,00,
46244178,00000101,false,Rx,0,8,00,FF,FE,00,00,00,00,00,
46244425,00000102,false,Rx,0,8,01,90,01,00,00,01,00,00,
46264417,00000525,false,Rx,0,6,04,06,71,00,00,00,00,00,
46275600,00000108,false,Rx,0,8,01,F4,01,6B,9A,01,00,00,
46275859,00000109,false,Rx,0,8,01,98,01,08,00,24,FF,FE,
46328960,00000523,false,Rx,0,6,02,0C,F0,FF,FF,FF,00,00,
46341072,00000521,false,Rx,0,6,00,0B,F4,FF,FF,FF,00,00,
46341312,00000521,false,Rx,0,6,00,0B,F4,FF,FF,FF,00,00,
46341541,00000521,false,Rx,0,6,00,0B,F4,FF,FF,FF,00,00,
46341781,00000521,false,Rx,0,6,00,0B,F4,FF,FF,FF,00,00,
46342013,00000521,false,Rx,0,6,00,0B,F4,FF,FF,FF,00,00,
46342253,00000521,false,Rx,0,6,00,0B,F4,FF,FF,FF,00,00,
46342494,00000521,false,Rx,0,6,00,0B,F4,FF,FF,FF,00,00,
46342721,00000521,false,Rx,0,6,00,0B,F4,FF,FF,FF,00,00,
46343925,00000100,false,Rx,0,8,00,00,00,00,9A,01,C8,00,
46344170,00000101,false,Rx,0,8,00,FF,FE,00,00,00,00,00,
46344424,00000102,false,Rx,0,8,01,90,01,00,00,01,00,00,
46375599,00000108,false,Rx,0,8,01,F4,01,6B,9A,01,00,00,
46375858,00000109,false,Rx,0,8,01,97,01,08,00,24,FF,FE,
46443920,00000100,false,Rx,0,8,00,00,00,00,9A,01,C8,00,
46444172,00000101,false,Rx,0,8,00,FF,FE,00,00,00,00,00,
46444420,00000102,false,Rx,0,8,01,90,01,00,00,01,00,00,
46463145,00000524,false,Rx,0,6,03,06,F2,FF,FF,FF,00,00,
46475606,00000108,false,Rx,0,8,01,F4,01,6B,9A,01,00,00,
46476403,00000109,false,Rx,0,8,01,98,01,08,00,24,FF,FE,
46543918,00000100,false,Rx,0,8,00,00,00,00,9A,01,C8,00,
46544170,00000101,false,Rx,0,8,00,FF,FE,00,00,00,00,00,
46544417,00000102,false,Rx,0,8,01,90,01,00,00,01,00,00,
46556495,00000522,false,Rx,0,6,01,08,C1,A5,05,00,00,00,
46575603,00000108,false,Rx,0,8,01,F4,01,6B,9A,01,00,00,
46576672,00000109,false,Rx,0,8,01,2A,01,08,00,24,FF,FE,
46601400,00000528,false,Rx,0,6,07,01,E7,2B,00,00,00,00,
46643920,00000100,false,Rx,0,8,00,00,00,00,9A,01,C8,00,
