Time Stamp,ID,Extended,Dir,Bus,LEN,D1,D2,D3,D4,D5,D6,D7,D8
4898317,00000528,false,Rx,0,6,07,03,21,1C,00,00,00,00,
4952519,00000525,false,Rx,0,6,04,02,1E,01,00,00,00,00,
4958864,00000526,false,Rx,0,6,05,07,A9,00,00,00,00,00,
5110195,00000521,false,Rx,0,6,00,06,3F,FE,FF,FF,00,00,
5153407,00000524,false,Rx,0,6,03,04,F0,FF,FF,FF,00,00,
5181536,00000523,false,Rx,0,6,02,0D,F3,FF,FF,FF,00,00,
5286387,00000522,false,Rx,0,6,01,0E,E7,C8,05,00,00,00,
5551258,00000527,false,Rx,0,6,06,03,9D,0C,01,00,00,00,
5635885,00000525,false,Rx,0,6,04,03,1E,01,00,00,00,00,
5636116,00000528,false,Rx,0,6,07,04,21,1C,00,00,00,00,
5659980,00000526,false,Rx,0,6,05,08,A6,00,00,00,00,00,
5720952,00000521,false,Rx,0,6,00,07,40,FE,FF,FF,00,00,
5818402,00000524,false,Rx,0,6,03,05,F3,FF,FF,FF,00,00,
5828726,00000523,false,Rx,0,6,02,0E,F3,FF,FF,FF,00,00,
5914817,00000522,false,Rx,0,6,01,0F,E9,C8,05,00,00,00,
6270496,00000527,false,Rx,0,6,06,04,9D,0C,01,00,00,00,
6318672,00000525,false,Rx,0,6,04,04,1E,01,00,00,00,00,
6331996,00000521,false,Rx,0,6,00,08,3E,FE,FF,FF,00,00,
6360980,00000526,false,Rx,0,6,05,09,AC,00,00,00,00,00,
6373139,00000528,false,Rx,0,6,07,05,21,1C,00,00,00,00,
6475349,00000523,false,Rx,0,6,02,0F,EE,FF,FF,FF,00,00,
6483386,00000524,false,Rx,0,6,03,06,EE,FF,FF,FF,00,00,
6543648,00000522,false,Rx,0,6,01,00,EE,C8,05,00,00,00,
6942449,00000521,false,Rx,0,6,00,09,45,FE,FF,FF,00,00,
6989975,00000527,false,Rx,0,6,06,05,9E,0C,01,00,00,00,
7001738,00000525,false,Rx,0,6,04,05,1E,01,00,00,00,00,
7062310,00000526,false,Rx,0,6,05,0A,AF,00,00,00,00,00,
7110270,00000528,false,Rx,0,6,07,06,21,1C,00,00,00,00,
7122255,00000523,false,Rx,0,6,02,00,F0,FF,FF,FF,00,00,
7148391,00000524,false,Rx,0,6,03,07,F3,FF,FF,FF,00,00,
7172474,00000522,false,Rx,0,6,01,01,F0,C8,05,00,00,00,
7553187,00000521,false,Rx,0,6,00,0A,3F,FE,FF,FF,00,00,
7684812,00000525,false,Rx,0,6,04,06,1E,01,00,00,00,00,
7709187,00000527,false,Rx,0,6,06,06,9E,0C,01,00,00,00,
7763296,00000526,false,Rx,0,6,05,0B,AA,00,00,00,00,00,
7769181,00000523,false,Rx,0,6,02,01,F0,FF,FF,FF,00,00,
7801310,00000522,false,Rx,0,6,01,02,F2,C8,05,00,00,00,
7813389,00000524,false,Rx,0,6,03,08,F9,FF,FF,FF,00,00,
7847592,00000528,false,Rx,0,6,07,07,21,1C,00,00,00,00,
3423468,00000521,false,Rx,0,6,00,0B,46,FE,FF,FF,00,00,
3627421,00000525,false,Rx,0,6,04,07,1E,01,00,00,00,00,
3675613,00000523,false,Rx,0,6,02,02,F7,FF,FF,FF,00,00,
3687988,00000527,false,Rx,0,6,06,07,9E,0C,01,00,00,00,
3689670,00000522,false,Rx,0,6,01,03,ED,C8,05,00,00,00,
3724163,00000526,false,Rx,0,6,05,0C,9F,00,00,00,00,00,
3737907,00000524,false,Rx,0,6,03,09,F1,FF,FF,FF,00,00,
3844462,00000528,false,Rx,0,6,07,08,21,1C,00,00,00,00,
4034235,00000521,false,Rx,0,6,00,0C,47,FE,FF,FF,00,00,
4310516,00000525,false,Rx,0,6,04,08,1F,01,00,00,00,00,
4318526,00000522,false,Rx,0,6,01,04,F2,C8,05,00,00,00,
4322555,00000523,false,Rx,0,6,02,03,F0,FF,FF,FF,00,00,
4403204,00000524,false,Rx,0,6,03,0A,EB,FF,FF,FF,00,00,
4406996,00000527,false,Rx,0,6,06,08,9F,0C,01,00,00,00,
4425352,00000526,false,Rx,0,6,05,0D,A5,00,00,00,00,00,
4581811,00000528,false,Rx,0,6,07,09,21,1C,00,00,00,00,
4645534,00000521,false,Rx,0,6,00,0D,48,FE,FF,FF,00,00,
4947423,00000522,false,Rx,0,6,01,05,FF,C8,05,00,00,00,
4969493,00000523,false,Rx,0,6,02,04,F0,FF,FF,FF,00,00,
4993619,00000525,false,Rx,0,6,04,09,1E,01,00,00,00,00,
5067979,00000524,false,Rx,0,6,03,0B,02,00,00,00,00,00,
5126706,00000526,false,Rx,0,6,05,0E,B1,00,00,00,00,00,
5126929,00000527,false,Rx,0,6,06,09,9F,0C,01,00,00,00,
5255782,00000521,false,Rx,0,6,00,0E,43,FE,FF,FF,00,00,
5319153,00000528,false,Rx,0,6,07,0A,21,1C,00,00,00,00,
5576247,00000522,false,Rx,0,6,01,06,01,C9,05,00,00,00,
5616428,00000523,false,Rx,0,6,02,05,F4,FF,FF,FF,00,00,
5676722,00000525,false,Rx,0,6,04,0A,1E,01,00,00,00,00,
5732963,00000524,false,Rx,0,6,03,0C,F5,FF,FF,FF,00,00,
5827536,00000526,false,Rx,0,6,05,0F,A4,00,00,00,00,00,
5845532,00000527,false,Rx,0,6,06,0A,9F,0C,01,00,00,00,
5866557,00000521,false,Rx,0,6,00,0F,40,FE,FF,FF,00,00,
6056565,00000528,false,Rx,0,6,07,0B,21,1C,00,00,00,00,
6205091,00000522,false,Rx,0,6,01,07,05,C9,05,00,00,00,
6263374,00000523,false,Rx,0,6,02,06,EA,FF,FF,FF,00,00,
6359838,00000525,false,Rx,0,6,04,0B,1E,01,00,00,00,00,
6397988,00000524,false,Rx,0,6,03,0D,F0,FF,FF,FF,00,00,
6477331,00000521,false,Rx,0,6,00,00,44,FE,FF,FF,00,00,
6528885,00000526,false,Rx,0,6,05,00,AB,00,00,00,00,00,
6565045,00000527,false,Rx,0,6,06,0B,A0,0C,01,00,00,00,
6793851,00000528,false,Rx,0,6,07,0C,21,1C,00,00,00,00,
6833953,00000522,false,Rx,0,6,01,08,F8,C8,05,00,00,00,
6910306,00000523,false,Rx,0,6,02,07,EA,FF,FF,FF,00,00,
7042934,00000525,false,Rx,0,6,04,0C,1E,01,00,00,00,00,
7063013,00000524,false,Rx,0,6,03,0E,F1,FF,FF,FF,00,00,
7088445,00000521,false,Rx,0,6,00,01,40,FE,FF,FF,00,00,
7229891,00000526,false,Rx,0,6,05,01,A6,00,00,00,00,00,
7284285,00000527,false,Rx,0,6,06,0C,A0,0C,01,00,00,00,
7462788,00000522,false,Rx,0,6,01,09,FF,C8,05,00,00,00,
7531170,00000528,false,Rx,0,6,07,0D,21,1C,00,00,00,00,
7557217,00000523,false,Rx,0,6,02,08,EE,FF,FF,FF,00,00,
7698848,00000521,false,Rx,0,6,00,02,3E,FE,FF,FF,00,00,
7725988,00000525,false,Rx,0,6,04,0D,1E,01,00,00,00,00,
7727981,00000524,false,Rx,0,6,03,0F,EA,FF,FF,FF,00,00,
7931371,00000526,false,Rx,0,6,05,02,B0,00,00,00,00,00,
8003274,00000527,false,Rx,0,6,06,0D,A0,0C,01,00,00,00,
8091601,00000522,false,Rx,0,6,01,0A,00,C9,05,00,00,00,
8204116,00000523,false,Rx,0,6,02,09,F9,FF,FF,FF,00,00,
8268467,00000528,false,Rx,0,6,07,0E,21,1C,00,00,00,00,
8309583,00000521,false,Rx,0,6,00,03,41,FE,FF,FF,00,00,
8392975,00000524,false,Rx,0,6,03,00,ED,FF,FF,FF,00,00,
8409056,00000525,false,Rx,0,6,04,0E,1E,01,00,00,00,00,
8632360,00000526,false,Rx,0,6,05,03,AA,00,00,00,00,00,
8720414,00000522,false,Rx,0,6,01,0B,0F,C9,05,00,00,00,
8722741,00000527,false,Rx,0,6,06,0E,A1,0C,01,00,00,00,
8851018,00000523,false,Rx,0,6,02,0A,F9,FF,FF,FF,00,00,
8920318,00000521,false,Rx,0,6,00,04,42,FE,FF,FF,00,00,
9005777,00000528,false,Rx,0,6,07,0F,21,1C,00,00,00,00,
9057963,00000524,false,Rx,0,6,03,01,F0,FF,FF,FF,00,00,
9092103,00000525,false,Rx,0,6,04,0F,1E,01,00,00,00,00,
9333462,00000526,false,Rx,0,6,05,04,B4,00,00,00,00,00,
9349241,00000522,false,Rx,0,6,01,0C,0E,C9,05,00,00,00,
9441720,00000527,false,Rx,0,6,06,0F,A1,0C,01,00,00,00,
9498239,00000523,false,Rx,0,6,02,0B,EC,FF,FF,FF,00,00,
9531054,00000521,false,Rx,0,6,00,05,40,FE,FF,FF,00,00,
9722939,00000524,false,Rx,0,6,03,02,E4,FF,FF,FF,00,00,
9743313,00000528,false,Rx,0,6,07,00,21,1C,00,00,00,00,
9775187,00000525,false,Rx,0,6,04,00,1E,01,00,00,00,00,
9978103,00000522,false,Rx,0,6,01,0D,0E,C9,05,00,00,00,
10034472,00000526,false,Rx,0,6,05,05,A3,00,00,00,00,00,
10141835,00000521,false,Rx,0,6,00,06,3E,FE,FF,FF,00,00,
10144837,00000523,false,Rx,0,6,02,0C,E8,FF,FF,FF,00,00,
10161287,00000527,false,Rx,0,6,06,00,A1,0C,01,00,00,00,
10387923,00000524,false,Rx,0,6,03,03,F4,FF,FF,FF,00,00,
10458253,00000525,false,Rx,0,6,04,01,1E,01,00,00,00,00,
10480408,00000528,false,Rx,0,6,07,01,21,1C,00,00,00,00,
10606901,00000522,false,Rx,0,6,01,0E,1D,C9,05,00,00,00,
10735818,00000526,false,Rx,0,6,05,06,A4,00,00,00,00,00,
10752869,00000521,false,Rx,0,6,00,07,3E,FE,FF,FF,00,00,
10792024,00000523,false,Rx,0,6,02,0D,E8,FF,FF,FF,00,00,
10880216,00000527,false,Rx,0,6,06,01,A2,0C,01,00,00,00,
11052931,00000524,false,Rx,0,6,03,04,E5,FF,FF,FF,00,00,
11141327,00000525,false,Rx,0,6,04,02,1E,01,00,00,00,00,
11217722,00000528,false,Rx,0,6,07,02,21,1C,00,00,00,00,
11235734,00000522,false,Rx,0,6,01,0F,13,C9,05,00,00,00,
11363311,00000521,false,Rx,0,6,00,08,3F,FE,FF,FF,00,00,
11436790,00000526,false,Rx,0,6,05,07,A4,00,00,00,00,00,
11438655,00000523,false,Rx,0,6,02,0E,F5,FF,FF,FF,00,00,
11599445,00000527,false,Rx,0,6,06,02,A2,0C,01,00,00,00,
11717909,00000524,false,Rx,0,6,03,05,F8,FF,FF,FF,00,00,
11824400,00000525,false,Rx,0,6,04,03,1E,01,00,00,00,00,
11864567,00000522,false,Rx,0,6,01,00,13,C9,05,00,00,00,
11955048,00000528,false,Rx,0,6,07,03,22,1C,00,00,00,00,
11974051,00000521,false,Rx,0,6,00,09,3D,FE,FF,FF,00,00,
12085572,00000523,false,Rx,0,6,02,0F,EE,FF,FF,FF,00,00,
12138124,00000526,false,Rx,0,6,05,08,9B,00,00,00,00,00,
12318676,00000527,false,Rx,0,6,06,03,A2,0C,01,00,00,00,
12382903,00000524,false,Rx,0,6,03,06,EB,FF,FF,FF,00,00,
12493387,00000522,false,Rx,0,6,01,01,1A,C9,05,00,00,00,
12507479,00000525,false,Rx,0,6,04,04,1E,01,00,00,00,00,
12584797,00000521,false,Rx,0,6,00,0A,43,FE,FF,FF,00,00,
12692684,00000528,false,Rx,0,6,07,04,22,1C,00,00,00,00,
12732469,00000523,false,Rx,0,6,02,00,EE,FF,FF,FF,00,00,
12839283,00000526,false,Rx,0,6,05,09,B4,00,00,00,00,00,
13037913,00000527,false,Rx,0,6,06,04,A3,0C,01,00,00,00,
13047895,00000524,false,Rx,0,6,03,07,ED,FF,FF,FF,00,00,
13122204,00000522,false,Rx,0,6,01,02,28,C9,05,00,00,00,
13190553,00000525,false,Rx,0,6,04,05,1E,01,00,00,00,00,
13195544,00000521,false,Rx,0,6,00,0B,3D,FE,FF,FF,00,00,
13379380,00000523,false,Rx,0,6,02,01,EE,FF,FF,FF,00,00,
13429685,00000528,false,Rx,0,6,07,05,22,1C,00,00,00,00,
13540395,00000526,false,Rx,0,6,05,0A,AF,00,00,00,00,00,
13712888,00000524,false,Rx,0,6,03,08,FD,FF,FF,FF,00,00,
13751052,00000522,false,Rx,0,6,01,03,12,C9,05,00,00,00,
13757149,00000527,false,Rx,0,6,06,05,A3,0C,01,00,00,00,
13806823,00000521,false,Rx,0,6,00,0C,3F,FE,FF,FF,00,00,
13873634,00000525,false,Rx,0,6,04,06,1E,01,00,00,00,00,
14026293,00000523,false,Rx,0,6,02,02,F7,FF,FF,FF,00,00,
14167275,00000528,false,Rx,0,6,07,06,22,1C,00,00,00,00,
14241398,00000526,false,Rx,0,6,05,0B,B3,00,00,00,00,00,
14377881,00000524,false,Rx,0,6,03,09,03,00,00,00,00,00,
14380190,00000522,false,Rx,0,6,01,04,25,C9,05,00,00,00,
14417039,00000521,false,Rx,0,6,00,0D,40,FE,FF,FF,00,00,
14476386,00000527,false,Rx,0,6,06,06,A3,0C,01,00,00,00,
14556691,00000525,false,Rx,0,6,04,07,1E,01,00,00,00,00,
14673197,00000523,false,Rx,0,6,02,03,F7,FF,FF,FF,00,00,
14904306,00000528,false,Rx,0,6,07,07,22,1C,00,00,00,00,
14942717,00000526,false,Rx,0,6,05,0C,B3,00,00,00,00,00,
15008679,00000522,false,Rx,0,6,01,05,1D,C9,05,00,00,00,
15027774,00000521,false,Rx,0,6,00,0E,3B,FE,FF,FF,00,00,
15043173,00000524,false,Rx,0,6,03,0A,FD,FF,FF,FF,00,00,
15195840,00000527,false,Rx,0,6,06,07,A4,0C,01,00,00,00,
15239759,00000525,false,Rx,0,6,04,08,1E,01,00,00,00,00,
15320097,00000523,false,Rx,0,6,02,04,F2,FF,FF,FF,00,00,
15637491,00000522,false,Rx,0,6,01,06,1E,C9,05,00,00,00,
15638522,00000521,false,Rx,0,6,00,0F,3E,FE,FF,FF,00,00,
15641600,00000528,false,Rx,0,6,07,08,22,1C,00,00,00,00,
15643682,00000526,false,Rx,0,6,05,0D,A2,00,00,00,00,00,
15707841,00000524,false,Rx,0,6,03,0B,EF,FF,FF,FF,00,00,
15915096,00000527,false,Rx,0,6,06,08,A4,0C,01,00,00,00,
15922816,00000525,false,Rx,0,6,04,09,1E,01,00,00,00,00,
15966988,00000523,false,Rx,0,6,02,05,EF,FF,FF,FF,00,00,
16124883,00000100,false,Rx,0,8,00,00,00,00,9A,01,C8,00,
16125135,00000101,false,Rx,0,8,00,FF,FE,00,00,00,00,00,
16125381,00000102,false,Rx,0,8,00,90,01,00,00,00,64,00,
16224881,00000100,false,Rx,0,8,00,00,00,00,9A,01,C8,00,
16225134,00000101,false,Rx,0,8,00,FF,FE,00,00,00,00,00,
16225380,00000102,false,Rx,0,8,00,90,01,00,00,00,64,00,
16249561,00000521,false,Rx,0,6,00,00,3D,FE,FF,FF,00,00,
16266314,00000522,false,Rx,0,6,01,07,1A,C9,05,00,00,00,
16324881,00000100,false,Rx,0,8,00,00,00,00,9A,01,C8,00,
16325127,00000101,false,Rx,0,8,00,FF,FE,00,00,00,00,00,
16325373,00000102,false,Rx,0,8,00,90,01,00,00,00,64,00,
16345013,00000526,false,Rx,0,6,05,0E,AF,00,00,00,00,00,
16372822,00000524,false,Rx,0,6,03,0C,E6,FF,FF,FF,00,00,
16378896,00000528,false,Rx,0,6,07,09,22,1C,00,00,00,00,
16424876,00000100,false,Rx,0,8,00,00,00,00,9A,01,C8,00,
16425124,00000101,false,Rx,0,8,00,FF,FE,00,00,00,00,00,
16425370,00000102,false,Rx,0,8,00,90,01,00,00,00,64,00,
16524875,00000100,false,Rx,0,8,00,00,00,00,9A,01,C8,00,
16525127,00000101,false,Rx,0,8,00,FF,FE,00,00,00,00,00,
16525373,00000102,false,Rx,0,8,00,90,01,00,00,00,64,00,
16605876,00000525,false,Rx,0,6,04,0A,1E,01,00,00,00,00,
16613887,00000523,false,Rx,0,6,02,06,EF,FF,FF,FF,00,00,
16624871,00000100,false,Rx,0,8,00,00,00,00,9A,01,C8,00,
16625123,00000101,false,Rx,0,8,00,FF,FE,00,00,00,00,00,
16625369,00000102,false,Rx,0,8,00,90,01,00,00,00,64,00,
16634038,00000527,false,Rx,0,6,06,09,A4,0C,01,00,00,00,
16724868,00000100,false,Rx,0,8,00,00,00,00,9A,01,C8,00,
16725120,00000101,false,Rx,0,8,00,FF,FE,00,00,00,00,00,
16725366,00000102,false,Rx,0,8,00,90,01,00,00,00,64,00,
16824866,00000100,false,Rx,0,8,00,00,00,00,9A,01,C8,00,
16825118,00000101,false,Rx,0,8,00,FF,FE,00,00,00,00,00,
16825367,00000102,false,Rx,0,8,00,90,01,00,00,00,64,00,
16859983,00000521,false,Rx,0,6,00,01,37,FE,FF,FF,00,00,
16895136,00000522,false,Rx,0,6,01,08,1F,C9,05,00,00,00,
16924863,00000100,false,Rx,0,8,00,00,00,00,9A,01,C8,00,
16925115,00000101,false,Rx,0,8,00,FF,FE,00,00,00,00,00,
16925360,00000102,false,Rx,0,8,00,90,01,00,00,00,64,00,
17024861,00000100,false,Rx,0,8,00,00,00,00,9A,01,C8,00,
17025114,00000101,false,Rx,0,8,00,FF,FE,00,00,00,00,00,
17025362,00000102,false,Rx,0,8,00,90,01,00,00,00,64,00,
17037792,00000524,false,Rx,0,6,03,0D,EC,FF,FF,FF,00,00,
17046158,00000526,false,Rx,0,6,05,0F,A2,00,00,00,00,00,
17116210,00000528,false,Rx,0,6,07,0A,22,1C,00,00,00,00,
17124859,00000100,false,Rx,0,8,00,00,00,00,9A,01,C8,00,
17125110,00000101,false,Rx,0,8,00,FF,FE,00,00,00,00,00,
17125356,00000102,false,Rx,0,8,00,90,01,00,00,00,64,00,
17224860,00000100,false,Rx,0,8,00,00,00,00,9A,01,C8,00,
17225112,00000101,false,Rx,0,8,00,FF,FE,00,00,00,00,00,
17225354,00000102,false,Rx,0,8,00,90,01,00,00,00,64,00,
17260792,00000523,false,Rx,0,6,02,07,ED,FF,FF,FF,00,00,
17288933,00000525,false,Rx,0,6,04,0B,1E,01,00,00,00,00,
17324859,00000100,false,Rx,0,8,00,00,00,00,9A,01,C8,00,
17325105,00000101,false,Rx,0,8,00,FF,FE,00,00,00,00,00,
17325350,00000102,false,Rx,0,8,00,90,01,00,00,00,64,00,
17353268,00000527,false,Rx,0,6,06,0A,A5,0C,01,00,00,00,
17424857,00000100,false,Rx,0,8,00,00,00,00,9A,01,C8,00,
17425109,00000101,false,Rx,0,8,00,FF,FE,00,00,00,00,00,
17425369,00000102,false,Rx,0,8,00,90,01,00,00,00,64,00,
17470718,00000521,false,Rx,0,6,00,02,3D,FE,FF,FF,00,00,
17523954,00000522,false,Rx,0,6,01,09,30,C9,05,00,00,00,
17524855,00000100,false,Rx,0,8,00,00,00,00,9A,01,C8,00,
17525101,00000101,false,Rx,0,8,00,FF,FE,00,00,00,00,00,
17525346,00000102,false,Rx,0,8,00,90,01,00,00,00,64,00,
17624850,00000100,false,Rx,0,8,00,00,00,00,9A,01,C8,00,
17625101,00000101,false,Rx,0,8,00,FF,FE,00,00,00,00,00,
17625347,00000102,false,Rx,0,8,00,90,01,00,00,00,64,00,
17702774,00000524,false,Rx,0,6,03,0E,EF,FF,FF,FF,00,00,
17724850,00000100,false,Rx,0,8,00,00,00,00,9A,01,C8,00,
17725102,00000101,false,Rx,0,8,00,FF,FE,00,00,00,00,00,
17725348,00000102,false,Rx,0,8,00,90,01,00,00,00,64,00,
17747271,00000526,false,Rx,0,6,05,00,97,00,00,00,00,00,
17824850,00000100,false,Rx,0,8,00,00,00,00,9A,01,C8,00,
17825096,00000101,false,Rx,0,8,00,FF,FE,00,00,00,00,00,
17825342,00000102,false,Rx,0,8,00,90,01,00,00,00,64,00,
17853520,00000528,false,Rx,0,6,07,0B,22,1C,00,00,00,00,
17907701,00000523,false,Rx,0,6,02,08,EE,FF,FF,FF,00,00,
17924843,00000100,false,Rx,0,8,00,00,00,00,9A,01,C8,00,
17925092,00000101,false,Rx,0,8,00,FF,FE,00,00,00,00,00,
17925337,00000102,false,Rx,0,8,00,90,01,00,00,00,64,00,
17972008,00000525,false,Rx,0,6,04,0C,1E,01,00,00,00,00,
18024843,00000100,false,Rx,0,8,00,00,00,00,9A,01,C8,00,
18025095,00000101,false,Rx,0,8,00,FF,FE,00,00,00,00,00,
18025342,00000102,false,Rx,0,8,00,90,01,00,00,00,64,00,
18072729,00000527,false,Rx,0,6,06,0B,A5,0C,01,00,00,00,
18081462,00000521,false,Rx,0,6,00,03,48,FE,FF,FF,00,00,
18124841,00000100,false,Rx,0,8,00,00,00,00,9A,01,C8,00,
18125090,00000101,false,Rx,0,8,00,FF,FE,00,00,00,00,00,
18125336,00000102,false,Rx,0,8,00,90,01,00,00,00,64,00,
18152786,00000522,false,Rx,0,6,01,0A,2E,C9,05,00,00,00,
18224843,00000100,false,Rx,0,8,00,00,00,00,9A,01,C8,00,
18225089,00000101,false,Rx,0,8,00,FF,FE,00,00,00,00,00,
18225335,00000102,false,Rx,0,8,00,90,01,00,00,01,64,00,
18324839,00000100,false,Rx,0,8,00,00,00,00,9A,01,C8,00,
18325084,00000101,false,Rx,0,8,00,FF,FE,00,00,00,00,00,
18325330,00000102,false,Rx,0,8,00,90,01,00,00,01,64,00,
18367785,00000524,false,Rx,0,6,03,0F,F0,FF,FF,FF,00,00,
18424842,00000100,false,Rx,0,8,00,00,00,00,9A,01,C8,00,
18425099,00000101,false,Rx,0,8,00,FF,FE,00,00,00,00,00,
18425327,00000102,false,Rx,0,8,00,90,01,00,00,01,64,00,
18448378,00000526,false,Rx,0,6,05,01,A7,00,00,00,00,00,
18524837,00000100,false,Rx,0,8,00,00,00,00,9A,01,C8,00,
18525083,00000101,false,Rx,0,8,00,FF,FE,00,00,00,00,00,
18525326,00000102,false,Rx,0,8,00,90,01,00,00,01,64,00,
18554611,00000523,false,Rx,0,6,02,09,EE,FF,FF,FF,00,00,
18590837,00000528,false,Rx,0,6,07,0C,22,1C,00,00,00,00,
18624839,00000100,false,Rx,0,8,00,00,00,00,9A,01,C8,00,
18625085,00000101,false,Rx,0,8,00,FF,FE,00,00,00,00,00,
18625324,00000102,false,Rx,0,8,00,90,01,00,00,01,64,00,
18655068,00000525,false,Rx,0,6,04,0D,1E,01,00,00,00,00,
18692220,00000521,false,Rx,0,6,00,04,3D,FE,FF,FF,00,00,
18724836,00000100,false,Rx,0,8,00,00,00,00,9A,01,C8,00,
18725082,00000101,false,Rx,0,8,00,FF,FE,00,00,00,00,00,
18725321,00000102,false,Rx,0,8,00,90,01,00,00,01,64,00,
18781619,00000522,false,Rx,0,6,01,0B,30,C9,05,00,00,00,
18791732,00000527,false,Rx,0,6,06,0C,A5,0C,01,00,00,00,
18824837,00000100,false,Rx,0,8,00,00,00,00,9A,01,C8,00,
18825076,00000101,false,Rx,0,8,00,FF,FE,00,00,00,00,00,
18825317,00000102,false,Rx,0,8,00,90,01,00,00,01,64,00,
18924824,00000100,false,Rx,0,8,00,00,00,00,9A,01,C8,00,
18925085,00000101,false,Rx,0,8,00,FF,FE,00,00,00,00,00,
18925321,00000102,false,Rx,0,8,00,90,01,00,00,01,64,00,
19024821,00000100,false,Rx,0,8,00,00,00,00,9A,01,C8,00,
19025082,00000101,false,Rx,0,8,00,FF,FE,00,00,00,00,00,
19025315,00000102,false,Rx,0,8,00,90,01,00,00,01,64,00,
19032771,00000524,false,Rx,0,6,03,00,ED,FF,FF,FF,00,00,
19124823,00000100,false,Rx,0,8,00,00,00,00,9A,01,C8,00,
19125077,00000101,false,Rx,0,8,00,FF,FE,00,00,00,00,00,
19125317,00000102,false,Rx,0,8,00,90,01,00,00,01,64,00,
19149603,00000526,false,Rx,0,6,05,02,A0,00,00,00,00,00,
19201834,00000523,false,Rx,0,6,02,0A,F2,FF,FF,FF,00,00,
19224822,00000100,false,Rx,0,8,00,00,00,00,9A,01,C8,00,
19225067,00000101,false,Rx,0,8,00,FF,FE,00,00,00,00,00,
19225313,00000102,false,Rx,0,8,00,90,01,00,00,01,64,00,
19302965,00000521,false,Rx,0,6,00,05,39,FE,FF,FF,00,00,
19324824,00000100,false,Rx,0,8,00,00,00,00,9A,01,C8,00,
19325063,00000101,false,Rx,0,8,00,FF,FE,00,00,00,00,00,
19325309,00000102,false,Rx,0,8,00,90,01,00,00,01,64,00,
19328155,00000528,false,Rx,0,6,07,0D,22,1C,00,00,00,00,
19338149,00000525,false,Rx,0,6,04,0E,1E,01,00,00,00,00,
19410842,00000522,false,Rx,0,6,01,0C,27,C9,05,00,00,00,
19424822,00000100,false,Rx,0,8,00,00,00,00,9A,01,C8,00,
19425062,00000101,false,Rx,0,8,00,FF,FE,00,00,00,00,00,
19425307,00000102,false,Rx,0,8,00,90,01,00,00,01,64,00,
19510976,00000527,false,Rx,0,6,06,0D,A6,0C,01,00,00,00,
19524819,00000100,false,Rx,0,8,00,00,00,00,9A,01,C8,00,
19525065,00000101,false,Rx,0,8,00,FF,FE,00,00,00,00,00,
19525304,00000102,false,Rx,0,8,00,90,01,00,00,01,64,00,
19624820,00000100,false,Rx,0,8,00,00,00,00,9A,01,C8,00,
19625059,00000101,false,Rx,0,8,00,FF,FE,00,00,00,00,00,
19625305,00000102,false,Rx,0,8,00,90,01,00,00,01,64,00,
19697759,00000524,false,Rx,0,6,03,01,E4,FF,FF,FF,00,00,
19724814,00000100,false,Rx,0,8,00,00,00,00,9A,01,C8,00,
19725060,00000101,false,Rx,0,8,00,FF,FE,00,00,00,00,00,
19725306,00000102,false,Rx,0,8,00,90,01,00,00,01,64,00,
19824811,00000100,false,Rx,0,8,00,00,00,00,9A,01,C8,00,
19825057,00000101,false,Rx,0,8,00,FF,FE,00,00,00,00,00,
19825303,00000102,false,Rx,0,8,00,90,01,00,00,01,64,00,
19848432,00000523,false,Rx,0,6,02,0B,ED,FF,FF,FF,00,00,
19850593,00000526,false,Rx,0,6,05,03,B2,00,00,00,00,00,
19914027,00000521,false,Rx,0,6,00,06,3B,FE,FF,FF,00,00,
19924813,00000100,false,Rx,0,8,00,00,00,00,9A,01,C8,00,
19925055,00000101,false,Rx,0,8,00,FF,FE,00,00,00,00,00,
19925295,00000102,false,Rx,0,8,00,90,01,00,00,01,64,00,
20021226,00000525,false,Rx,0,6,04,0F,1E,01,00,00,00,00,
20024802,00000100,false,Rx,0,8,00,00,00,00,9A,01,C8,00,
20025053,00000101,false,Rx,0,8,00,FF,FE,00,00,00,00,00,
20025299,00000102,false,Rx,0,8,00,90,01,00,00,01,64,00,
20039279,00000522,false,Rx,0,6,01,0D,2F,C9,05,00,00,00,
20065474,00000528,false,Rx,0,6,07,0E,22,1C,00,00,00,00,
20124803,00000100,false,Rx,0,8,00,00,00,00,9A,01,C8,00,
20125051,00000101,false,Rx,0,8,00,FF,FE,00,00,00,00,00,
20125297,00000102,false,Rx,0,8,00,90,01,00,00,01,64,00,
20224796,00000100,false,Rx,0,8,00,00,00,00,9A,01,C8,00,
20225049,00000101,false,Rx,0,8,00,FF,FE,00,00,00,00,00,
20225296,00000102,false,Rx,0,8,00,90,01,00,00,01,64,00,
20230438,00000527,false,Rx,0,6,06,0E,A6,0C,01,00,00,00,
20324797,00000100,false,Rx,0,8,00,00,00,00,9A,01,C8,00,
20325045,00000101,false,Rx,0,8,00,FF,FE,00,00,00,00,00,
20325291,00000102,false,Rx,0,8,00,90,01,00,00,01,64,00,
20362762,00000524,false,Rx,0,6,03,02,F4,FF,FF,FF,00,00,
20424792,00000100,false,Rx,0,8,00,00,00,00,9A,01,C8,00,
20425056,00000101,false,Rx,0,8,00,FF,FE,00,00,00,00,00,
20425291,00000102,false,Rx,0,8,00,90,01,00,00,01,64,00,
20495624,00000523,false,Rx,0,6,02,0C,ED,FF,FF,FF,00,00,
20524462,00000521,false,Rx,0,6,00,07,3F,FE,FF,FF,00,00,
20524789,00000100,false,Rx,0,8,00,00,00,00,9A,01,C8,00,
20525044,00000101,false,Rx,0,8,00,FF,FE,00,00,00,00,00,
20525285,00000102,false,Rx,0,8,00,90,01,00,00,01,64,00,
20551932,00000526,false,Rx,0,6,05,04,AA,00,00,00,00,00,
20624787,00000100,false,Rx,0,8,00,00,00,00,9A,01,C8,00,
20625041,00000101,false,Rx,0,8,00,FF,FE,00,00,00,00,00,
20625284,00000102,false,Rx,0,8,00,90,01,00,00,01,64,00,
20668113,00000522,false,Rx,0,6,01,0E,34,C9,05,00,00,00,
20704300,00000525,false,Rx,0,6,04,00,1E,01,00,00,00,00,
20724784,00000100,false,Rx,0,8,00,00,00,00,9A,01,C8,00,
20725037,00000101,false,Rx,0,8,00,FF,FE,00,00,00,00,00,
20725283,00000102,false,Rx,0,8,00,90,01,00,00,01,64,00,
20802789,00000528,false,Rx,0,6,07,0F,22,1C,00,00,00,00,
20824782,00000100,false,Rx,0,8,00,00,00,00,9A,01,C8,00,
20825036,00000101,false,Rx,0,8,00,FF,FE,00,00,00,00,00,
20825282,00000102,false,Rx,0,8,00,90,01,00,00,01,64,00,
20924784,00000100,false,Rx,0,8,00,00,00,00,9A,01,C8,00,
20925033,00000101,false,Rx,0,8,00,FF,FE,00,00,00,00,00,
20925275,00000102,false,Rx,0,8,00,90,01,00,00,01,64,00,
20949768,00000527,false,Rx,0,6,06,0F,A6,0C,01,00,00,00,
21024781,00000100,false,Rx,0,8,00,00,00,00,9A,01,C8,00,
21025029,00000101,false,Rx,0,8,00,FF,FE,00,00,00,00,00,
21025289,00000102,false,Rx,0,8,00,90,01,00,00,01,64,00,
21027735,00000524,false,Rx,0,6,03,03,EB,FF,FF,FF,00,00,
21124777,00000100,false,Rx,0,8,00,00,00,00,9A,01,C8,00,
21125030,00000101,false,Rx,0,8,00,FF,FE,00,00,00,00,00,
21125276,00000102,false,Rx,0,8,00,90,01,00,00,01,64,00,
21135198,00000521,false,Rx,0,6,00,08,42,FE,FF,FF,00,00,
21142252,00000523,false,Rx,0,6,02,0D,FC,FF,FF,FF,00,00,
21224774,00000100,false,Rx,0,8,00,00,00,00,9A,01,C8,00,
21225027,00000101,false,Rx,0,8,00,FF,FE,00,00,00,00,00,
21225273,00000102,false,Rx,0,8,00,90,01,00,00,01,64,00,
21253069,00000526,false,Rx,0,6,05,05,B5,00,00,00,00,00,
21296933,00000522,false,Rx,0,6,01,0F,3C,C9,05,00,00,00,
21324774,00000100,false,Rx,0,8,00,00,00,00,9A,01,C8,00,
21325022,00000101,false,Rx,0,8,00,FF,FE,00,00,00,00,00,
21325267,00000102,false,Rx,0,8,00,90,01,00,00,01,64,00,
21387373,00000525,false,Rx,0,6,04,01,1E,01,00,00,00,00,
21424775,00000100,false,Rx,0,8,00,00,00,00,9A,01,C8,00,
21425023,00000101,false,Rx,0,8,00,FF,FE,00,00,00,00,00,
21425270,00000102,false,Rx,0,8,00,90,01,00,00,01,64,00,
21524768,00000100,false,Rx,0,8,00,00,00,00,9A,01,C8,00,
21525021,00000101,false,Rx,0,8,00,FF,FE,00,00,00,00,00,
21525268,00000102,false,Rx,0,8,00,90,01,00,00,01,64,00,
21540106,00000528,false,Rx,0,6,07,00,22,1C,00,00,00,00,
21624766,00000100,false,Rx,0,8,00,00,00,00,9A,01,C8,00,
21625020,00000101,false,Rx,0,8,00,FF,FE,00,00,00,00,00,
21625260,00000102,false,Rx,0,8,00,90,01,00,00,01,64,00,
21668675,00000527,false,Rx,0,6,06,00,A7,0C,01,00,00,00,
21692736,00000524,false,Rx,0,6,03,04,EE,FF,FF,FF,00,00,
21724767,00000100,false,Rx,0,8,00,00,00,00,9A,01,C8,00,
21725017,00000101,false,Rx,0,8,00,FF,FE,00,00,00,00,00,
21725257,00000102,false,Rx,0,8,00,90,01,00,00,01,64,00,
21745953,00000521,false,Rx,0,6,00,09,3C,FE,FF,FF,00,00,
21789157,00000523,false,Rx,0,6,02,0E,F7,FF,FF,FF,00,00,
21824761,00000100,false,Rx,0,8,00,00,00,00,9A,01,C8,00,
21825017,00000101,false,Rx,0,8,00,FF,FE,00,00,00,00,00,
21825257,00000102,false,Rx,0,8,00,90,01,00,00,01,64,00,
21924760,00000100,false,Rx,0,8,00,00,00,00,9A,01,C8,00,
21925014,00000101,false,Rx,0,8,00,FF,FE,00,00,00,00,00,
21925260,00000102,false,Rx,0,8,00,90,01,00,00,01,64,00,
21925777,00000522,false,Rx,0,6,01,00,31,C9,05,00,00,00,
21954198,00000526,false,Rx,0,6,05,06,A4,00,00,00,00,00,
22024759,00000100,false,Rx,0,8,00,00,00,00,9A,01,C8,00,
22025013,00000101,false,Rx,0,8,00,FF,FE,00,00,00,00,00,
22025252,00000102,false,Rx,0,8,00,90,01,00,00,01,64,00,
22070444,00000525,false,Rx,0,6,04,02,1E,01,00,00,00,00,
22124760,00000100,false,Rx,0,8,00,00,00,00,9A,01,C8,00,
22125007,00000101,false,Rx,0,8,00,FF,FE,00,00,00,00,00,
22125249,00000102,false,Rx,0,8,00,90,01,00,00,01,64,00,
22224760,00000100,false,Rx,0,8,00,00,00,00,9A,01,C8,00,
22225008,00000101,false,Rx,0,8,00,FF,FE,00,00,00,00,00,
22225250,00000102,false,Rx,0,8,00,90,01,00,00,01,64,00,
22277436,00000528,false,Rx,0,6,07,01,22,1C,00,00,00,00,
22324753,00000100,false,Rx,0,8,00,00,00,00,9A,01,C8,00,
22325001,00000101,false,Rx,0,8,00,FF,FE,00,00,00,00,00,
22325246,00000102,false,Rx,0,8,00,90,01,00,00,01,64,00,
22356976,00000521,false,Rx,0,6,00,0A,3E,FE,FF,FF,00,00,
22357752,00000524,false,Rx,0,6,03,05,FD,FF,FF,FF,00,00,
22388147,00000527,false,Rx,0,6,06,01,A7,0C,01,00,00,00,
22424754,00000100,false,Rx,0,8,00,00,00,00,9A,01,C8,00,
22425001,00000101,false,Rx,0,8,00,FF,FE,00,00,00,00,00,
22425245,00000102,false,Rx,0,8,00,90,01,00,00,01,64,00,
22436075,00000523,false,Rx,0,6,02,0F,F7,FF,FF,FF,00,00,
22524747,00000100,false,Rx,0,8,00,00,00,00,9A,01,C8,00,
22525001,00000101,false,Rx,0,8,00,FF,FE,00,00,00,00,00,
22525244,00000102,false,Rx,0,8,00,90,01,00,00,01,64,00,
22554596,00000522,false,Rx,0,6,01,01,39,C9,05,00,00,00,
22624747,00000100,false,Rx,0,8,00,00,00,00,9A,01,C8,00,
22625000,00000101,false,Rx,0,8,00,FF,FE,00,00,00,00,00,
22625243,00000102,false,Rx,0,8,00,90,01,00,00,01,64,00,
22655216,00000526,false,Rx,0,6,05,07,AD,00,00,00,00,00,
22724744,00000100,false,Rx,0,8,00,00,00,00,9A,01,C8,00,
22724998,00000101,false,Rx,0,8,00,FF,FE,00,00,00,00,00,
22725238,00000102,false,Rx,0,8,00,90,01,00,00,01,64,00,
22753525,00000525,false,Rx,0,6,04,03,1E,01,00,00,00,00,
22824741,00000100,false,Rx,0,8,00,00,00,00,9A,01,C8,00,
22824995,00000101,false,Rx,0,8,00,FF,FE,00,00,00,00,00,
22825241,00000102,false,Rx,0,8,00,90,01,00,00,01,64,00,
22924740,00000100,false,Rx,0,8,00,00,00,00,9A,01,C8,00,
22924994,00000101,false,Rx,0,8,00,FF,FE,00,00,00,00,00,
22925234,00000102,false,Rx,0,8,00,90,01,00,00,01,64,00,
22967988,00000521,false,Rx,0,6,00,0B,38,FE,FF,FF,00,00,
23014752,00000528,false,Rx,0,6,07,02,22,1C,00,00,00,00,
23022733,00000524,false,Rx,0,6,03,06,FD,FF,FF,FF,00,00,
23024741,00000100,false,Rx,0,8,00,00,00,00,9A,01,C8,00,
23024989,00000101,false,Rx,0,8,00,FF,FE,00,00,00,00,00,
23025235,00000102,false,Rx,0,8,00,90,01,00,00,01,64,00,
23082993,00000523,false,Rx,0,6,02,00,ED,FF,FF,FF,00,00,
23107176,00000527,false,Rx,0,6,06,02,A7,0C,01,00,00,00,
23124739,00000100,false,Rx,0,8,00,00,00,00,9A,01,C8,00,
23124986,00000101,false,Rx,0,8,00,FF,FE,00,00,00,00,00,
23125231,00000102,false,Rx,0,8,00,90,01,00,00,01,64,00,
23183443,00000522,false,Rx,0,6,01,02,33,C9,05,00,00,00,
23224738,00000100,false,Rx,0,8,00,00,00,00,9A,01,C8,00,
23224986,00000101,false,Rx,0,8,00,FF,FE,00,00,00,00,00,
23225232,00000102,false,Rx,0,8,00,90,01,00,00,01,64,00,
23324732,00000100,false,Rx,0,8,00,00,00,00,9A,01,C8,00,
23324985,00000101,false,Rx,0,8,00,FF,FE,00,00,00,00,00,
23325231,00000102,false,Rx,0,8,00,90,01,00,00,01,64,00,
23356540,00000526,false,Rx,0,6,05,08,A9,00,00,00,00,00,
23424732,00000100,false,Rx,0,8,00,00,00,00,9A,01,C8,00,
23424980,00000101,false,Rx,0,8,00,FF,FE,00,00,00,00,00,
23425225,00000102,false,Rx,0,8,00,90,01,00,00,01,64,00,
23436615,00000525,false,Rx,0,6,04,04,1E,01,00,00,00,00,
23524728,00000100,false,Rx,0,8,00,00,00,00,9A,01,C8,00,
23524982,00000101,false,Rx,0,8,00,FF,FE,00,00,00,00,00,
23525221,00000102,false,Rx,0,8,00,90,01,00,00,01,64,00,
23578228,00000521,false,Rx,0,6,00,0C,3C,FE,FF,FF,00,00,
23624725,00000100,false,Rx,0,8,00,00,00,00,9A,01,C8,00,
23624975,00000101,false,Rx,0,8,00,FF,FE,00,00,00,00,00,
23625221,00000102,false,Rx,0,8,00,90,01,00,00,01,64,00,
23687752,00000524,false,Rx,0,6,03,07,FC,FF,FF,FF,00,00,
23724725,00000100,false,Rx,0,8,00,00,00,00,9A,01,C8,00,
23724974,00000101,false,Rx,0,8,00,FF,FE,00,00,00,00,00,
23725220,00000102,false,Rx,0,8,00,90,01,00,00,01,64,00,
23729936,00000523,false,Rx,0,6,02,01,F1,FF,FF,FF,00,00,
23752268,00000528,false,Rx,0,6,07,03,22,1C,00,00,00,00,
23812333,00000522,false,Rx,0,6,01,03,39,C9,05,00,00,00,
23824720,00000100,false,Rx,0,8,00,00,00,00,9A,01,C8,00,
23824970,00000101,false,Rx,0,8,00,FF,FE,00,00,00,00,00,
23825217,00000102,false,Rx,0,8,00,90,01,00,00,01,64,00,
23826432,00000527,false,Rx,0,6,06,03,A8,0C,01,00,00,00,
23924720,00000100,false,Rx,0,8,00,00,00,00,9A,01,C8,00,
23924968,00000101,false,Rx,0,8,00,FF,FE,00,00,00,00,00,
23925217,00000102,false,Rx,0,8,00,90,01,00,00,01,64,00,
24024716,00000100,false,Rx,0,8,00,00,00,00,9A,01,C8,00,
24024971,00000101,false,Rx,0,8,00,FF,FE,00,00,00,00,00,
24025213,00000102,false,Rx,0,8,00,90,01,00,00,01,64,00,
24057548,00000526,false,Rx,0,6,05,09,AA,00,00,00,00,00,
24119703,00000525,false,Rx,0,6,04,05,1E,01,00,00,00,00,
24124713,00000100,false,Rx,0,8,00,00,00,00,9A,01,C8,00,
24124967,00000101,false,Rx,0,8,00,FF,FE,00,00,00,00,00,
24125207,00000102,false,Rx,0,8,00,90,01,00,00,01,64,00,
24188986,00000521,false,Rx,0,6,00,0D,3C,FE,FF,FF,00,00,
24224712,00000100,false,Rx,0,8,00,00,00,00,9A,01,C8,00,
24224965,00000101,false,Rx,0,8,00,FF,FE,00,00,00,00,00,
24225210,00000102,false,Rx,0,8,00,90,01,00,00,01,64,00,
24324711,00000100,false,Rx,0,8,00,00,00,00,9A,01,C8,00,
24324964,00000101,false,Rx,0,8,00,FF,FE,00,00,00,00,00,
24325207,00000102,false,Rx,0,8,00,90,01,00,00,01,64,00,
24353028,00000524,false,Rx,0,6,03,08,ED,FF,FF,FF,00,00,
24376861,00000523,false,Rx,0,6,02,02,F1,FF,FF,FF,00,00,
24424710,00000100,false,Rx,0,8,00,00,00,00,9A,01,C8,00,
24424958,00000101,false,Rx,0,8,00,FF,FE,00,00,00,00,00,
24425202,00000102,false,Rx,0,8,00,90,01,00,00,01,64,00,
24441138,00000522,false,Rx,0,6,01,04,36,C9,05,00,00,00,
24489427,00000528,false,Rx,0,6,07,04,22,1C,00,00,00,00,
24524709,00000100,false,Rx,0,8,00,00,00,00,9A,01,C8,00,
24524957,00000101,false,Rx,0,8,00,FF,FE,00,00,00,00,00,
24525213,00000102,false,Rx,0,8,00,90,01,00,00,01,64,00,
24545673,00000527,false,Rx,0,6,06,04,A8,0C,01,00,00,00,
24624704,00000100,false,Rx,0,8,00,00,00,00,9A,01,C8,00,
24624958,00000101,false,Rx,0,8,00,FF,FE,00,00,00,00,00,
24625197,00000102,false,Rx,0,8,00,90,01,00,00,01,64,00,
24724700,00000100,false,Rx,0,8,00,00,00,00,9A,01,C8,00,
24724954,00000101,false,Rx,0,8,00,FF,FE,00,00,00,00,00,
24725200,00000102,false,Rx,0,8,00,90,01,00,00,01,64,00,
24758903,00000526,false,Rx,0,6,05,0A,AA,00,00,00,00,00,
24799749,00000521,false,Rx,0,6,00,0E,40,FE,FF,FF,00,00,
24802794,00000525,false,Rx,0,6,04,06,1E,01,00,00,00,00,
24824703,00000100,false,Rx,0,8,00,00,00,00,9A,01,C8,00,
24824949,00000101,false,Rx,0,8,00,FF,FE,00,00,00,00,00,
24825195,00000102,false,Rx,0,8,00,90,01,00,00,01,64,00,
24924701,00000100,false,Rx,0,8,00,00,00,00,9A,01,C8,00,
24924948,00000101,false,Rx,0,8,00,FF,FE,00,00,00,00,00,
24925194,00000102,false,Rx,0,8,00,90,01,00,00,01,64,00,
25017790,00000524,false,Rx,0,6,03,09,FB,FF,FF,FF,00,00,
25023780,00000523,false,Rx,0,6,02,03,F5,FF,FF,FF,00,00,
25024700,00000100,false,Rx,0,8,00,00,00,00,9A,01,C8,00,
25024947,00000101,false,Rx,0,8,00,FF,FE,00,00,00,00,00,
25025193,00000102,false,Rx,0,8,00,90,01,00,00,01,64,00,
25069980,00000522,false,Rx,0,6,01,05,3D,C9,05,00,00,00,
25124696,00000100,false,Rx,0,8,00,00,00,00,9A,01,C8,00,
25124944,00000101,false,Rx,0,8,00,FF,FE,00,00,00,00,00,
25125189,00000102,false,Rx,0,8,00,90,01,00,00,01,64,00,
25224695,00000100,false,Rx,0,8,00,00,00,00,9A,01,C8,00,
25224943,00000101,false,Rx,0,8,00,FF,FE,00,00,00,00,00,
25225189,00000102,false,Rx,0,8,00,90,01,00,00,01,64,00,
25226787,00000528,false,Rx,0,6,07,05,22,1C,00,00,00,00,
25264945,00000527,false,Rx,0,6,06,05,A8,0C,01,00,00,00,
25324694,00000100,false,Rx,0,8,00,00,00,00,9A,01,C8,00,
25324941,00000101,false,Rx,0,8,00,FF,FE,00,00,00,00,00,
25325183,00000102,false,Rx,0,8,00,90,01,00,00,01,64,00,
25410846,00000521,false,Rx,0,6,00,0F,36,FE,FF,FF,00,00,
25424689,00000100,false,Rx,0,8,00,00,00,00,9A,01,C8,00,
25424936,00000101,false,Rx,0,8,00,FF,FE,00,00,00,00,00,
25425181,00000102,false,Rx,0,8,00,90,01,00,00,01,64,00,
25460105,00000526,false,Rx,0,6,05,0B,AE,00,00,00,00,00,
25485902,00000525,false,Rx,0,6,04,07,1E,01,00,00,00,00,
25524685,00000100,false,Rx,0,8,00,00,00,00,9A,01,C8,00,
25524939,00000101,false,Rx,0,8,00,FF,FE,00,00,00,00,00,
25525177,00000102,false,Rx,0,8,00,90,01,00,00,01,64,00,
25624683,00000100,false,Rx,0,8,00,00,00,00,9A,01,C8,00,
25624937,00000101,false,Rx,0,8,00,FF,FE,00,00,00,00,00,
25625180,00000102,false,Rx,0,8,00,90,01,00,00,01,64,00,
25670718,00000523,false,Rx,0,6,02,04,F1,FF,FF,FF,00,00,
25682787,00000524,false,Rx,0,6,03,0A,00,00,00,00,00,00,
25698839,00000522,false,Rx,0,6,01,06,3B,C9,05,00,00,00,
25724682,00000100,false,Rx,0,8,00,00,00,00,9A,01,C8,00,
25724930,00000101,false,Rx,0,8,00,FF,FE,00,00,00,00,00,
25725178,00000102,false,Rx,0,8,00,90,01,00,00,01,64,00,
25824679,00000100,false,Rx,0,8,00,00,00,00,9A,01,C8,00,
25824933,00000101,false,Rx,0,8,00,FF,FE,00,00,00,00,00,
25825176,00000102,false,Rx,0,8,00,90,01,00,00,01,64,00,
25924679,00000100,false,Rx,0,8,00,00,00,00,9A,01,C8,00,
25924926,00000101,false,Rx,0,8,00,FF,FE,00,00,00,00,00,
25925173,00000102,false,Rx,0,8,00,90,01,00,00,01,64,00,
25964124,00000528,false,Rx,0,6,07,06,22,1C,00,00,00,00,
25984197,00000527,false,Rx,0,6,06,06,A8,0C,01,00,00,00,
26021303,00000521,false,Rx,0,6,00,00,42,FE,FF,FF,00,00,
26024676,00000100,false,Rx,0,8,00,00,00,00,9A,01,C8,00,
26024929,00000101,false,Rx,0,8,00,FF,FE,00,00,00,00,00,
26025168,00000102,false,Rx,0,8,00,90,01,00,00,01,64,00,
26124674,00000100,false,Rx,0,8,00,00,00,00,9A,01,C8,00,
26124927,00000101,false,Rx,0,8,00,FF,FE,00,00,00,00,00,
26125167,00000102,false,Rx,0,8,00,90,01,00,00,01,64,00,
26161291,00000526,false,Rx,0,6,05,0C,B3,00,00,00,00,00,
26169002,00000525,false,Rx,0,6,04,08,1E,01,00,00,00,00,
26224669,00000100,false,Rx,0,8,00,00,00,00,9A,01,C8,00,
26224923,00000101,false,Rx,0,8,00,FF,FE,00,00,00,00,00,
26225168,00000102,false,Rx,0,8,00,90,01,00,00,01,64,00,
26317656,00000523,false,Rx,0,6,02,05,F1,FF,FF,FF,00,00,
26324674,00000100,false,Rx,0,8,00,00,00,00,9A,01,C8,00,
26324921,00000101,false,Rx,0,8,00,FF,FE,00,00,00,00,00,
26325167,00000102,false,Rx,0,8,00,90,01,00,00,01,64,00,
26327692,00000522,false,Rx,0,6,01,07,39,C9,05,00,00,00,
26347793,00000524,false,Rx,0,6,03,0B,F7,FF,FF,FF,00,00,
26424666,00000100,false,Rx,0,8,00,00,00,00,9A,01,C8,00,
26424920,00000101,false,Rx,0,8,00,FF,FE,00,00,00,00,00,
26425159,00000102,false,Rx,0,8,00,90,01,00,00,01,64,00,
26524667,00000100,false,Rx,0,8,00,00,00,00,9A,01,C8,00,
26524914,00000101,false,Rx,0,8,00,FF,FE,00,00,00,00,00,
26525160,00000102,false,Rx,0,8,00,90,01,00,00,01,64,00,
26624667,00000100,false,Rx,0,8,00,00,00,00,9A,01,C8,00,
26624915,00000101,false,Rx,0,8,00,FF,FE,00,00,00,00,00,
26625161,00000102,false,Rx,0,8,00,90,01,00,00,01,64,00,
26632081,00000521,false,Rx,0,6,00,01,3A,FE,FF,FF,00,00,
26701469,00000528,false,Rx,0,6,07,07,22,1C,00,00,00,00,
26703760,00000527,false,Rx,0,6,06,07,A9,0C,01,00,00,00,
26724661,00000100,false,Rx,0,8,00,00,00,00,9A,01,C8,00,
26724914,00000101,false,Rx,0,8,00,FF,FE,00,00,00,00,00,
26725154,00000102,false,Rx,0,8,00,90,01,00,00,01,64,00,
26824661,00000100,false,Rx,0,8,00,00,00,00,9A,01,C8,00,
26824908,00000101,false,Rx,0,8,00,FF,FE,00,00,00,00,00,
26825155,00000102,false,Rx,0,8,00,90,01,00,00,01,64,00,
26852103,00000525,false,Rx,0,6,04,09,1E,01,00,00,00,00,
26862256,00000526,false,Rx,0,6,05,0D,A7,00,00,00,00,00,
26924660,00000100,false,Rx,0,8,00,00,00,00,9A,01,C8,00,
26924908,00000101,false,Rx,0,8,00,FF,FE,00,00,00,00,00,
26925154,00000102,false,Rx,0,8,00,90,01,00,00,01,64,00,
26956537,00000522,false,Rx,0,6,01,08,3F,C9,05,00,00,00,
26964587,00000523,false,Rx,0,6,02,06,F3,FF,FF,FF,00,00,
27012822,00000524,false,Rx,0,6,03,0C,FD,FF,FF,FF,00,00,
27024657,00000100,false,Rx,0,8,00,00,00,00,9A,01,C8,00,
27024904,00000101,false,Rx,0,8,00,FF,FE,00,00,00,00,00,
27025149,00000102,false,Rx,0,8,00,90,01,00,00,01,64,00,
27124652,00000100,false,Rx,0,8,00,00,00,00,9A,01,C8,00,
27124906,00000101,false,Rx,0,8,00,FF,FE,00,00,00,00,00,
27125150,00000102,false,Rx,0,8,00,90,01,00,00,01,64,00,
27224649,00000100,false,Rx,0,8,00,00,00,00,9A,01,C8,00,
27224903,00000101,false,Rx,0,8,00,FF,FE,00,00,00,00,00,
27225145,00000102,false,Rx,0,8,00,90,01,00,00,01,64,00,
27242839,00000521,false,Rx,0,6,00,02,35,FE,FF,FF,00,00,
27282970,00000108,false,Rx,0,8,01,F4,01,5A,9A,01,00,00,
27283210,00000109,false,Rx,0,8,01,06,00,05,00,20,00,00,
27324651,00000100,false,Rx,0,8,00,00,00,00,9A,01,C8,00,
27324898,00000101,false,Rx,0,8,00,FF,FE,00,00,00,00,00,
27325146,00000102,false,Rx,0,8,01,90,01,00,00,01,64,00,
27382970,00000108,false,Rx,0,8,01,F4,01,5A,9A,01,00,00,
27383209,00000109,false,Rx,0,8,01,06,00,05,00,20,00,00,
27422730,00000527,false,Rx,0,6,06,08,A9,0C,01,00,00,00,
27424651,00000100,false,Rx,0,8,00,00,00,00,9A,01,C8,00,
27424898,00000101,false,Rx,0,8,00,FF,FE,00,00,00,00,00,
27425142,00000102,false,Rx,0,8,01,90,01,00,00,01,64,00,
27438812,00000528,false,Rx,0,6,07,08,22,1C,00,00,00,00,
27482971,00000108,false,Rx,0,8,01,F4,01,5A,9A,01,00,00,
27483217,00000109,false,Rx,0,8,01,06,00,05,00,20,00,00,
27524644,00000100,false,Rx,0,8,00,00,00,00,9A,01,C8,00,
27524898,00000101,false,Rx,0,8,00,FF,FE,00,00,00,00,00,
27525138,00000102,false,Rx,0,8,01,90,01,00,00,01,64,00,
27535184,00000525,false,Rx,0,6,04,0A,1E,01,00,00,00,00,
27563622,00000526,false,Rx,0,6,05,0E,BC,00,00,00,00,00,
27582973,00000108,false,Rx,0,8,01,F4,01,5A,9A,01,00,00,
27583213,00000109,false,Rx,0,8,01,06,00,05,00,20,00,00,
27585393,00000522,false,Rx,0,6,01,09,51,C9,05,00,00,00,
27611526,00000523,false,Rx,0,6,02,07,EC,FF,FF,FF,00,00,
27624644,00000100,false,Rx,0,8,00,00,00,00,9A,01,C8,00,
27624891,00000101,false,Rx,0,8,00,FF,FE,00,00,00,00,00,
27625137,00000102,false,Rx,0,8,01,90,01,00,00,01,64,00,
27677821,00000524,false,Rx,0,6,03,0D,FC,FF,FF,FF,00,00,
27682980,00000108,false,Rx,0,8,01,F4,01,5A,9A,01,00,00,
27683214,00000109,false,Rx,0,8,01,06,00,05,00,20,00,00,
27724640,00000100,false,Rx,0,8,00,00,00,00,9A,01,C8,00,
27724894,00000101,false,Rx,0,8,00,FF,FE,00,00,00,00,00,
27725134,00000102,false,Rx,0,8,01,90,01,00,00,01,64,00,
27782970,00000108,false,Rx,0,8,01,F4,01,5A,9A,01,00,00,
27783215,00000109,false,Rx,0,8,01,06,00,05,00,20,FF,FE,
27824638,00000100,false,Rx,0,8,00,00,00,00,9A,01,C8,00,
27824892,00000101,false,Rx,0,8,00,FF,FE,00,00,00,00,00,
27825131,00000102,false,Rx,0,8,01,90,01,00,00,01,64,00,
27853600,00000521,false,Rx,0,6,00,03,3B,FE,FF,FF,00,00,
27882976,00000108,false,Rx,0,8,01,F4,01,5A,9A,01,00,00,
27883219,00000109,false,Rx,0,8,01,06,00,05,00,20,FF,FE,
27924642,00000100,false,Rx,0,8,00,00,00,00,9A,01,C8,00,
27924890,00000101,false,Rx,0,8,00,FF,FE,00,00,00,00,00,
27925129,00000102,false,Rx,0,8,01,90,01,00,00,01,64,00,
27982980,00000108,false,Rx,0,8,01,F4,01,5A,9A,01,00,00,
27983219,00000109,false,Rx,0,8,01,06,00,05,00,20,FF,FE,
28024638,00000100,false,Rx,0,8,00,00,00,00,9A,01,C8,00,
28024886,00000101,false,Rx,0,8,00,FF,FE,00,00,00,00,00,
28025132,00000102,false,Rx,0,8,01,90,01,00,00,01,64,00,
28082976,00000108,false,Rx,0,8,01,F4,01,5A,9A,01,00,00,
28083222,00000109,false,Rx,0,8,01,06,00,05,00,20,FF,FE,
28124634,00000100,false,Rx,0,8,00,00,00,00,9A,01,C8,00,
28124881,00000101,false,Rx,0,8,00,FF,FE,00,00,00,00,00,
28125127,00000102,false,Rx,0,8,01,90,01,00,00,01,64,00,
28141979,00000527,false,Rx,0,6,06,09,A9,0C,01,00,00,00,
28176137,00000528,false,Rx,0,6,07,09,22,1C,00,00,00,00,
28182982,00000108,false,Rx,0,8,01,F4,01,5A,9A,01,00,00,
28183227,00000109,false,Rx,0,8,01,06,00,05,00,20,FF,FE,
28214237,00000522,false,Rx,0,6,01,0A,4F,C9,05,00,00,00,
28218290,00000525,false,Rx,0,6,04,0B,1E,01,00,00,00,00,
28224635,00000100,false,Rx,0,8,00,00,00,00,9A,01,C8,00,
28224883,00000101,false,Rx,0,8,00,FF,FE,00,00,00,00,00,
28225122,00000102,false,Rx,0,8,01,90,01,00,00,01,64,00,
28258451,00000523,false,Rx,0,6,02,08,EC,FF,FF,FF,00,00,
28264621,00000526,false,Rx,0,6,05,0F,B0,00,00,00,00,00,
28282983,00000108,false,Rx,0,8,01,F4,01,5A,9A,01,00,00,
28283219,00000109,false,Rx,0,8,01,06,00,05,00,24,FF,FE,
28324635,00000100,false,Rx,0,8,00,00,00,00,9A,01,C8,00,
28324882,00000101,false,Rx,0,8,00,FF,FE,00,00,00,00,00,
28325122,00000102,false,Rx,0,8,01,90,01,00,00,01,64,00,
28342839,00000524,false,Rx,0,6,03,0E,EF,FF,FF,FF,00,00,
28382983,00000108,false,Rx,0,8,01,F4,01,5A,9A,01,00,00,
28383229,00000109,false,Rx,0,8,01,0E,00,05,00,24,FF,FE,
28424633,00000100,false,Rx,0,8,00,00,00,00,9A,01,C8,00,
28424874,00000101,false,Rx,0,8,00,FF,FE,00,00,00,00,00,
28425120,00000102,false,Rx,0,8,01,90,01,00,00,01,64,00,
28464358,00000521,false,Rx,0,6,00,04,3C,FE,FF,FF,00,00,
28482982,00000108,false,Rx,0,8,01,F4,01,5A,9A,01,00,00,
28483228,00000109,false,Rx,0,8,01,14,00,05,00,24,FF,FE,
28524621,00000100,false,Rx,0,8,00,00,00,00,9A,01,C8,00,
28524875,00000101,false,Rx,0,8,00,FF,FE,00,00,00,00,00,
28525114,00000102,false,Rx,0,8,01,90,01,00,00,01,64,00,
28582983,00000108,false,Rx,0,8,01,F4,01,5A,9A,01,00,00,
28583229,00000109,false,Rx,0,8,01,24,00,05,00,24,FF,FE,
28624622,00000100,false,Rx,0,8,00,00,00,00,9A,01,C8,00,
28624869,00000101,false,Rx,0,8,00,FF,FE,00,00,00,00,00,
28625114,00000102,false,Rx,0,8,01,90,01,00,00,01,64,00,
28682987,00000108,false,Rx,0,8,01,F4,01,5A,9A,01,00,00,
28683226,00000109,false,Rx,0,8,01,2F,00,05,00,24,FF,FE,
28724620,00000100,false,Rx,0,8,00,00,00,00,9A,01,C8,00,
28724867,00000101,false,Rx,0,8,00,FF,FE,00,00,00,00,00,
28725113,00000102,false,Rx,0,8,01,90,01,00,00,01,64,00,
28782989,00000108,false,Rx,0,8,01,F4,01,5A,9A,01,00,00,
28783229,00000109,false,Rx,0,8,01,31,00,05,00,24,FF,FE,
28824619,00000100,false,Rx,0,8,00,00,00,00,9A,01,C8,00,
28824866,00000101,false,Rx,0,8,00,FF,FE,00,00,00,00,00,
28825112,00000102,false,Rx,0,8,01,90,01,00,00,01,64,00,
28843183,00000522,false,Rx,0,6,01,0B,43,C9,05,00,00,00,
28861233,00000527,false,Rx,0,6,06,0A,AA,0C,01,00,00,00,
28882989,00000108,false,Rx,0,8,01,F4,01,5A,9A,01,00,00,
28883228,00000109,false,Rx,0,8,01,31,00,05,00,24,FF,FE,
28901371,00000525,false,Rx,0,6,04,0C,1E,01,00,00,00,00,
28905693,00000523,false,Rx,0,6,02,09,E5,FF,FF,FF,00,00,
28913477,00000528,false,Rx,0,6,07,0A,22,1C,00,00,00,00,
28924619,00000100,false,Rx,0,8,00,00,00,00,9A,01,C8,00,
28924866,00000101,false,Rx,0,8,00,FF,FE,00,00,00,00,00,
28925112,00000102,false,Rx,0,8,01,90,01,00,00,01,64,00,
28966119,00000526,false,Rx,0,6,05,00,AC,00,00,00,00,00,
28982989,00000108,false,Rx,0,8,01,F4,01,5A,9A,01,00,00,
28983235,00000109,false,Rx,0,8,01,31,00,05,00,24,FF,FE,
29007840,00000524,false,Rx,0,6,03,0F,FB,FF,FF,FF,00,00,
29024612,00000100,false,Rx,0,8,00,00,00,00,9A,01,C8,00,
29024866,00000101,false,Rx,0,8,00,FF,FE,00,00,00,00,00,
29025105,00000102,false,Rx,0,8,01,90,01,00,00,01,64,00,
29075435,00000521,false,Rx,0,6,00,05,3D,FE,FF,FF,00,00,
29082988,00000108,false,Rx,0,8,01,F4,01,5A,9A,01,00,00,
29083234,00000109,false,Rx,0,8,01,31,00,05,00,24,FF,FE,
29124610,00000100,false,Rx,0,8,00,00,00,00,9A,01,C8,00,
29124858,00000101,false,Rx,0,8,00,FF,FE,00,00,00,00,00,
29125103,00000102,false,Rx,0,8,01,90,01,00,00,01,64,00,
29182993,00000108,false,Rx,0,8,01,F4,01,5A,9A,01,00,00,
29183232,00000109,false,Rx,0,8,01,31,00,05,00,24,FF,FE,
29224613,00000100,false,Rx,0,8,00,00,00,00,9A,01,C8,00,
29224860,00000101,false,Rx,0,8,00,FF,FE,00,00,00,00,00,
29225106,00000102,false,Rx,0,8,01,90,01,00,00,01,64,00,
29282995,00000108,false,Rx,0,8,01,F4,01,5A,9A,01,00,00,
29283234,00000109,false,Rx,0,8,01,31,00,05,00,24,FF,FE,
29324605,00000100,false,Rx,0,8,00,00,00,00,9A,01,C8,00,
29324860,00000101,false,Rx,0,8,00,FF,FE,00,00,00,00,00,
29325099,00000102,false,Rx,0,8,01,90,01,00,00,01,64,00,
29382995,00000108,false,Rx,0,8,01,F4,01,5A,9A,01,00,00,
29383235,00000109,false,Rx,0,8,01,31,00,05,00,24,FF,FE,
29424608,00000100,false,Rx,0,8,00,00,00,00,9A,01,C8,00,
29424854,00000101,false,Rx,0,8,00,FF,FE,00,00,00,00,00,
29425101,00000102,false,Rx,0,8,01,90,01,00,00,01,64,00,
29471908,00000522,false,Rx,0,6,01,0C,4D,C9,05,00,00,00,
29482994,00000108,false,Rx,0,8,01,F4,01,5A,9A,01,00,00,
29483240,00000109,false,Rx,0,8,01,30,00,05,00,24,FF,FE,
29524600,00000100,false,Rx,0,8,00,00,00,00,9A,01,C8,00,
29524854,00000101,false,Rx,0,8,00,FF,FE,00,00,00,00,00,
29525100,00000102,false,Rx,0,8,01,90,01,00,00,01,64,00,
29552303,00000523,false,Rx,0,6,02,0A,F4,FF,FF,FF,00,00,
29580487,00000527,false,Rx,0,6,06,0B,AA,0C,01,00,00,00,
29582995,00000108,false,Rx,0,8,01,F4,01,5A,9A,01,00,00,
29583241,00000109,false,Rx,0,8,01,38,00,05,00,24,FF,FE,
29584458,00000525,false,Rx,0,6,04,0D,1E,01,00,00,00,00,
29624598,00000100,false,Rx,0,8,00,00,00,00,9A,01,C8,00,
29624853,00000101,false,Rx,0,8,00,FF,FE,00,00,00,00,00,
29625092,00000102,false,Rx,0,8,01,90,01,00,00,01,64,00,
29650816,00000528,false,Rx,0,6,07,0B,22,1C,00,00,00,00,
29667148,00000526,false,Rx,0,6,05,01,B3,00,00,00,00,00,
29672846,00000524,false,Rx,0,6,03,00,F6,FF,FF,FF,00,00,
29683001,00000108,false,Rx,0,8,01,F4,01,5A,9A,01,00,00,
29683241,00000109,false,Rx,0,8,01,3A,00,05,00,24,FF,FE,
29685887,00000521,false,Rx,0,6,00,06,40,FE,FF,FF,00,00,
29724598,00000100,false,Rx,0,8,00,00,00,00,9A,01,C8,00,
29724852,00000101,false,Rx,0,8,00,FF,FE,00,00,00,00,00,
29725092,00000102,false,Rx,0,8,01,90,01,00,00,01,64,00,
29783002,00000108,false,Rx,0,8,01,F4,01,5A,9A,01,00,00,
29783248,00000109,false,Rx,0,8,01,3F,00,05,00,24,FF,FE,
29824599,00000100,false,Rx,0,8,00,00,00,00,9A,01,C8,00,
29824853,00000101,false,Rx,0,8,00,FF,FE,00,00,00,00,00,
29825092,00000102,false,Rx,0,8,01,90,01,00,00,01,64,00,
29883001,00000108,false,Rx,0,8,01,F4,01,5A,9A,01,00,00,
29883241,00000109,false,Rx,0,8,01,42,00,05,00,24,FF,FE,
29924598,00000100,false,Rx,0,8,00,00,00,00,9A,01,C8,00,
29924846,00000101,false,Rx,0,8,00,FF,FE,00,00,00,00,00,
29925092,00000102,false,Rx,0,8,01,90,01,00,00,01,64,00,
29983000,00000108,false,Rx,0,8,01,F4,01,5A,9A,01,00,00,
29983240,00000109,false,Rx,0,8,01,45,00,05,00,24,FF,FE,
30024592,00000100,false,Rx,0,8,00,00,00,00,9A,01,C8,00,
30024846,00000101,false,Rx,0,8,00,FF,FE,00,00,00,00,00,
30025086,00000102,false,Rx,0,8,01,90,01,00,00,01,64,00,
30083007,00000108,false,Rx,0,8,01,F4,01,5A,9A,01,00,00,
30083247,00000109,false,Rx,0,8,01,49,00,05,00,24,FF,FE,
30100759,00000522,false,Rx,0,6,01,0D,3F,C9,05,00,00,00,
30124592,00000100,false,Rx,0,8,00,00,00,00,9A,01,C8,00,
30124846,00000101,false,Rx,0,8,00,FF,FE,00,00,00,00,00,
30125087,00000102,false,Rx,0,8,01,90,01,00,00,01,64,00,
30183007,00000108,false,Rx,0,8,01,F4,01,5A,9A,01,00,00,
30183247,00000109,false,Rx,0,8,01,4E,00,05,00,24,FF,FE,
30199486,00000523,false,Rx,0,6,02,0B,F4,FF,FF,FF,00,00,
30224588,00000100,false,Rx,0,8,00,00,00,00,9A,01,C8,00,
30224842,00000101,false,Rx,0,8,00,FF,FE,00,00,00,00,00,
30225082,00000102,false,Rx,0,8,01,90,01,00,00,01,64,00,
30267534,00000525,false,Rx,0,6,04,0E,1E,01,00,00,00,00,
30283005,00000108,false,Rx,0,8,01,F4,01,5A,9A,01,00,00,
30283251,00000109,false,Rx,0,8,01,50,00,05,00,24,FF,FE,
30296642,00000521,false,Rx,0,6,00,07,36,FE,FF,FF,00,00,
30299722,00000527,false,Rx,0,6,06,0C,AA,0C,01,00,00,00,
30324586,00000100,false,Rx,0,8,00,00,00,00,9A,01,C8,00,
30324840,00000101,false,Rx,0,8,00,FF,FE,00,00,00,00,00,
30325080,00000102,false,Rx,0,8,01,90,01,00,00,01,64,00,
30337835,00000524,false,Rx,0,6,03,01,FA,FF,FF,FF,00,00,
30368268,00000526,false,Rx,0,6,05,02,AF,00,00,00,00,00,
30383005,00000108,false,Rx,0,8,01,F4,01,5A,9A,01,00,00,
30383252,00000109,false,Rx,0,8,01,54,00,05,00,24,FF,FE,
30388128,00000528,false,Rx,0,6,07,0C,22,1C,00,00,00,00,
30424584,00000100,false,Rx,0,8,00,00,00,00,9A,01,C8,00,
30424844,00000101,false,Rx,0,8,00,FF,FE,00,00,00,00,00,
30425077,00000102,false,Rx,0,8,01,90,01,00,00,01,64,00,
30483013,00000108,false,Rx,0,8,01,F4,01,5A,9A,01,00,00,
30483253,00000109,false,Rx,0,8,01,58,00,05,00,24,FF,FE,
30524583,00000100,false,Rx,0,8,00,00,00,00,9A,01,C8,00,
30524836,00000101,false,Rx,0,8,00,FF,FE,00,00,00,00,00,
30525076,00000102,false,Rx,0,8,01,90,01,00,00,01,64,00,
30583015,00000108,false,Rx,0,8,01,F4,01,5A,9A,01,00,00,
30583255,00000109,false,Rx,0,8,01,5D,00,05,00,24,FF,FE,
30624581,00000100,false,Rx,0,8,00,00,00,00,9A,01,C8,00,
30624840,00000101,false,Rx,0,8,00,FF,FE,00,00,00,00,00,
30625073,00000102,false,Rx,0,8,01,90,01,00,00,01,64,00,
30683013,00000108,false,Rx,0,8,01,F4,01,5A,9A,01,00,00,
30683253,00000109,false,Rx,0,8,01,63,00,05,00,24,FF,FE,
30724580,00000100,false,Rx,0,8,00,00,00,00,9A,01,C8,00,
30724834,00000101,false,Rx,0,8,00,FF,FE,00,00,00,00,00,
30725074,00000102,false,Rx,0,8,01,90,01,00,00,01,64,00,
30729586,00000522,false,Rx,0,6,01,0E,51,C9,05,00,00,00,
30783014,00000108,false,Rx,0,8,01,F4,01,5A,9A,01,00,00,
30783253,00000109,false,Rx,0,8,01,66,00,05,00,24,FF,FE,
30824575,00000100,false,Rx,0,8,00,00,00,00,9A,01,C8,00,
30824835,00000101,false,Rx,0,8,00,FF,FE,00,00,00,00,00,
30825068,00000102,false,Rx,0,8,01,90,01,00,00,01,64,00,
30846120,00000523,false,Rx,0,6,02,0C,E5,FF,FF,FF,00,00,
30883017,00000108,false,Rx,0,8,01,F4,01,5A,9A,01,00,00,
30883257,00000109,false,Rx,0,8,01,6E,00,05,00,24,FF,FE,
30907383,00000521,false,Rx,0,6,00,08,44,FE,FF,FF,00,00,
30924578,00000100,false,Rx,0,8,00,00,00,00,9A,01,C8,00,
30924832,00000101,false,Rx,0,8,00,FF,FE,00,00,00,00,00,
30925072,00000102,false,Rx,0,8,01,90,01,00,00,01,64,00,
30950598,00000525,false,Rx,0,6,04,0F,1E,01,00,00,00,00,
30983020,00000108,false,Rx,0,8,01,F4,01,5A,9A,01,00,00,
30983260,00000109,false,Rx,0,8,01,88,00,05,00,24,FF,FE,
31002843,00000524,false,Rx,0,6,03,02,F9,FF,FF,FF,00,00,
31018960,00000527,false,Rx,0,6,06,0D,AB,0C,01,00,00,00,
31024571,00000100,false,Rx,0,8,00,00,00,00,9A,01,C8,00,
31024822,00000101,false,Rx,0,8,00,FF,FE,00,00,00,00,00,
31025077,00000102,false,Rx,0,8,01,90,01,00,00,01,64,00,
31069278,00000526,false,Rx,0,6,05,03,B1,00,00,00,00,00,
31083017,00000108,false,Rx,0,8,01,F4,01,5A,9A,01,00,00,
31083262,00000109,false,Rx,0,8,01,AB,00,05,00,24,FF,FE,
31124571,00000100,false,Rx,0,8,00,00,00,00,9A,01,C8,00,
31124818,00000101,false,Rx,0,8,00,FF,FE,00,00,00,00,00,
31125064,00000102,false,Rx,0,8,01,90,01,00,00,01,64,00,
31125452,00000528,false,Rx,0,6,07,0D,22,1C,00,00,00,00,
31183025,00000108,false,Rx,0,8,01,F4,01,5A,9A,01,00,00,
31183264,00000109,false,Rx,0,8,01,D0,00,05,00,24,FF,FE,
31224570,00000100,false,Rx,0,8,00,00,00,00,9A,01,C8,00,
31224818,00000101,false,Rx,0,8,00,FF,FE,00,00,00,00,00,
31225064,00000102,false,Rx,0,8,01,90,01,00,00,01,64,00,
31283021,00000108,false,Rx,0,8,01,F4,01,5A,9A,01,00,00,
31283261,00000109,false,Rx,0,8,01,F9,00,05,00,24,FF,FE,
31324566,00000100,false,Rx,0,8,00,00,00,00,9A,01,C8,00,
31324826,00000101,false,Rx,0,8,00,FF,FE,00,00,00,00,00,
31325059,00000102,false,Rx,0,8,01,90,01,00,00,01,64,00,
31358438,00000522,false,Rx,0,6,01,0F,4C,C9,05,00,00,00,
31383021,00000108,false,Rx,0,8,01,F4,01,5A,9A,01,00,00,
31383267,00000109,false,Rx,0,8,01,20,01,05,00,24,FF,FE,
31424562,00000100,false,Rx,0,8,00,00,00,00,9A,01,C8,00,
31424822,00000101,false,Rx,0,8,00,FF,FE,00,00,00,00,00,
31425062,00000102,false,Rx,0,8,01,90,01,00,00,01,64,00,
31483019,00000108,false,Rx,0,8,01,F4,01,5A,9A,01,00,00,
31483264,00000109,false,Rx,0,8,01,47,01,05,00,24,FF,FE,
31493061,00000523,false,Rx,0,6,02,0D,FD,FF,FF,FF,00,00,
31518156,00000521,false,Rx,0,6,00,09,45,FE,FF,FF,00,00,
31524561,00000100,false,Rx,0,8,00,00,00,00,9A,01,C8,00,
31524821,00000101,false,Rx,0,8,00,FF,FE,00,00,00,00,00,
31525055,00000102,false,Rx,0,8,01,90,01,00,00,01,64,00,
31583023,00000108,false,Rx,0,8,01,F4,01,5A,9A,01,00,00,
31583269,00000109,false,Rx,0,8,01,70,01,05,00,24,FF,FE,
31624558,00000100,false,Rx,0,8,00,00,00,00,9A,01,C8,00,
31624818,00000101,false,Rx,0,8,00,FF,FE,00,00,00,00,00,
31625052,00000102,false,Rx,0,8,01,90,01,00,00,01,64,00,
31633710,00000525,false,Rx,0,6,04,00,1E,01,00,00,00,00,
31667847,00000524,false,Rx,0,6,03,03,F9,FF,FF,FF,00,00,
31683026,00000108,false,Rx,0,8,01,F4,01,5A,9A,01,00,00,
31683266,00000109,false,Rx,0,8,01,98,01,05,00,24,FF,FE,
31724558,00000100,false,Rx,0,8,00,00,00,00,9A,01,C8,00,
31724811,00000101,false,Rx,0,8,00,FF,FE,00,00,00,00,00,
31725052,00000102,false,Rx,0,8,01,90,01,00,00,01,64,00,
31738549,00000527,false,Rx,0,6,06,0E,AB,0C,01,00,00,00,
31770638,00000526,false,Rx,0,6,05,04,A1,00,00,00,00,00,
31783026,00000108,false,Rx,0,8,01,F4,01,5A,9A,01,00,00,
31783265,00000109,false,Rx,0,8,01,B1,01,05,00,24,FF,FE,
31824555,00000100,false,Rx,0,8,00,00,00,00,9A,01,C8,00,
31824815,00000101,false,Rx,0,8,00,FF,FE,00,00,00,00,00,
31825049,00000102,false,Rx,0,8,01,90,01,00,00,01,64,00,
31862795,00000528,false,Rx,0,6,07,0E,22,1C,00,00,00,00,
31883028,00000108,false,Rx,0,8,01,F4,01,5A,9A,01,00,00,
31883268,00000109,false,Rx,0,8,01,BA,01,05,00,24,FF,FE,
31924556,00000100,false,Rx,0,8,00,00,00,00,9A,01,C8,00,
31924802,00000101,false,Rx,0,8,00,FF,FE,00,00,00,00,00,
31925049,00000102,false,Rx,0,8,01,90,01,00,00,01,64,00,
31983027,00000108,false,Rx,0,8,01,F4,01,5A,9A,01,00,00,
31983273,00000109,false,Rx,0,8,01,BD,01,05,00,24,FF,FE,
31987274,00000522,false,Rx,0,6,01,00,5B,C9,05,00,00,00,
32024556,00000100,false,Rx,0,8,00,00,00,00,9A,01,C8,00,
32024803,00000101,false,Rx,0,8,00,FF,FE,00,00,00,00,00,
32025043,00000102,false,Rx,0,8,01,90,01,00,00,01,64,00,
32083033,00000108,false,Rx,0,8,01,F4,01,5A,9A,01,00,00,
32083272,00000109,false,Rx,0,8,01,BF,01,05,00,24,FF,FE,
32124552,00000100,false,Rx,0,8,00,00,00,00,9A,01,C8,00,
32124798,00000101,false,Rx,0,8,00,FF,FE,00,00,00,00,00,
32125046,00000102,false,Rx,0,8,01,90,01,00,00,01,64,00,
32129461,00000521,false,Rx,0,6,00,0A,3E,FE,FF,FF,00,00,
32139973,00000523,false,Rx,0,6,02,0E,FD,FF,FF,FF,00,00,
32183032,00000108,false,Rx,0,8,01,F4,01,5A,9A,01,00,00,
32183278,00000109,false,Rx,0,8,01,C0,01,05,00,24,FF,FE,
32224550,00000100,false,Rx,0,8,00,00,00,00,9A,01,C8,00,
32224796,00000101,false,Rx,0,8,00,FF,FE,00,00,00,00,00,
32225044,00000102,false,Rx,0,8,01,90,01,00,00,01,64,00,
32283031,00000108,false,Rx,0,8,01,F4,01,5A,9A,01,00,00,
32283277,00000109,false,Rx,0,8,01,BF,01,05,00,24,FF,FE,
32316800,00000525,false,Rx,0,6,04,01,1E,01,00,00,00,00,
32324547,00000100,false,Rx,0,8,00,00,00,00,9A,01,C8,00,
32324794,00000101,false,Rx,0,8,00,FF,FE,00,00,00,00,00,
32325042,00000102,false,Rx,0,8,01,90,01,00,00,01,64,00,
32332864,00000524,false,Rx,0,6,03,04,F4,FF,FF,FF,00,00,
32383038,00000108,false,Rx,0,8,01,F4,01,5A,9A,01,00,00,
32383278,00000109,false,Rx,0,8,01,C0,01,05,00,24,FF,FE,
32424544,00000100,false,Rx,0,8,00,00,00,00,9A,01,C8,00,
32424791,00000101,false,Rx,0,8,00,FF,FE,00,00,00,00,00,
32425039,00000102,false,Rx,0,8,01,90,01,00,00,01,64,00,
32457490,00000527,false,Rx,0,6,06,0F,AB,0C,01,00,00,00,
32471632,00000526,false,Rx,0,6,05,05,A8,00,00,00,00,00,
32483037,00000108,false,Rx,0,8,01,F4,01,5A,9A,01,00,00,
32483283,00000109,false,Rx,0,8,01,C0,01,05,00,24,FF,FE,
32524543,00000100,false,Rx,0,8,00,00,00,00,9A,01,C8,00,
32524790,00000101,false,Rx,0,8,00,FF,FE,00,00,00,00,00,
32525032,00000102,false,Rx,0,8,01,90,01,00,00,01,64,00,
32583039,00000108,false,Rx,0,8,01,F4,01,5A,9A,01,00,00,
32583285,00000109,false,Rx,0,8,01,C0,01,05,00,24,FF,FE,
32600131,00000528,false,Rx,0,6,07,0F,22,1C,00,00,00,00,
32616127,00000522,false,Rx,0,6,01,01,66,C9,05,00,00,00,
32624537,00000100,false,Rx,0,8,00,00,00,00,9A,01,C8,00,
32624790,00000101,false,Rx,0,8,00,FF,FE,00,00,00,00,00,
32625031,00000102,false,Rx,0,8,01,90,01,00,00,01,64,00,
32683042,00000108,false,Rx,0,8,01,F4,01,5A,9A,01,00,00,
32683281,00000109,false,Rx,0,8,01,C0,01,05,00,24,FF,FE,
32724539,00000100,false,Rx,0,8,00,00,00,00,9A,01,C8,00,
32724786,00000101,false,Rx,0,8,00,FF,FE,00,00,00,00,00,
32725034,00000102,false,Rx,0,8,01,90,01,00,00,01,64,00,
32739687,00000521,false,Rx,0,6,00,0B,3A,FE,FF,FF,00,00,
32783047,00000108,false,Rx,0,8,01,F4,01,5A,9A,01,00,00,
32783293,00000109,false,Rx,0,8,01,C0,01,05,00,24,FF,FE,
32786920,00000523,false,Rx,0,6,02,0F,FC,FF,FF,FF,00,00,
32824538,00000100,false,Rx,0,8,00,00,00,00,9A,01,C8,00,
32824784,00000101,false,Rx,0,8,00,FF,FE,00,00,00,00,00,
32825026,00000102,false,Rx,0,8,01,90,01,00,00,01,64,00,
32883045,00000108,false,Rx,0,8,01,F4,01,5A,9A,01,00,00,
32883284,00000109,false,Rx,0,8,01,C0,01,05,00,24,FF,FE,
32924531,00000100,false,Rx,0,8,00,00,00,00,9A,01,C8,00,
32924784,00000101,false,Rx,0,8,00,FF,FE,00,00,00,00,00,
32925026,00000102,false,Rx,0,8,01,90,01,00,00,01,64,00,
32983044,00000108,false,Rx,0,8,01,F4,01,5A,9A,01,00,00,
32983290,00000109,false,Rx,0,8,01,C0,01,05,00,24,FF,FE,
32997896,00000524,false,Rx,0,6,03,05,F0,FF,FF,FF,00,00,
32999903,00000525,false,Rx,0,6,04,02,1E,01,00,00,00,00,
33024532,00000100,false,Rx,0,8,00,00,00,00,9A,01,C8,00,
33024785,00000101,false,Rx,0,8,00,FF,FE,00,00,00,00,00,
33025026,00000102,false,Rx,0,8,01,90,01,00,00,01,64,00,
33083043,00000108,false,Rx,0,8,01,F4,01,5A,9A,01,00,00,
33083289,00000109,false,Rx,0,8,01,C0,01,05,00,24,FF,FE,
33124527,00000100,false,Rx,0,8,00,00,00,00,9A,01,C8,00,
33124780,00000101,false,Rx,0,8,00,FF,FE,00,00,00,00,00,
33125021,00000102,false,Rx,0,8,01,90,01,00,00,01,64,00,
33173001,00000526,false,Rx,0,6,05,06,A7,00,00,00,00,00,
33176982,00000527,false,Rx,0,6,06,00,AC,0C,01,00,00,00,
33183047,00000108,false,Rx,0,8,01,F4,01,5A,9A,01,00,00,
33183293,00000109,false,Rx,0,8,01,C0,01,05,00,24,FF,FE,
33224524,00000100,false,Rx,0,8,00,00,00,00,9A,01,C8,00,
33224777,00000101,false,Rx,0,8,00,FF,FE,00,00,00,00,00,
33225019,00000102,false,Rx,0,8,01,90,01,00,00,01,64,00,
33245311,00000522,false,Rx,0,6,01,02,56,C9,05,00,00,00,
33283048,00000108,false,Rx,0,8,01,F4,01,5A,9A,01,00,00,
33283294,00000109,false,Rx,0,8,01,C1,01,05,00,24,FF,FE,
33324522,00000100,false,Rx,0,8,00,00,00,00,9A,01,C8,00,
33324775,00000101,false,Rx,0,8,00,FF,FE,00,00,00,00,00,
33325017,00000102,false,Rx,0,8,01,90,01,00,00,01,64,00,
33337481,00000528,false,Rx,0,6,07,00,23,1C,00,00,00,00,
33350460,00000521,false,Rx,0,6,00,0C,3D,FE,FF,FF,00,00,
33383048,00000108,false,Rx,0,8,01,F4,01,5A,9A,01,00,00,
33383294,00000109,false,Rx,0,8,01,C0,01,05,00,24,FF,FE,
33424525,00000100,false,Rx,0,8,00,00,00,00,9A,01,C8,00,
33424771,00000101,false,Rx,0,8,00,FF,FE,00,00,00,00,00,
33425020,00000102,false,Rx,0,8,01,90,01,00,00,01,64,00,
33433854,00000523,false,Rx,0,6,02,00,ED,FF,FF,FF,00,00,
33483050,00000108,false,Rx,0,8,01,F4,01,5A,9A,01,00,00,
33483296,00000109,false,Rx,0,8,01,C1,01,05,00,24,FF,FE,
33524522,00000100,false,Rx,0,8,00,00,00,00,9A,01,C8,00,
33524768,00000101,false,Rx,0,8,00,FF,FE,00,00,00,00,00,
33525015,00000102,false,Rx,0,8,01,90,01,00,00,01,64,00,
33583048,00000108,false,Rx,0,8,01,F4,01,5A,9A,01,00,00,
33583294,00000109,false,Rx,0,8,01,C1,01,05,00,24,FF,FE,
33624516,00000100,false,Rx,0,8,00,00,00,00,9A,01,C8,00,
33624769,00000101,false,Rx,0,8,00,FF,FE,00,00,00,00,00,
33625010,00000102,false,Rx,0,8,01,90,01,00,00,01,64,00,
33662893,00000524,false,Rx,0,6,03,06,F3,FF,FF,FF,00,00,
33682988,00000525,false,Rx,0,6,04,03,1E,01,00,00,00,00,
33683234,00000108,false,Rx,0,8,01,F4,01,5A,9A,01,00,00,
33683481,00000109,false,Rx,0,8,01,C0,01,05,00,24,FF,FE,
33724516,00000100,false,Rx,0,8,00,00,00,00,9A,01,C8,00,
33724762,00000101,false,Rx,0,8,00,FF,FE,00,00,00,00,00,
33725010,00000102,false,Rx,0,8,01,90,01,00,00,01,64,00,
33783054,00000108,false,Rx,0,8,01,F4,01,5A,9A,01,00,00,
33783300,00000109,false,Rx,0,8,01,C0,01,05,00,24,FF,FE,
33824515,00000100,false,Rx,0,8,00,00,00,00,9A,01,C8,00,
33824762,00000101,false,Rx,0,8,00,FF,FE,00,00,00,00,00,
33825009,00000102,false,Rx,0,8,01,90,01,00,00,01,64,00,
33874172,00000522,false,Rx,0,6,01,03,5B,C9,05,00,00,00,
33874399,00000526,false,Rx,0,6,05,07,A2,00,00,00,00,00,
33883055,00000108,false,Rx,0,8,01,F4,01,5A,9A,01,00,00,
33883301,00000109,false,Rx,0,8,01,C1,01,05,00,24,FF,FE,
33895995,00000527,false,Rx,0,6,06,01,AC,0C,01,00,00,00,
33924515,00000100,false,Rx,0,8,00,00,00,00,9A,01,C8,00,
33924761,00000101,false,Rx,0,8,00,FF,FE,00,00,00,00,00,
33925009,00000102,false,Rx,0,8,01,90,01,00,00,01,64,00,
33961214,00000521,false,Rx,0,6,00,0D,3F,FE,FF,FF,00,00,
33983057,00000108,false,Rx,0,8,01,F4,01,5A,9A,01,00,00,
33983302,00000109,false,Rx,0,8,01,C1,01,05,00,24,FF,FE,
34024510,00000100,false,Rx,0,8,00,00,00,00,9A,01,C8,00,
34024762,00000101,false,Rx,0,8,00,FF,FE,00,00,00,00,00,
34025004,00000102,false,Rx,0,8,01,90,01,00,00,01,64,00,
34074818,00000528,false,Rx,0,6,07,01,23,1C,00,00,00,00,
34080771,00000523,false,Rx,0,6,02,01,ED,FF,FF,FF,00,00,
34083064,00000108,false,Rx,0,8,01,F4,01,5A,9A,01,00,00,
34083310,00000109,false,Rx,0,8,01,C1,01,05,00,24,FF,FE,
34124506,00000100,false,Rx,0,8,00,00,00,00,9A,01,C8,00,
34124759,00000101,false,Rx,0,8,00,FF,FE,00,00,00,00,00,
34124999,00000102,false,Rx,0,8,01,90,01,00,00,01,64,00,
34183056,00000108,false,Rx,0,8,01,F4,01,5A,9A,01,00,00,
34183302,00000109,false,Rx,0,8,01,C1,01,05,00,24,FF,FE,
34224507,00000100,false,Rx,0,8,00,00,00,00,9A,01,C8,00,
34224753,00000101,false,Rx,0,8,00,FF,FE,00,00,00,00,00,
34225000,00000102,false,Rx,0,8,01,90,01,00,00,01,64,00,
34283060,00000108,false,Rx,0,8,01,F4,01,5A,9A,01,00,00,
34283307,00000109,false,Rx,0,8,01,C0,01,05,00,24,FF,FE,
34324503,00000100,false,Rx,0,8,00,00,00,00,9A,01,C8,00,
34324756,00000101,false,Rx,0,8,00,FF,FE,00,00,00,00,00,
34324998,00000102,false,Rx,0,8,01,90,01,00,00,01,64,00,
34327895,00000524,false,Rx,0,6,03,07,EA,FF,FF,FF,00,00,
34366077,00000525,false,Rx,0,6,04,04,1E,01,00,00,00,00,
34383060,00000108,false,Rx,0,8,01,F4,01,5A,9A,01,00,00,
34383305,00000109,false,Rx,0,8,01,C0,01,05,00,24,FF,FE,
34424500,00000100,false,Rx,0,8,00,00,00,00,9A,01,C8,00,
34424753,00000101,false,Rx,0,8,00,FF,FE,00,00,00,00,00,
34424995,00000102,false,Rx,0,8,01,90,01,00,00,01,64,00,
34483062,00000108,false,Rx,0,8,01,F4,01,5A,9A,01,00,00,
34483308,00000109,false,Rx,0,8,01,C1,01,05,00,24,FF,FE,
34502667,00000522,false,Rx,0,6,01,04,56,C9,05,00,00,00,
34524497,00000100,false,Rx,0,8,00,00,00,00,9A,01,C8,00,
34524750,00000101,false,Rx,0,8,00,FF,FE,00,00,00,00,00,
34524992,00000102,false,Rx,0,8,01,90,01,00,00,01,64,00,
34572291,00000521,false,Rx,0,6,00,0E,48,FE,FF,FF,00,00,
34575292,00000526,false,Rx,0,6,05,08,9E,00,00,00,00,00,
34583065,00000108,false,Rx,0,8,01,F4,01,5A,9A,01,00,00,
34583311,00000109,false,Rx,0,8,01,C1,01,05,00,24,FF,FE,
34615242,00000527,false,Rx,0,6,06,02,AC,0C,01,00,00,00,
34624495,00000100,false,Rx,0,8,00,00,00,00,9A,01,C8,00,
34624749,00000101,false,Rx,0,8,00,FF,FE,00,00,00,00,00,
34624990,00000102,false,Rx,0,8,01,90,01,00,00,01,64,00,
34683068,00000108,false,Rx,0,8,01,F4,01,5A,9A,01,00,00,
34683315,00000109,false,Rx,0,8,01,C1,01,05,00,24,FF,FE,
34724497,00000100,false,Rx,0,8,00,00,00,00,9A,01,C8,00,
34724743,00000101,false,Rx,0,8,00,FF,FE,00,00,00,00,00,
34724990,00000102,false,Rx,0,8,01,90,01,00,00,01,64,00,
34727687,00000523,false,Rx,0,6,02,02,F1,FF,FF,FF,00,00,
34783069,00000108,false,Rx,0,8,01,F4,01,5A,9A,01,00,00,
34783315,00000109,false,Rx,0,8,01,C1,01,05,00,24,FF,FE,
34812453,00000528,false,Rx,0,6,07,02,23,1C,00,00,00,00,
34824493,00000100,false,Rx,0,8,00,00,00,00,9A,01,C8,00,
34824747,00000101,false,Rx,0,8,00,FF,FE,00,00,00,00,00,
34824988,00000102,false,Rx,0,8,01,90,01,00,00,01,64,00,
34883066,00000108,false,Rx,0,8,01,F4,01,5A,9A,01,00,00,
34883319,00000109,false,Rx,0,8,01,C1,01,05,00,24,FF,FE,
34924487,00000100,false,Rx,0,8,00,00,00,00,9A,01,C8,00,
34924741,00000101,false,Rx,0,8,00,FF,FE,00,00,00,00,00,
34924982,00000102,false,Rx,0,8,01,90,01,00,00,01,64,00,
34983070,00000108,false,Rx,0,8,01,F4,01,5A,9A,01,00,00,
34983317,00000109,false,Rx,0,8,01,C1,01,05,00,24,FF,FE,
34993191,00000524,false,Rx,0,6,03,08,F4,FF,FF,FF,00,00,
35024488,00000100,false,Rx,0,8,00,00,00,00,9A,01,C8,00,
35024741,00000101,false,Rx,0,8,00,FF,FE,00,00,00,00,00,
35024983,00000102,false,Rx,0,8,01,90,01,00,00,01,64,00,
35049140,00000525,false,Rx,0,6,04,05,1E,01,00,00,00,00,
35083070,00000108,false,Rx,0,8,01,F4,01,5A,9A,01,00,00,
35083315,00000109,false,Rx,0,8,01,C0,01,05,00,24,FF,FE,
35124490,00000100,false,Rx,0,8,00,00,00,00,9A,01,C8,00,
35124736,00000101,false,Rx,0,8,00,FF,FE,00,00,00,00,00,
35124977,00000102,false,Rx,0,8,01,90,01,00,00,01,64,00,
35131486,00000522,false,Rx,0,6,01,05,5C,C9,05,00,00,00,
35182723,00000521,false,Rx,0,6,00,0F,37,FE,FF,FF,00,00,
35183074,00000108,false,Rx,0,8,01,F4,01,5A,9A,01,00,00,
35183320,00000109,false,Rx,0,8,01,C0,01,05,00,24,FF,FE,
35224481,00000100,false,Rx,0,8,00,00,00,00,9A,01,C8,00,
35224735,00000101,false,Rx,0,8,00,FF,FE,00,00,00,00,00,
35224976,00000102,false,Rx,0,8,01,90,01,00,00,01,64,00,
35276284,00000526,false,Rx,0,6,05,09,98,00,00,00,00,00,
35283075,00000108,false,Rx,0,8,01,F4,01,5A,9A,01,00,00,
35283321,00000109,false,Rx,0,8,01,C1,01,05,00,24,FF,FE,
35324482,00000100,false,Rx,0,8,00,00,00,00,9A,01,C8,00,
35324735,00000101,false,Rx,0,8,00,FF,FE,00,00,00,00,00,
35324977,00000102,false,Rx,0,8,01,90,01,00,00,01,64,00,
35334463,00000527,false,Rx,0,6,06,03,AD,0C,01,00,00,00,
35374590,00000523,false,Rx,0,6,02,03,EF,FF,FF,FF,00,00,
35383082,00000108,false,Rx,0,8,01,F4,01,5A,9A,01,00,00,
35383328,00000109,false,Rx,0,8,01,C1,01,05,00,24,FF,FE,
35424485,00000100,false,Rx,0,8,00,00,00,00,9A,01,C8,00,
35424732,00000101,false,Rx,0,8,00,FF,FE,00,00,00,00,00,
35424973,00000102,false,Rx,0,8,01,90,01,00,00,01,64,00,
35483079,00000108,false,Rx,0,8,01,F4,01,5A,9A,01,00,00,
35483325,00000109,false,Rx,0,8,01,C1,01,05,00,24,FF,FE,
35524479,00000100,false,Rx,0,8,00,00,00,00,9A,01,C8,00,
35524732,00000101,false,Rx,0,8,00,FF,FE,00,00,00,00,00,
35524974,00000102,false,Rx,0,8,01,90,01,00,00,01,64,00,
35549455,00000528,false,Rx,0,6,07,03,23,1C,00,00,00,00,
35583077,00000108,false,Rx,0,8,01,F4,01,5A,9A,01,00,00,
35583323,00000109,false,Rx,0,8,01,C1,01,05,00,24,FF,FE,
35624475,00000100,false,Rx,0,8,00,00,00,00,9A,01,C8,00,
35624728,00000101,false,Rx,0,8,00,FF,FE,00,00,00,00,00,
35624969,00000102,false,Rx,0,8,01,90,01,00,00,01,64,00,
35657877,00000524,false,Rx,0,6,03,09,F1,FF,FF,FF,00,00,
35683076,00000108,false,Rx,0,8,01,F4,01,5A,9A,01,00,00,
35683322,00000109,false,Rx,0,8,01,C0,01,05,00,24,FF,FE,
35724473,00000100,false,Rx,0,8,00,00,00,00,9A,01,C8,00,
35724726,00000101,false,Rx,0,8,00,FF,FE,00,00,00,00,00,
35724967,00000102,false,Rx,0,8,01,90,01,00,00,01,64,00,
35732223,00000525,false,Rx,0,6,04,06,1E,01,00,00,00,00,
35760309,00000522,false,Rx,0,6,01,06,68,C9,05,00,00,00,
35783082,00000108,false,Rx,0,8,01,F4,01,5A,9A,01,00,00,
35783327,00000109,false,Rx,0,8,01,C0,01,05,00,24,FF,FE,
35793470,00000521,false,Rx,0,6,00,00,3D,FE,FF,FF,00,00,
35824471,00000100,false,Rx,0,8,00,00,00,00,9A,01,C8,00,
35824724,00000101,false,Rx,0,8,00,FF,FE,00,00,00,00,00,
35824965,00000102,false,Rx,0,8,01,90,01,00,00,01,64,00,
35883085,00000108,false,Rx,0,8,01,F4,01,5A,9A,01,00,00,
35883330,00000109,false,Rx,0,8,01,C1,01,05,00,24,FF,FE,
35924472,00000100,false,Rx,0,8,00,00,00,00,9A,01,C8,00,
35924719,00000101,false,Rx,0,8,00,FF,FE,00,00,00,00,00,
35924965,00000102,false,Rx,0,8,01,90,01,00,00,01,64,00,
35977620,00000526,false,Rx,0,6,05,0A,A9,00,00,00,00,00,
35983088,00000108,false,Rx,0,8,01,F4,01,5A,9A,01,00,00,
35983334,00000109,false,Rx,0,8,01,C1,01,05,00,24,FF,FE,
36021495,00000523,false,Rx,0,6,02,04,EF,FF,FF,FF,00,00,
36024466,00000100,false,Rx,0,8,00,00,00,00,9A,01,C8,00,
36024719,00000101,false,Rx,0,8,00,FF,FE,00,00,00,00,00,
36024959,00000102,false,Rx,0,8,01,90,01,00,00,01,64,00,
36053706,00000527,false,Rx,0,6,06,04,AD,0C,01,00,00,00,
36083087,00000108,false,Rx,0,8,01,F4,01,5A,9A,01,00,00,
36083334,00000109,false,Rx,0,8,01,C1,01,05,00,24,FF,FE,
36124463,00000100,false,Rx,0,8,00,00,00,00,9A,01,C8,00,
36124716,00000101,false,Rx,0,8,00,FF,FE,00,00,00,00,00,
36124957,00000102,false,Rx,0,8,01,90,01,00,00,01,64,00,
36183085,00000108,false,Rx,0,8,01,F4,01,5A,9A,01,00,00,
36183331,00000109,false,Rx,0,8,01,C0,01,05,00,24,FF,FE,
36224466,00000100,false,Rx,0,8,00,00,00,00,9A,01,C8,00,
36224713,00000101,false,Rx,0,8,00,FF,FE,00,00,00,00,00,
36224955,00000102,false,Rx,0,8,01,90,01,00,00,01,64,00,
36283089,00000108,false,Rx,0,8,01,F4,01,5A,9A,01,00,00,
36283335,00000109,false,Rx,0,8,01,C1,01,05,00,24,FF,FE,
36287044,00000528,false,Rx,0,6,07,04,23,1C,00,00,00,00,
36322867,00000524,false,Rx,0,6,03,0A,E9,FF,FF,FF,00,00,
36324464,00000100,false,Rx,0,8,00,00,00,00,9A,01,C8,00,
36324710,00000101,false,Rx,0,8,00,FF,FE,00,00,00,00,00,
36324958,00000102,false,Rx,0,8,01,90,01,00,00,01,64,00,
36383088,00000108,false,Rx,0,8,01,F4,01,5A,9A,01,00,00,
36383334,00000109,false,Rx,0,8,01,C0,01,05,00,24,FF,FE,
36389148,00000522,false,Rx,0,6,01,07,61,C9,05,00,00,00,
36404217,00000521,false,Rx,0,6,00,01,3A,FE,FF,FF,00,00,
36415297,00000525,false,Rx,0,6,04,07,1E,01,00,00,00,00,
36424458,00000100,false,Rx,0,8,00,00,00,00,9A,01,C8,00,
36424711,00000101,false,Rx,0,8,00,FF,FE,00,00,00,00,00,
36424952,00000102,false,Rx,0,8,01,90,01,00,00,01,64,00,
36483089,00000108,false,Rx,0,8,01,F4,01,5A,9A,01,00,00,
36483334,00000109,false,Rx,0,8,01,C1,01,05,00,24,FF,FE,
36524459,00000100,false,Rx,0,8,00,00,00,00,9A,01,C8,00,
36524706,00000101,false,Rx,0,8,00,FF,FE,00,00,00,00,00,
36524953,00000102,false,Rx,0,8,01,90,01,00,00,01,64,00,
36583089,00000108,false,Rx,0,8,01,F4,01,5A,9A,01,00,00,
36583335,00000109,false,Rx,0,8,01,C1,01,05,00,24,FF,FE,
36624458,00000100,false,Rx,0,8,00,00,00,00,9A,01,C8,00,
36624705,00000101,false,Rx,0,8,00,FF,FE,00,00,00,00,00,
36624953,00000102,false,Rx,0,8,01,90,01,00,00,01,64,00,
36668395,00000523,false,Rx,0,6,02,05,F3,FF,FF,FF,00,00,
36678587,00000526,false,Rx,0,6,05,0B,9B,00,00,00,00,00,
36683095,00000108,false,Rx,0,8,01,F4,01,5A,9A,01,00,00,
36683335,00000109,false,Rx,0,8,01,C0,01,05,00,24,FF,FE,
36724453,00000100,false,Rx,0,8,00,00,00,00,9A,01,C8,00,
36724706,00000101,false,Rx,0,8,00,FF,FE,00,00,00,00,00,
36724946,00000102,false,Rx,0,8,01,90,01,00,00,01,64,00,
36773180,00000527,false,Rx,0,6,06,05,AD,0C,01,00,00,00,
36783101,00000108,false,Rx,0,8,01,F4,01,5A,9A,01,00,00,
36783347,00000109,false,Rx,0,8,01,C1,01,05,00,24,FF,FE,
36824450,00000100,false,Rx,0,8,00,00,00,00,9A,01,C8,00,
36824703,00000101,false,Rx,0,8,00,FF,FE,00,00,00,00,00,
36824944,00000102,false,Rx,0,8,01,90,01,00,00,01,64,00,
36883095,00000108,false,Rx,0,8,01,F4,01,5A,9A,01,00,00,
36883341,00000109,false,Rx,0,8,01,C1,01,05,00,24,FF,FE,
36924451,00000100,false,Rx,0,8,00,00,00,00,9A,01,C8,00,
36924697,00000101,false,Rx,0,8,00,FF,FE,00,00,00,00,00,
36924945,00000102,false,Rx,0,8,01,90,01,00,00,01,64,00,
36983094,00000108,false,Rx,0,8,01,F4,01,5A,9A,01,00,00,
36983339,00000109,false,Rx,0,8,01,C1,01,05,00,24,FF,FE,
36987839,00000524,false,Rx,0,6,03,0B,F3,FF,FF,FF,00,00,
37014946,00000521,false,Rx,0,6,00,02,39,FE,FF,FF,00,00,
37017960,00000522,false,Rx,0,6,01,08,5D,C9,05,00,00,00,
37024137,00000528,false,Rx,0,6,07,05,23,1C,00,00,00,00,
37024451,00000100,false,Rx,0,8,00,00,00,00,9A,01,C8,00,
37024698,00000101,false,Rx,0,8,00,FF,FE,00,00,00,00,00,
37024939,00000102,false,Rx,0,8,01,90,01,00,00,01,64,00,
37083099,00000108,false,Rx,0,8,01,F4,01,5A,9A,01,00,00,
37083344,00000109,false,Rx,0,8,01,C1,01,05,00,24,FF,FE,
37098340,00000525,false,Rx,0,6,04,08,1E,01,00,00,00,00,
37124447,00000100,false,Rx,0,8,00,00,00,00,9A,01,C8,00,
37124694,00000101,false,Rx,0,8,00,FF,FE,00,00,00,00,00,
37124941,00000102,false,Rx,0,8,01,90,01,00,00,01,64,00,
37183100,00000108,false,Rx,0,8,01,F4,01,5A,9A,01,00,00,
37183346,00000109,false,Rx,0,8,01,C1,01,05,00,24,FF,FE,
37224446,00000100,false,Rx,0,8,00,00,00,00,9A,01,C8,00,
37224693,00000101,false,Rx,0,8,00,FF,FE,00,00,00,00,00,
37224934,00000102,false,Rx,0,8,01,90,01,00,00,01,64,00,
37283102,00000108,false,Rx,0,8,01,F4,01,5A,9A,01,00,00,
37283348,00000109,false,Rx,0,8,01,C1,01,05,00,24,FF,FE,
37315295,00000523,false,Rx,0,6,02,06,F5,FF,FF,FF,00,00,
37324439,00000100,false,Rx,0,8,00,00,00,00,9A,01,C8,00,
37324692,00000101,false,Rx,0,8,00,FF,FE,00,00,00,00,00,
37324933,00000102,false,Rx,0,8,01,90,01,00,00,01,64,00,
37379921,00000526,false,Rx,0,6,05,0C,A5,00,00,00,00,00,
37383102,00000108,false,Rx,0,8,01,F4,01,5A,9A,01,00,00,
37383348,00000109,false,Rx,0,8,01,C1,01,05,00,24,FF,FE,
37424438,00000100,false,Rx,0,8,00,00,00,00,9A,01,C8,00,
37424691,00000101,false,Rx,0,8,00,FF,FE,00,00,00,00,00,
37424932,00000102,false,Rx,0,8,01,90,01,00,00,01,64,00,
37483106,00000108,false,Rx,0,8,01,F4,01,5A,9A,01,00,00,
37483352,00000109,false,Rx,0,8,01,C1,01,05,00,24,FF,FE,
37492423,00000527,false,Rx,0,6,06,06,AE,0C,01,00,00,00,
37524439,00000100,false,Rx,0,8,00,00,00,00,9A,01,C8,00,
37524685,00000101,false,Rx,0,8,00,FF,FE,00,00,00,00,00,
37524933,00000102,false,Rx,0,8,01,90,01,00,00,01,64,00,
37583106,00000108,false,Rx,0,8,01,F4,01,5A,9A,01,00,00,
37583346,00000109,false,Rx,0,8,01,C0,01,05,00,24,FF,FE,
37624434,00000100,false,Rx,0,8,00,00,00,00,9A,01,C8,00,
37624687,00000101,false,Rx,0,8,00,FF,FE,00,00,00,00,00,
37624928,00000102,false,Rx,0,8,01,90,01,00,00,01,64,00,
37625693,00000521,false,Rx,0,6,00,03,41,FE,FF,FF,00,00,
37646760,00000522,false,Rx,0,6,01,09,65,C9,05,00,00,00,
37652825,00000524,false,Rx,0,6,03,0C,F7,FF,FF,FF,00,00,
37683110,00000108,false,Rx,0,8,01,F4,01,5A,9A,01,00,00,
37683356,00000109,false,Rx,0,8,01,C1,01,05,00,24,FF,FE,
37724434,00000100,false,Rx,0,8,00,00,00,00,9A,01,C8,00,
37724681,00000101,false,Rx,0,8,00,FF,FE,00,00,00,00,00,
37724929,00000102,false,Rx,0,8,01,90,01,00,00,01,64,00,
37761356,00000528,false,Rx,0,6,07,06,23,1C,00,00,00,00,
37781385,00000525,false,Rx,0,6,04,09,1E,01,00,00,00,00,
37783108,00000108,false,Rx,0,8,01,F4,01,5A,9A,01,00,00,
37783354,00000109,false,Rx,0,8,01,C1,01,05,00,24,FF,FE,
37824428,00000100,false,Rx,0,8,00,00,00,00,9A,01,C8,00,
37824682,00000101,false,Rx,0,8,00,FF,FE,00,00,00,00,00,
37824922,00000102,false,Rx,0,8,01,90,01,00,00,01,64,00,
37883111,00000108,false,Rx,0,8,01,F4,01,5A,9A,01,00,00,
37883357,00000109,false,Rx,0,8,01,C1,01,05,00,24,FF,FE,
37924426,00000100,false,Rx,0,8,00,00,00,00,9A,01,C8,00,
37924679,00000101,false,Rx,0,8,00,FF,FE,00,00,00,00,00,
37924921,00000102,false,Rx,0,8,01,90,01,00,00,01,64,00,
37962188,00000523,false,Rx,0,6,02,07,F5,FF,FF,FF,00,00,
37983109,00000108,false,Rx,0,8,01,F4,01,5A,9A,01,00,00,
37983354,00000109,false,Rx,0,8,01,C1,01,05,00,24,FF,FE,
38024426,00000100,false,Rx,0,8,00,00,00,00,9A,01,C8,00,
38024679,00000101,false,Rx,0,8,00,FF,FE,00,00,00,00,00,
38024921,00000102,false,Rx,0,8,01,90,01,00,00,01,64,00,
38081043,00000526,false,Rx,0,6,05,0D,93,00,00,00,00,00,
38083112,00000108,false,Rx,0,8,01,F4,01,5A,9A,01,00,00,
38083358,00000109,false,Rx,0,8,01,C1,01,05,00,24,FF,FE,
38124428,00000100,false,Rx,0,8,00,00,00,00,9A,01,C8,00,
38124676,00000101,false,Rx,0,8,00,FF,FE,00,00,00,00,00,
38124916,00000102,false,Rx,0,8,01,90,01,00,00,01,64,00,
38183122,00000108,false,Rx,0,8,01,F4,01,5A,9A,01,00,00,
38183368,00000109,false,Rx,0,8,01,C1,01,05,00,24,FF,FE,
38211355,00000527,false,Rx,0,6,06,07,AE,0C,01,00,00,00,
38224420,00000100,false,Rx,0,8,00,00,00,00,9A,01,C8,00,
38224673,00000101,false,Rx,0,8,00,FF,FE,00,00,00,00,00,
38224914,00000102,false,Rx,0,8,01,90,01,00,00,01,64,00,
38236439,00000521,false,Rx,0,6,00,04,38,FE,FF,FF,00,00,
38275965,00000522,false,Rx,0,6,01,0A,5A,C9,05,00,00,00,
38283112,00000108,false,Rx,0,8,01,F4,01,5A,9A,01,00,00,
38283358,00000109,false,Rx,0,8,01,41,01,05,00,24,FF,FE,
38317777,00000524,false,Rx,0,6,03,0D,EE,FF,FF,FF,00,00,
38324424,00000100,false,Rx,0,8,00,00,00,00,9A,01,C8,00,
38324671,00000101,false,Rx,0,8,00,FF,FE,00,00,00,00,00,
38324912,00000102,false,Rx,0,8,01,90,01,00,00,01,64,00,
38383114,00000108,false,Rx,0,8,01,F4,01,5A,9A,01,00,00,
38383360,00000109,false,Rx,0,8,01,70,00,05,00,24,FF,FE,
38424418,00000100,false,Rx,0,8,00,00,00,00,9A,01,C8,00,
38424670,00000101,false,Rx,0,8,00,FF,FE,00,00,00,00,00,
38424912,00000102,false,Rx,0,8,01,90,01,00,00,01,64,00,
38464448,00000525,false,Rx,0,6,04,0A,1E,01,00,00,00,00,
38483114,00000108,false,Rx,0,8,01,F4,01,5A,9A,01,00,00,
38483360,00000109,false,Rx,0,8,01,27,00,05,00,24,FF,FE,
38498657,00000528,false,Rx,0,6,07,07,23,1C,00,00,00,00,
38524416,00000100,false,Rx,0,8,00,00,00,00,9A,01,C8,00,
38524662,00000101,false,Rx,0,8,00,FF,FE,00,00,00,00,00,
38524909,00000102,false,Rx,0,8,01,90,01,00,00,01,64,00,
38583120,00000108,false,Rx,0,8,01,F4,01,5A,9A,01,00,00,
38583360,00000109,false,Rx,0,8,01,10,00,05,00,24,FF,FE,
38609403,00000523,false,Rx,0,6,02,08,FA,FF,FF,FF,00,00,
38624414,00000100,false,Rx,0,8,00,00,00,00,9A,01,C8,00,
38624667,00000101,false,Rx,0,8,00,FF,FE,00,00,00,00,00,
38624909,00000102,false,Rx,0,8,01,90,01,00,00,01,64,00,
38683118,00000108,false,Rx,0,8,01,F4,01,5A,9A,01,00,00,
38683364,00000109,false,Rx,0,8,01,09,00,05,00,24,FF,FE,
38724416,00000100,false,Rx,0,8,00,00,00,00,9A,01,C8,00,
38724663,00000101,false,Rx,0,8,00,FF,FE,00,00,00,00,00,
38724910,00000102,false,Rx,0,8,01,90,01,00,00,01,64,00,
38782159,00000526,false,Rx,0,6,05,0E,AB,00,00,00,00,00,
38783122,00000108,false,Rx,0,8,01,F4,01,5A,9A,01,00,00,
38783362,00000109,false,Rx,0,8,01,06,00,05,00,24,FF,FE,
38824409,00000100,false,Rx,0,8,00,00,00,00,9A,01,C8,00,
38824662,00000101,false,Rx,0,8,00,FF,FE,00,00,00,00,00,
38824903,00000102,false,Rx,0,8,01,90,01,00,00,01,64,00,
38847133,00000521,false,Rx,0,6,00,05,3A,FE,FF,FF,00,00,
38883121,00000108,false,Rx,0,8,01,F4,01,5A,9A,01,00,00,
38883360,00000109,false,Rx,0,8,01,06,00,05,00,24,FF,FE,
38904395,00000522,false,Rx,0,6,01,0B,62,C9,05,00,00,00,
38924408,00000100,false,Rx,0,8,00,00,00,00,9A,01,C8,00,
38924661,00000101,false,Rx,0,8,00,FF,FE,00,00,00,00,00,
38924903,00000102,false,Rx,0,8,01,90,01,00,00,01,64,00,
38930590,00000527,false,Rx,0,6,06,08,AE,0C,01,00,00,00,
38982763,00000524,false,Rx,0,6,03,0E,03,00,00,00,00,00,
38983121,00000108,false,Rx,0,8,01,F4,01,5A,9A,01,00,00,
38983367,00000109,false,Rx,0,8,01,06,00,05,00,24,FF,FE,
39024406,00000100,false,Rx,0,8,00,00,00,00,9A,01,C8,00,
39024653,00000101,false,Rx,0,8,00,FF,FE,00,00,00,00,00,
39024901,00000102,false,Rx,0,8,01,90,01,00,00,01,64,00,
39083124,00000108,false,Rx,0,8,01,F4,01,5A,9A,01,00,00,
39083370,00000109,false,Rx,0,8,01,06,00,05,00,24,FF,FE,
39124403,00000100,false,Rx,0,8,00,00,00,00,9A,01,C8,00,
39124651,00000101,false,Rx,0,8,00,FF,FE,00,00,00,00,00,
39124898,00000102,false,Rx,0,8,01,90,01,00,00,01,64,00,
39147513,00000525,false,Rx,0,6,04,0B,1E,01,00,00,00,00,
39183124,00000108,false,Rx,0,8,01,F4,01,5A,9A,01,00,00,
39183370,00000109,false,Rx,0,8,01,06,00,05,00,24,FF,FE,
39224399,00000100,false,Rx,0,8,00,00,00,00,9A,01,C8,00,
39224652,00000101,false,Rx,0,8,00,FF,FE,00,00,00,00,00,
39224893,00000102,false,Rx,0,8,01,90,01,00,00,01,64,00,
39235959,00000528,false,Rx,0,6,07,08,23,1C,00,00,00,00,
39255995,00000523,false,Rx,0,6,02,09,F8,FF,FF,FF,00,00,
39283128,00000108,false,Rx,0,8,01,F4,01,5A,9A,01,00,00,
39283368,00000109,false,Rx,0,8,01,06,00,05,00,24,FF,FE,
39324398,00000100,false,Rx,0,8,00,00,00,00,9A,01,C8,00,
39324651,00000101,false,Rx,0,8,00,FF,FE,00,00,00,00,00,
39324892,00000102,false,Rx,0,8,01,90,01,00,00,01,64,00,
39383136,00000108,false,Rx,0,8,01,F4,01,5A,9A,01,00,00,
39383376,00000109,false,Rx,0,8,01,06,00,05,00,24,FF,FE,
39424395,00000100,false,Rx,0,8,00,00,00,00,9A,01,C8,00,
39424648,00000101,false,Rx,0,8,00,FF,FE,00,00,00,00,00,
39424889,00000102,false,Rx,0,8,01,90,01,00,00,01,64,00,
39457877,00000521,false,Rx,0,6,00,06,3A,FE,FF,FF,00,00,
39483130,00000108,false,Rx,0,8,01,F4,01,5A,9A,01,00,00,
39483369,00000109,false,Rx,0,8,01,06,00,05,00,24,FF,FE,
39483578,00000526,false,Rx,0,6,05,0F,95,00,00,00,00,00,
39524396,00000100,false,Rx,0,8,00,00,00,00,9A,01,C8,00,
39524649,00000101,false,Rx,0,8,00,FF,FE,00,00,00,00,00,
39524890,00000102,false,Rx,0,8,01,90,01,00,00,01,64,00,
39533212,00000522,false,Rx,0,6,01,0C,6D,C9,05,00,00,00,
39583133,00000108,false,Rx,0,8,01,F4,01,5A,9A,01,00,00,
39583373,00000109,false,Rx,0,8,01,06,00,05,00,24,FF,FE,
39624395,00000100,false,Rx,0,8,00,00,00,00,9A,01,C8,00,
39624642,00000101,false,Rx,0,8,00,FF,FE,00,00,00,00,00,
39624889,00000102,false,Rx,0,8,01,90,01,00,00,01,64,00,
39647764,00000524,false,Rx,0,6,03,0F,F9,FF,FF,FF,00,00,
39649822,00000527,false,Rx,0,6,06,09,AF,0C,01,00,00,00,
39683130,00000108,false,Rx,0,8,01,F4,01,5A,9A,01,00,00,
39683376,00000109,false,Rx,0,8,01,06,00,05,00,24,FF,FE,
39724391,00000100,false,Rx,0,8,00,00,00,00,9A,01,C8,00,
39724645,00000101,false,Rx,0,8,00,FF,FE,00,00,00,00,00,
39724886,00000102,false,Rx,0,8,01,90,01,00,00,01,64,00,
39783133,00000108,false,Rx,0,8,01,F4,01,5A,9A,01,00,00,
39783373,00000109,false,Rx,0,8,01,06,00,05,00,24,FF,FE,
39824388,00000100,false,Rx,0,8,00,00,00,00,9A,01,C8,00,
39824644,00000101,false,Rx,0,8,00,FF,FE,00,00,00,00,00,
39824886,00000102,false,Rx,0,8,01,90,01,00,00,01,64,00,
39830579,00000525,false,Rx,0,6,04,0C,1E,01,00,00,00,00,
39883137,00000108,false,Rx,0,8,01,F4,01,5A,9A,01,00,00,
39883377,00000109,false,Rx,0,8,01,06,00,05,00,24,FF,FE,
39903179,00000523,false,Rx,0,6,02,0A,F8,FF,FF,FF,00,00,
39924385,00000100,false,Rx,0,8,00,00,00,00,9A,01,C8,00,
39924640,00000101,false,Rx,0,8,00,FF,FE,00,00,00,00,00,
39924882,00000102,false,Rx,0,8,01,90,01,00,00,01,64,00,
39973540,00000528,false,Rx,0,6,07,09,23,1C,00,00,00,00,
39983137,00000108,false,Rx,0,8,01,F4,01,5A,9A,01,00,00,
39983377,00000109,false,Rx,0,8,01,06,00,05,00,24,FF,FE,
40024387,00000100,false,Rx,0,8,00,00,00,00,9A,01,C8,00,
40024638,00000101,false,Rx,0,8,00,FF,FE,00,00,00,00,00,
40024879,00000102,false,Rx,0,8,01,90,01,00,00,01,64,00,
40068633,00000521,false,Rx,0,6,00,07,3D,FE,FF,FF,00,00,
40083136,00000108,false,Rx,0,8,01,F4,01,5A,9A,01,00,00,
40083382,00000109,false,Rx,0,8,01,06,00,05,00,24,FF,FE,
40124383,00000100,false,Rx,0,8,00,00,00,00,9A,01,C8,00,
40124638,00000101,false,Rx,0,8,00,FF,FE,00,00,00,00,00,
40124880,00000102,false,Rx,0,8,01,90,01,00,00,01,64,00,
40162049,00000522,false,Rx,0,6,01,0D,7A,C9,05,00,00,00,
40183142,00000108,false,Rx,0,8,01,F4,01,5A,9A,01,00,00,
40183382,00000109,false,Rx,0,8,01,06,00,05,00,24,FF,FE,
40184475,00000526,false,Rx,0,6,05,00,A4,00,00,00,00,00,
40224377,00000100,false,Rx,0,8,00,00,00,00,9A,01,C8,00,
40224631,00000101,false,Rx,0,8,00,FF,FE,00,00,00,00,00,
40224871,00000102,false,Rx,0,8,01,90,01,00,00,01,64,00,
40283145,00000108,false,Rx,0,8,01,F4,01,5A,9A,01,00,00,
40283384,00000109,false,Rx,0,8,01,06,00,05,00,24,FF,FE,
40312739,00000524,false,Rx,0,6,03,00,F6,FF,FF,FF,00,00,
40324381,00000100,false,Rx,0,8,00,00,00,00,9A,01,C8,00,
40324631,00000101,false,Rx,0,8,00,FF,FE,00,00,00,00,00,
40324873,00000102,false,Rx,0,8,01,90,01,00,00,01,64,00,
40369306,00000527,false,Rx,0,6,06,0A,AF,0C,01,00,00,00,
40383143,00000108,false,Rx,0,8,01,F4,01,5A,9A,01,00,00,
40383382,00000109,false,Rx,0,8,01,06,00,05,00,24,FF,FE,
40424374,00000100,false,Rx,0,8,00,00,00,00,9A,01,C8,00,
40424632,00000101,false,Rx,0,8,00,FF,FE,00,00,00,00,00,
40424866,00000102,false,Rx,0,8,01,90,01,00,00,01,64,00,
40483143,00000108,false,Rx,0,8,01,F4,01,5A,9A,01,00,00,
40483382,00000109,false,Rx,0,8,01,06,00,05,00,24,FF,FE,
40513660,00000525,false,Rx,0,6,04,0D,1E,01,00,00,00,00,
40524377,00000100,false,Rx,0,8,00,00,00,00,9A,01,C8,00,
40524630,00000101,false,Rx,0,8,00,FF,FE,00,00,00,00,00,
40524865,00000102,false,Rx,0,8,01,90,01,00,00,01,64,00,
40549813,00000523,false,Rx,0,6,02,0B,E9,FF,FF,FF,00,00,
40583142,00000108,false,Rx,0,8,01,F4,01,5A,9A,01,00,00,
40583388,00000109,false,Rx,0,8,01,06,00,05,00,24,FF,FE,
40624371,00000100,false,Rx,0,8,00,00,00,00,9A,01,C8,00,
40624621,00000101,false,Rx,0,8,00,FF,FE,00,00,00,00,00,
40624869,00000102,false,Rx,0,8,01,90,01,00,00,01,64,00,
40679383,00000521,false,Rx,0,6,00,08,3A,FE,FF,FF,00,00,
40683148,00000108,false,Rx,0,8,01,F4,01,5A,9A,01,00,00,
40683395,00000109,false,Rx,0,8,01,06,00,05,00,24,FF,FE,
40710589,00000528,false,Rx,0,6,07,0A,23,1C,00,00,00,00,
40724367,00000100,false,Rx,0,8,00,00,00,00,9A,01,C8,00,
40724620,00000101,false,Rx,0,8,00,FF,FE,00,00,00,00,00,
40724861,00000102,false,Rx,0,8,01,90,01,00,00,01,64,00,
40783147,00000108,false,Rx,0,8,01,F4,01,5A,9A,01,00,00,
40783387,00000109,false,Rx,0,8,01,06,00,05,00,24,FF,FE,
40790874,00000522,false,Rx,0,6,01,0E,71,C9,05,00,00,00,
40824371,00000100,false,Rx,0,8,00,00,00,00,9A,01,C8,00,
40824618,00000101,false,Rx,0,8,00,FF,FE,00,00,00,00,00,
40824866,00000102,false,Rx,0,8,01,90,01,00,00,01,64,00,
40883150,00000108,false,Rx,0,8,01,F4,01,5A,9A,01,00,00,
40883389,00000109,false,Rx,0,8,01,06,00,05,00,24,FF,FE,
40885456,00000526,false,Rx,0,6,05,01,A7,00,00,00,00,00,
40924368,00000100,false,Rx,0,8,00,00,00,00,9A,01,C8,00,
40924614,00000101,false,Rx,0,8,00,FF,FE,00,00,00,00,00,
40924863,00000102,false,Rx,0,8,01,90,01,00,00,01,64,00,
40977734,00000524,false,Rx,0,6,03,01,ED,FF,FF,FF,00,00,
40983148,00000108,false,Rx,0,8,01,F4,01,5A,9A,01,00,00,
40983394,00000109,false,Rx,0,8,01,06,00,05,00,24,FF,FE,
41024363,00000100,false,Rx,0,8,00,00,00,00,9A,01,C8,00,
41024616,00000101,false,Rx,0,8,00,FF,FE,00,00,00,00,00,
41024857,00000102,false,Rx,0,8,01,90,01,00,00,01,64,00,
41083149,00000108,false,Rx,0,8,01,F4,01,5A,9A,01,00,00,
41083395,00000109,false,Rx,0,8,01,06,00,05,00,24,FF,FE,
41088293,00000527,false,Rx,0,6,06,0B,AF,0C,01,00,00,00,
41124364,00000100,false,Rx,0,8,00,00,00,00,9A,01,C8,00,
41124612,00000101,false,Rx,0,8,00,FF,FE,00,00,00,00,00,
41124853,00000102,false,Rx,0,8,01,90,01,00,00,01,64,00,
41183156,00000108,false,Rx,0,8,01,F4,01,5A,9A,01,00,00,
41183397,00000109,false,Rx,0,8,01,06,00,05,00,24,FF,FE,
41196758,00000523,false,Rx,0,6,02,0C,FA,FF,FF,FF,00,00,
41196975,00000525,false,Rx,0,6,04,0E,1E,01,00,00,00,00,
41224362,00000100,false,Rx,0,8,00,00,00,00,9A,01,C8,00,
41224609,00000101,false,Rx,0,8,00,FF,FE,00,00,00,00,00,
41224851,00000102,false,Rx,0,8,01,90,01,00,00,01,64,00,
41283150,00000108,false,Rx,0,8,01,F4,01,5A,9A,01,00,00,
41283396,00000109,false,Rx,0,8,01,06,00,05,00,24,FF,FE,
41290653,00000521,false,Rx,0,6,00,09,3C,FE,FF,FF,00,00,
41324355,00000100,false,Rx,0,8,00,00,00,00,9A,01,C8,00,
41324608,00000101,false,Rx,0,8,00,FF,FE,00,00,00,00,00,
41324850,00000102,false,Rx,0,8,01,90,01,00,00,01,64,00,
41383155,00000108,false,Rx,0,8,01,F4,01,5A,9A,01,00,00,
41383394,00000109,false,Rx,0,8,01,06,00,05,00,24,FF,FE,
41419714,00000522,false,Rx,0,6,01,0F,6D,C9,05,00,00,00,
41424353,00000100,false,Rx,0,8,00,00,00,00,9A,01,C8,00,
41424606,00000101,false,Rx,0,8,00,FF,FE,00,00,00,00,00,
41424853,00000102,false,Rx,0,8,01,90,01,00,00,01,64,00,
41447911,00000528,false,Rx,0,6,07,0B,23,1C,00,00,00,00,
41483157,00000108,false,Rx,0,8,01,F4,01,5A,9A,01,00,00,
41483397,00000109,false,Rx,0,8,01,06,00,05,00,24,FF,FE,
41524354,00000100,false,Rx,0,8,00,00,00,00,9A,01,C8,00,
41524600,00000101,false,Rx,0,8,00,FF,FE,00,00,00,00,00,
41524848,00000102,false,Rx,0,8,01,90,01,00,00,01,64,00,
41583156,00000108,false,Rx,0,8,01,F4,01,5A,9A,01,00,00,
41583403,00000109,false,Rx,0,8,01,06,00,05,00,24,FF,FE,
41586813,00000526,false,Rx,0,6,05,02,A1,00,00,00,00,00,
41624352,00000100,false,Rx,0,8,00,00,00,00,9A,01,C8,00,
41624604,00000101,false,Rx,0,8,00,FF,FE,00,00,00,00,00,
41624851,00000102,false,Rx,0,8,01,90,01,00,00,01,64,00,
41642719,00000524,false,Rx,0,6,03,02,ED,FF,FF,FF,00,00,
41683162,00000108,false,Rx,0,8,01,F4,01,5A,9A,01,00,00,
41683401,00000109,false,Rx,0,8,01,06,00,05,00,24,FF,FE,
41724353,00000100,false,Rx,0,8,00,00,00,00,9A,01,C8,00,
41724598,00000101,false,Rx,0,8,00,FF,FE,00,00,00,00,00,
41724846,00000102,false,Rx,0,8,01,90,01,00,00,01,64,00,
41783161,00000108,false,Rx,0,8,01,F4,01,5A,9A,01,00,00,
41783400,00000109,false,Rx,0,8,01,06,00,05,00,24,FF,FE,
41807525,00000527,false,Rx,0,6,06,0C,B0,0C,01,00,00,00,
41824346,00000100,false,Rx,0,8,00,00,00,00,9A,01,C8,00,
41824598,00000101,false,Rx,0,8,00,FF,FE,00,00,00,00,00,
41824846,00000102,false,Rx,0,8,01,90,01,00,00,01,64,00,
41843631,00000523,false,Rx,0,6,02,0D,FA,FF,FF,FF,00,00,
41879796,00000525,false,Rx,0,6,04,0F,1E,01,00,00,00,00,
41883162,00000108,false,Rx,0,8,01,F4,01,5A,9A,01,00,00,
41883401,00000109,false,Rx,0,8,01,06,00,05,00,24,FF,FE,
41900859,00000521,false,Rx,0,6,00,0A,49,FE,FF,FF,00,00,
41924345,00000100,false,Rx,0,8,00,00,00,00,9A,01,C8,00,
41924597,00000101,false,Rx,0,8,00,FF,FE,00,00,00,00,00,
41924840,00000102,false,Rx,0,8,01,90,01,00,00,01,64,00,
41983162,00000108,false,Rx,0,8,01,F4,01,5A,9A,01,00,00,
41983408,00000109,false,Rx,0,8,01,06,00,05,00,24,FF,FE,
42024341,00000100,false,Rx,0,8,00,00,00,00,9A,01,C8,00,
42024593,00000101,false,Rx,0,8,00,FF,FE,00,00,00,00,00,
42024842,00000102,false,Rx,0,8,01,90,01,00,00,01,64,00,
42048526,00000522,false,Rx,0,6,01,00,5E,C9,05,00,00,00,
42083161,00000108,false,Rx,0,8,01,F4,01,5A,9A,01,00,00,
42083407,00000109,false,Rx,0,8,01,06,00,05,00,24,FF,FE,
42124344,00000100,false,Rx,0,8,00,00,00,00,9A,01,C8,00,
42124589,00000101,false,Rx,0,8,00,FF,FE,00,00,00,00,00,
42124843,00000102,false,Rx,0,8,01,90,01,00,00,01,64,00,
42183167,00000108,false,Rx,0,8,01,F4,01,5A,9A,01,00,00,
42183407,00000109,false,Rx,0,8,01,06,00,05,00,24,FF,FE,
42185216,00000528,false,Rx,0,6,07,0C,23,1C,00,00,00,00,
42224335,00000100,false,Rx,0,8,00,00,00,00,9A,01,C8,00,
42224587,00000101,false,Rx,0,8,00,FF,FE,00,00,00,00,00,
42224840,00000102,false,Rx,0,8,01,90,01,00,00,01,64,00,
42283168,00000108,false,Rx,0,8,01,F4,01,5A,9A,01,00,00,
42283408,00000109,false,Rx,0,8,01,06,00,05,00,24,FF,FE,
42287946,00000526,false,Rx,0,6,05,03,9F,00,00,00,00,00,
42307720,00000524,false,Rx,0,6,03,03,F7,FF,FF,FF,00,00,
42324333,00000100,false,Rx,0,8,00,00,00,00,9A,01,C8,00,
42324585,00000101,false,Rx,0,8,00,FF,FE,00,00,00,00,00,
42324839,00000102,false,Rx,0,8,01,90,01,00,00,01,64,00,
42383171,00000108,false,Rx,0,8,01,F4,01,5A,9A,01,00,00,
42383417,00000109,false,Rx,0,8,01,06,00,05,00,24,FF,FE,
42424332,00000100,false,Rx,0,8,00,00,00,00,9A,01,C8,00,
42424585,00000101,false,Rx,0,8,00,FF,FE,00,00,00,00,00,
42424834,00000102,false,Rx,0,8,01,90,01,00,00,01,64,00,
42483170,00000108,false,Rx,0,8,01,F4,01,5A,9A,01,00,00,
42483409,00000109,false,Rx,0,8,01,06,00,05,00,24,FF,FE,
42490522,00000523,false,Rx,0,6,02,0E,02,00,00,00,00,00,
42511631,00000521,false,Rx,0,6,00,0B,3E,FE,FF,FF,00,00,
42524334,00000100,false,Rx,0,8,00,00,00,00,9A,01,C8,00,
42524580,00000101,false,Rx,0,8,00,FF,FE,00,00,00,00,00,
42524834,00000102,false,Rx,0,8,01,90,01,00,00,01,64,00,
42527074,00000527,false,Rx,0,6,06,0D,B0,0C,01,00,00,00,
42562872,00000525,false,Rx,0,6,04,00,1E,01,00,00,00,00,
42583174,00000108,false,Rx,0,8,01,F4,01,5A,9A,01,00,00,
42583413,00000109,false,Rx,0,8,01,06,00,05,00,24,FF,FE,
42624333,00000100,false,Rx,0,8,00,00,00,00,9A,01,C8,00,
42624579,00000101,false,Rx,0,8,00,FF,FE,00,00,00,00,00,
42624833,00000102,false,Rx,0,8,01,90,01,00,00,01,64,00,
42677393,00000522,false,Rx,0,6,01,01,72,C9,05,00,00,00,
42683174,00000108,false,Rx,0,8,01,F4,01,5A,9A,01,00,00,
42683414,00000109,false,Rx,0,8,01,06,00,05,00,24,FF,FE,
42724327,00000100,false,Rx,0,8,00,00,00,00,9A,01,C8,00,
42724579,00000101,false,Rx,0,8,00,FF,FE,00,00,00,00,00,
42724818,00000102,false,Rx,0,8,01,90,01,00,00,01,64,00,
42783181,00000108,false,Rx,0,8,01,F4,01,5A,9A,01,00,00,
42783415,00000109,false,Rx,0,8,01,06,00,05,00,24,FF,FE,
42824324,00000100,false,Rx,0,8,00,00,00,00,9A,01,C8,00,
42824577,00000101,false,Rx,0,8,00,FF,FE,00,00,00,00,00,
42824818,00000102,false,Rx,0,8,01,90,01,00,00,01,64,00,
42883177,00000108,false,Rx,0,8,01,F4,01,5A,9A,01,00,00,
42883417,00000109,false,Rx,0,8,01,06,00,05,00,24,FF,FE,
42922525,00000528,false,Rx,0,6,07,0D,23,1C,00,00,00,00,
42924322,00000100,false,Rx,0,8,00,00,00,00,9A,01,C8,00,
42924573,00000101,false,Rx,0,8,00,FF,FE,00,00,00,00,00,
42924822,00000102,false,Rx,0,8,01,90,01,00,00,01,64,00,
42972682,00000524,false,Rx,0,6,03,04,F2,FF,FF,FF,00,00,
42983173,00000108,false,Rx,0,8,01,F4,01,5A,9A,01,00,00,
42983419,00000109,false,Rx,0,8,01,06,00,05,00,24,FF,FE,
42989053,00000526,false,Rx,0,6,05,04,AE,00,00,00,00,00,
43024325,00000100,false,Rx,0,8,00,00,00,00,9A,01,C8,00,
43024570,00000101,false,Rx,0,8,00,FF,FE,00,00,00,00,00,
43024824,00000102,false,Rx,0,8,01,90,01,00,00,01,64,00,
43083180,00000108,false,Rx,0,8,01,F4,01,5A,9A,01,00,00,
43083420,00000109,false,Rx,0,8,01,06,00,05,00,24,FF,FE,
43122334,00000521,false,Rx,0,6,00,0C,3D,FE,FF,FF,00,00,
43124322,00000100,false,Rx,0,8,00,00,00,00,9A,01,C8,00,
43124567,00000101,false,Rx,0,8,00,FF,FE,00,00,00,00,00,
43124821,00000102,false,Rx,0,8,01,90,01,00,00,01,64,00,
43137420,00000523,false,Rx,0,6,02,0F,F4,FF,FF,FF,00,00,
43183179,00000108,false,Rx,0,8,01,F4,01,5A,9A,01,00,00,
43183418,00000109,false,Rx,0,8,01,06,00,05,00,24,FF,FE,
43224319,00000100,false,Rx,0,8,00,00,00,00,9A,01,C8,00,
43224571,00000101,false,Rx,0,8,00,FF,FE,00,00,00,00,00,
43224818,00000102,false,Rx,0,8,01,90,01,00,00,01,64,00,
43246241,00000525,false,Rx,0,6,04,01,1E,01,00,00,00,00,
43246462,00000527,false,Rx,0,6,06,0E,B0,0C,01,00,00,00,
43283181,00000108,false,Rx,0,8,01,F4,01,5A,9A,01,00,00,
43283420,00000109,false,Rx,0,8,01,06,00,05,00,24,FF,FE,
43306162,00000522,false,Rx,0,6,01,02,6B,C9,05,00,00,00,
43324312,00000100,false,Rx,0,8,00,00,00,00,9A,01,C8,00,
43324564,00000101,false,Rx,0,8,00,FF,FE,00,00,00,00,00,
43324818,00000102,false,Rx,0,8,01,90,01,00,00,01,64,00,
43383183,00000108,false,Rx,0,8,01,F4,01,5A,9A,01,00,00,
43383422,00000109,false,Rx,0,8,01,06,00,05,00,24,FF,FE,
43424316,00000100,false,Rx,0,8,00,00,00,00,9A,01,C8,00,
43424561,00000101,false,Rx,0,8,00,FF,FE,00,00,00,00,00,
43424816,00000102,false,Rx,0,8,01,90,01,00,00,01,64,00,
43483186,00000108,false,Rx,0,8,01,F4,01,5A,9A,01,00,00,
43483426,00000109,false,Rx,0,8,01,06,00,05,00,24,FF,FE,
43524311,00000100,false,Rx,0,8,00,00,00,00,9A,01,C8,00,
43524563,00000101,false,Rx,0,8,00,FF,FE,00,00,00,00,00,
43524818,00000102,false,Rx,0,8,01,90,01,00,00,01,64,00,
43583182,00000108,false,Rx,0,8,01,F4,01,5A,9A,01,00,00,
43583435,00000109,false,Rx,0,8,01,00,01,05,00,24,FF,FE,
43624309,00000100,false,Rx,0,8,00,00,00,00,9A,01,C8,00,
43624561,00000101,false,Rx,0,8,00,FF,FE,00,00,00,00,00,
43624801,00000102,false,Rx,0,8,01,90,01,00,00,01,64,00,
43637681,00000524,false,Rx,0,6,03,05,F2,FF,FF,FF,00,00,
43659837,00000528,false,Rx,0,6,07,0E,23,1C,00,00,00,00,
43683198,00000108,false,Rx,0,8,01,F4,01,5A,9A,01,00,00,
43683437,00000109,false,Rx,0,8,01,55,01,05,00,24,FF,FE,
43690047,00000526,false,Rx,0,6,05,05,BC,00,00,00,00,00,
43724312,00000100,false,Rx,0,8,00,00,00,00,9A,01,C8,00,
43724558,00000101,false,Rx,0,8,00,FF,FE,00,00,00,00,00,
43724813,00000102,false,Rx,0,8,01,90,01,00,00,01,64,00,
43733401,00000521,false,Rx,0,6,00,0D,32,FE,FF,FF,00,00,
43783186,00000108,false,Rx,0,8,01,F4,01,5A,9A,01,00,00,
43783432,00000109,false,Rx,0,8,01,6E,01,05,00,24,FF,FE,
43784334,00000523,false,Rx,0,6,02,00,F4,FF,FF,FF,00,00,
43824306,00000100,false,Rx,0,8,00,00,00,00,9A,01,C8,00,
43824558,00000101,false,Rx,0,8,00,FF,FE,00,00,00,00,00,
43824800,00000102,false,Rx,0,8,01,90,01,00,00,01,64,00,
43883189,00000108,false,Rx,0,8,01,F4,01,5A,9A,01,00,00,
43883429,00000109,false,Rx,0,8,01,77,01,05,00,24,FF,FE,
43924302,00000100,false,Rx,0,8,00,00,00,00,9A,01,C8,00,
43924554,00000101,false,Rx,0,8,00,FF,FE,00,00,00,00,00,
43924802,00000102,false,Rx,0,8,01,90,01,00,00,01,64,00,
43928990,00000525,false,Rx,0,6,04,02,1E,01,00,00,00,00,
43934995,00000522,false,Rx,0,6,01,03,6E,C9,05,00,00,00,
43965201,00000527,false,Rx,0,6,06,0F,B1,0C,01,00,00,00,
43983192,00000108,false,Rx,0,8,01,F4,01,5A,9A,01,00,00,
43983431,00000109,false,Rx,0,8,01,7A,01,05,00,24,FF,FE,
44024301,00000100,false,Rx,0,8,00,00,00,00,9A,01,C8,00,
44024553,00000101,false,Rx,0,8,00,FF,FE,00,00,00,00,00,
44024794,00000102,false,Rx,0,8,01,90,01,00,00,01,64,00,
44083192,00000108,false,Rx,0,8,01,F4,01,5A,9A,01,00,00,
44083431,00000109,false,Rx,0,8,01,7B,01,05,00,24,FF,FE,
44124300,00000100,false,Rx,0,8,00,00,00,00,9A,01,C8,00,
44124546,00000101,false,Rx,0,8,00,FF,FE,00,00,00,00,00,
44124793,00000102,false,Rx,0,8,01,90,01,00,00,01,64,00,
44183192,00000108,false,Rx,0,8,01,F4,01,5A,9A,01,00,00,
44183438,00000109,false,Rx,0,8,01,7B,01,05,00,24,FF,FE,
44224297,00000100,false,Rx,0,8,00,00,00,00,9A,01,C8,00,
44224549,00000101,false,Rx,0,8,00,FF,FE,00,00,00,00,00,
44224789,00000102,false,Rx,0,8,01,90,01,00,00,01,64,00,
44283192,00000108,false,Rx,0,8,01,F4,01,5A,9A,01,00,00,
44283438,00000109,false,Rx,0,8,01,7C,01,05,00,24,FF,FE,
44302927,00000524,false,Rx,0,6,03,06,ED,FF,FF,FF,00,00,
44324297,00000100,false,Rx,0,8,00,00,00,00,9A,01,C8,00,
44324543,00000101,false,Rx,0,8,00,FF,FE,00,00,00,00,00,
44324790,00000102,false,Rx,0,8,01,90,01,00,00,01,64,00,
44343825,00000521,false,Rx,0,6,00,0E,1D,FE,FF,FF,00,00,
44383198,00000108,false,Rx,0,8,01,F4,01,5A,9A,01,00,00,
44383438,00000109,false,Rx,0,8,01,7B,01,05,00,24,FF,FE,
44391359,00000526,false,Rx,0,6,05,06,BF,00,00,00,00,00,
44397135,00000528,false,Rx,0,6,07,0F,23,1C,00,00,00,00,
44424290,00000100,false,Rx,0,8,00,00,00,00,9A,01,C8,00,
44424543,00000101,false,Rx,0,8,00,FF,FE,00,00,00,00,00,
44424783,00000102,false,Rx,0,8,01,90,01,00,00,01,64,00,
44431220,00000523,false,Rx,0,6,02,01,DC,FF,FF,FF,00,00,
44483198,00000108,false,Rx,0,8,01,F4,01,5A,9A,01,00,00,
44483444,00000109,false,Rx,0,8,01,7C,01,05,00,24,FF,FE,
44524294,00000100,false,Rx,0,8,00,00,00,00,9A,01,C8,00,
44524539,00000101,false,Rx,0,8,00,FF,FE,00,00,00,00,00,
44524786,00000102,false,Rx,0,8,01,90,01,00,00,01,64,00,
44563798,00000522,false,Rx,0,6,01,04,78,C9,05,00,00,00,
44583197,00000108,false,Rx,0,8,01,F4,01,5A,9A,01,00,00,
44583443,00000109,false,Rx,0,8,01,7C,01,05,00,24,FF,FE,
44612043,00000525,false,Rx,0,6,04,03,1E,01,00,00,00,00,
44624286,00000100,false,Rx,0,8,00,00,00,00,9A,01,C8,00,
44624538,00000101,false,Rx,0,8,00,FF,FE,00,00,00,00,00,
44624785,00000102,false,Rx,0,8,01,90,01,00,00,01,64,00,
44683199,00000108,false,Rx,0,8,01,F4,01,5A,9A,01,00,00,
44683445,00000109,false,Rx,0,8,01,7C,01,05,00,24,FF,FE,
44684420,00000527,false,Rx,0,6,06,00,B1,0C,01,00,00,00,
44724287,00000100,false,Rx,0,8,00,00,00,00,9A,01,C8,00,
44724540,00000101,false,Rx,0,8,00,FF,FE,00,00,00,00,00,
44724782,00000102,false,Rx,0,8,01,90,01,00,00,01,64,00,
44783198,00000108,false,Rx,0,8,01,F4,01,5A,9A,01,00,00,
44783444,00000109,false,Rx,0,8,01,7C,01,05,00,24,FF,FE,
44824288,00000100,false,Rx,0,8,00,00,00,00,9A,01,C8,00,
44824534,00000101,false,Rx,0,8,00,FF,FE,00,00,00,00,00,
44824781,00000102,false,Rx,0,8,01,90,01,00,00,01,64,00,
44883202,00000108,false,Rx,0,8,01,F4,01,5A,9A,01,00,00,
44883448,00000109,false,Rx,0,8,01,7C,01,05,00,24,FF,FE,
44924280,00000100,false,Rx,0,8,00,00,00,00,9A,01,C8,00,
44924532,00000101,false,Rx,0,8,00,FF,FE,00,00,00,00,00,
44924780,00000102,false,Rx,0,8,01,90,01,00,00,01,64,00,
44954557,00000521,false,Rx,0,6,00,0F,1C,FE,FF,FF,00,00,
