Time Stamp,ID,Extended,Dir,Bus,LEN,D1,D2,D3,D4,D5,D6,D7,D8
4038392,00000526,false,Rx,0,6,05,02,05,00,00,00,00,00,
4050174,00000525,false,Rx,0,6,04,04,90,00,00,00,00,00,
4154985,00000524,false,Rx,0,6,03,0C,EC,FF,FF,FF,00,00,
4269878,00000522,false,Rx,0,6,01,05,70,73,05,00,00,00,
4370675,00000521,false,Rx,0,6,00,0A,F7,FF,FF,FF,00,00,
4453337,00000523,false,Rx,0,6,02,0C,EB,FF,FF,FF,00,00,
4594779,00000527,false,Rx,0,6,06,05,3B,A9,00,00,00,00,
4642911,00000528,false,Rx,0,6,07,0A,46,10,00,00,00,00,
4735584,00000525,false,Rx,0,6,04,05,90,00,00,00,00,00,
4741952,00000526,false,Rx,0,6,05,03,06,00,00,00,00,00,
4822259,00000524,false,Rx,0,6,03,0D,EF,FF,FF,FF,00,00,
4900875,00000522,false,Rx,0,6,01,06,74,73,05,00,00,00,
4983532,00000521,false,Rx,0,6,00,0B,F7,FF,FF,FF,00,00,
5102476,00000523,false,Rx,0,6,02,0D,FF,FF,FF,FF,00,00,
5316225,00000527,false,Rx,0,6,06,06,3B,A9,00,00,00,00,
5382760,00000528,false,Rx,0,6,07,0B,46,10,00,00,00,00,
5421008,00000525,false,Rx,0,6,04,06,90,00,00,00,00,00,
5445472,00000526,false,Rx,0,6,05,04,03,00,00,00,00,00,
5489536,00000524,false,Rx,0,6,03,0E,F8,FF,FF,FF,00,00,
5531857,00000522,false,Rx,0,6,01,07,76,73,05,00,00,00,
5596365,00000521,false,Rx,0,6,00,0C,FA,FF,FF,FF,00,00,
5751606,00000523,false,Rx,0,6,02,0E,FF,FF,FF,FF,00,00,
6037922,00000527,false,Rx,0,6,06,07,3B,A9,00,00,00,00,
6106418,00000525,false,Rx,0,6,04,07,90,00,00,00,00,00,
6123018,00000528,false,Rx,0,6,07,0C,46,10,00,00,00,00,
6149049,00000526,false,Rx,0,6,05,05,02,00,00,00,00,00,
6156808,00000524,false,Rx,0,6,03,0F,06,00,00,00,00,00,
6162839,00000522,false,Rx,0,6,01,08,75,73,05,00,00,00,
6209205,00000521,false,Rx,0,6,00,0D,F7,FF,FF,FF,00,00,
6400742,00000523,false,Rx,0,6,02,0F,EA,FF,FF,FF,00,00,
6759648,00000527,false,Rx,0,6,06,08,3B,A9,00,00,00,00,
6791860,00000525,false,Rx,0,6,04,08,90,00,00,00,00,00,
6793849,00000522,false,Rx,0,6,01,09,7E,73,05,00,00,00,
6822062,00000521,false,Rx,0,6,00,0E,FA,FF,FF,FF,00,00,
6824101,00000524,false,Rx,0,6,03,00,ED,FF,FF,FF,00,00,
6852463,00000526,false,Rx,0,6,05,06,01,00,00,00,00,00,
6862474,00000528,false,Rx,0,6,07,0D,46,10,00,00,00,00,
7049880,00000523,false,Rx,0,6,02,00,03,00,00,00,00,00,
7424831,00000522,false,Rx,0,6,01,0A,88,73,05,00,00,00,
7435223,00000521,false,Rx,0,6,00,0F,F9,FF,FF,FF,00,00,
7477273,00000525,false,Rx,0,6,04,09,90,00,00,00,00,00,
7481355,00000527,false,Rx,0,6,06,09,3B,A9,00,00,00,00,
7491375,00000524,false,Rx,0,6,03,01,F2,FF,FF,FF,00,00,
7556214,00000526,false,Rx,0,6,05,07,04,00,00,00,00,00,
7602311,00000528,false,Rx,0,6,07,0E,46,10,00,00,00,00,
7699005,00000523,false,Rx,0,6,02,01,03,00,00,00,00,00,
8047746,00000521,false,Rx,0,6,00,00,F3,FF,FF,FF,00,00,
8055832,00000522,false,Rx,0,6,01,0B,89,73,05,00,00,00,
8158637,00000524,false,Rx,0,6,03,02,DF,FF,FF,FF,00,00,
8162676,00000525,false,Rx,0,6,04,0A,90,00,00,00,00,00,
8203030,00000527,false,Rx,0,6,06,0A,3B,A9,00,00,00,00,
8259484,00000526,false,Rx,0,6,05,08,05,00,00,00,00,00,
8342142,00000528,false,Rx,0,6,07,0F,46,10,00,00,00,00,
8348132,00000523,false,Rx,0,6,02,02,F3,FF,FF,FF,00,00,
8660621,00000521,false,Rx,0,6,00,01,F3,FF,FF,FF,00,00,
8686791,00000522,false,Rx,0,6,01,0C,8C,73,05,00,00,00,
8825918,00000524,false,Rx,0,6,03,03,F2,FF,FF,FF,00,00,
8848110,00000525,false,Rx,0,6,04,0B,90,00,00,00,00,00,
8925002,00000527,false,Rx,0,6,06,0B,3B,A9,00,00,00,00,
8963315,00000526,false,Rx,0,6,05,09,02,00,00,00,00,00,
8997253,00000523,false,Rx,0,6,02,03,E8,FF,FF,FF,00,00,
9081993,00000528,false,Rx,0,6,07,00,46,10,00,00,00,00,
9273431,00000521,false,Rx,0,6,00,02,F7,FF,FF,FF,00,00,
9317776,00000522,false,Rx,0,6,01,0D,88,73,05,00,00,00,
9493186,00000524,false,Rx,0,6,03,04,E6,FF,FF,FF,00,00,
9533512,00000525,false,Rx,0,6,04,0C,90,00,00,00,00,00,
9646537,00000523,false,Rx,0,6,02,04,E8,FF,FF,FF,00,00,
9646758,00000527,false,Rx,0,6,06,0C,3B,A9,00,00,00,00,
9666836,00000526,false,Rx,0,6,05,0A,02,00,00,00,00,00,
9821850,00000528,false,Rx,0,6,07,01,46,10,00,00,00,00,
9886279,00000521,false,Rx,0,6,00,03,FA,FF,FF,FF,00,00,
9948783,00000522,false,Rx,0,6,01,0E,90,73,05,00,00,00,
10160465,00000524,false,Rx,0,6,03,05,E5,FF,FF,FF,00,00,
10218935,00000525,false,Rx,0,6,04,0D,90,00,00,00,00,00,
10295554,00000523,false,Rx,0,6,02,05,F6,FF,FF,FF,00,00,
10368388,00000527,false,Rx,0,6,06,0D,3B,A9,00,00,00,00,
10370431,00000526,false,Rx,0,6,05,0B,04,00,00,00,00,00,
10499124,00000521,false,Rx,0,6,00,04,FB,FF,FF,FF,00,00,
10561695,00000528,false,Rx,0,6,07,02,46,10,00,00,00,00,
10579753,00000522,false,Rx,0,6,01,0F,8D,73,05,00,00,00,
10827747,00000524,false,Rx,0,6,03,06,F9,FF,FF,FF,00,00,
10904352,00000525,false,Rx,0,6,04,0E,90,00,00,00,00,00,
10944663,00000523,false,Rx,0,6,02,06,F9,FF,FF,FF,00,00,
11073824,00000526,false,Rx,0,6,05,0C,03,00,00,00,00,00,
11090140,00000527,false,Rx,0,6,06,0E,3B,A9,00,00,00,00,
11112331,00000521,false,Rx,0,6,00,05,F8,FF,FF,FF,00,00,
11210749,00000522,false,Rx,0,6,01,00,8B,73,05,00,00,00,
11301562,00000528,false,Rx,0,6,07,03,46,10,00,00,00,00,
11495036,00000524,false,Rx,0,6,03,07,E4,FF,FF,FF,00,00,
11589789,00000525,false,Rx,0,6,04,0F,90,00,00,00,00,00,
11593810,00000523,false,Rx,0,6,02,07,F9,FF,FF,FF,00,00,
11724837,00000521,false,Rx,0,6,00,06,F7,FF,FF,FF,00,00,
11777600,00000526,false,Rx,0,6,05,0D,02,00,00,00,00,00,
11811599,00000527,false,Rx,0,6,06,0F,3B,A9,00,00,00,00,
11841758,00000522,false,Rx,0,6,01,01,A0,73,05,00,00,00,
12041429,00000528,false,Rx,0,6,07,04,46,10,00,00,00,00,
12162321,00000524,false,Rx,0,6,03,08,E7,FF,FF,FF,00,00,
12242958,00000523,false,Rx,0,6,02,08,02,00,00,00,00,00,
12275240,00000525,false,Rx,0,6,04,00,90,00,00,00,00,00,
12337698,00000521,false,Rx,0,6,00,07,F5,FF,FF,FF,00,00,
12472807,00000522,false,Rx,0,6,01,02,92,73,05,00,00,00,
12481173,00000526,false,Rx,0,6,05,0E,07,00,00,00,00,00,
12533580,00000527,false,Rx,0,6,06,00,3B,A9,00,00,00,00,
12781284,00000528,false,Rx,0,6,07,05,46,10,00,00,00,00,
12829614,00000524,false,Rx,0,6,03,09,F6,FF,FF,FF,00,00,
12892116,00000523,false,Rx,0,6,02,09,F1,FF,FF,FF,00,00,
12950562,00000521,false,Rx,0,6,00,08,F4,FF,FF,FF,00,00,
12960660,00000525,false,Rx,0,6,04,01,8F,00,00,00,00,00,
13103774,00000522,false,Rx,0,6,01,03,AF,73,05,00,00,00,
13184748,00000526,false,Rx,0,6,05,0F,01,00,00,00,00,00,
13255036,00000527,false,Rx,0,6,06,01,3B,A9,00,00,00,00,
13496910,00000524,false,Rx,0,6,03,0A,FF,FF,FF,FF,00,00,
13521167,00000528,false,Rx,0,6,07,06,46,10,00,00,00,00,
13541253,00000523,false,Rx,0,6,02,0A,F1,FF,FF,FF,00,00,
13563422,00000521,false,Rx,0,6,00,09,F7,FF,FF,FF,00,00,
13646117,00000525,false,Rx,0,6,04,02,90,00,00,00,00,00,
13734779,00000522,false,Rx,0,6,01,04,9D,73,05,00,00,00,
13888300,00000526,false,Rx,0,6,05,00,04,00,00,00,00,00,
13976778,00000527,false,Rx,0,6,06,02,3B,A9,00,00,00,00,
14164208,00000524,false,Rx,0,6,03,0B,E9,FF,FF,FF,00,00,
14176284,00000521,false,Rx,0,6,00,0A,F5,FF,FF,FF,00,00,
14190412,00000523,false,Rx,0,6,02,0B,F5,FF,FF,FF,00,00,
14261031,00000528,false,Rx,0,6,07,07,46,10,00,00,00,00,
14331548,00000525,false,Rx,0,6,04,03,90,00,00,00,00,00,
14365791,00000522,false,Rx,0,6,01,05,8E,73,05,00,00,00,
14591900,00000526,false,Rx,0,6,05,01,FB,FF,FF,FF,00,00,
14698487,00000527,false,Rx,0,6,06,03,3B,A9,00,00,00,00,
14789144,00000521,false,Rx,0,6,00,0B,F6,FF,FF,FF,00,00,
14831518,00000524,false,Rx,0,6,03,0C,EF,FF,FF,FF,00,00,
14839535,00000523,false,Rx,0,6,02,0C,F5,FF,FF,FF,00,00,
14996781,00000522,false,Rx,0,6,01,06,98,73,05,00,00,00,
15000886,00000528,false,Rx,0,6,07,08,46,10,00,00,00,00,
15016972,00000525,false,Rx,0,6,04,04,8F,00,00,00,00,00,
15295290,00000526,false,Rx,0,6,05,02,03,00,00,00,00,00,
15401980,00000521,false,Rx,0,6,00,0C,F3,FF,FF,FF,00,00,
15420201,00000527,false,Rx,0,6,06,04,3B,A9,00,00,00,00,
15488665,00000523,false,Rx,0,6,02,0D,F5,FF,FF,FF,00,00,
15498765,00000524,false,Rx,0,6,03,0D,E8,FF,FF,FF,00,00,
15627756,00000522,false,Rx,0,6,01,07,AE,73,05,00,00,00,
15702382,00000525,false,Rx,0,6,04,05,90,00,00,00,00,00,
15740721,00000528,false,Rx,0,6,07,09,46,10,00,00,00,00,
15999031,00000526,false,Rx,0,6,05,03,07,00,00,00,00,00,
16014820,00000521,false,Rx,0,6,00,0D,F4,FF,FF,FF,00,00,
16137799,00000523,false,Rx,0,6,02,0E,F3,FF,FF,FF,00,00,
16141896,00000527,false,Rx,0,6,06,05,3B,A9,00,00,00,00,
16166036,00000524,false,Rx,0,6,03,0E,F7,FF,FF,FF,00,00,
16258737,00000522,false,Rx,0,6,01,08,B7,73,05,00,00,00,
16387808,00000525,false,Rx,0,6,04,06,90,00,00,00,00,00,
16480583,00000528,false,Rx,0,6,07,0A,46,10,00,00,00,00,
16627688,00000521,false,Rx,0,6,00,0E,F8,FF,FF,FF,00,00,
16702613,00000526,false,Rx,0,6,05,04,01,00,00,00,00,00,
16786943,00000523,false,Rx,0,6,02,0F,EC,FF,FF,FF,00,00,
16833334,00000524,false,Rx,0,6,03,0F,FD,FF,FF,FF,00,00,
16863610,00000527,false,Rx,0,6,06,06,3B,A9,00,00,00,00,
16889755,00000522,false,Rx,0,6,01,09,AC,73,05,00,00,00,
17073231,00000525,false,Rx,0,6,04,07,8F,00,00,00,00,00,
17220446,00000528,false,Rx,0,6,07,0B,46,10,00,00,00,00,
17240530,00000521,false,Rx,0,6,00,0F,F5,FF,FF,FF,00,00,
17406180,00000526,false,Rx,0,6,05,05,0E,00,00,00,00,00,
17436088,00000523,false,Rx,0,6,02,00,EC,FF,FF,FF,00,00,
17500604,00000524,false,Rx,0,6,03,00,F9,FF,FF,FF,00,00,
17520756,00000522,false,Rx,0,6,01,0A,AF,73,05,00,00,00,
17585321,00000527,false,Rx,0,6,06,07,3B,A9,00,00,00,00,
17758662,00000525,false,Rx,0,6,04,08,90,00,00,00,00,00,
17853416,00000521,false,Rx,0,6,00,00,F6,FF,FF,FF,00,00,
17960297,00000528,false,Rx,0,6,07,0C,46,10,00,00,00,00,
18085223,00000523,false,Rx,0,6,02,01,E1,FF,FF,FF,00,00,
18109716,00000526,false,Rx,0,6,05,06,09,00,00,00,00,00,
18151740,00000522,false,Rx,0,6,01,0B,B0,73,05,00,00,00,
18167877,00000524,false,Rx,0,6,03,01,FD,FF,FF,FF,00,00,
18307113,00000527,false,Rx,0,6,06,08,3B,A9,00,00,00,00,
18444071,00000525,false,Rx,0,6,04,09,8F,00,00,00,00,00,
18466226,00000521,false,Rx,0,6,00,01,F4,FF,FF,FF,00,00,
18700149,00000528,false,Rx,0,6,07,0D,46,10,00,00,00,00,
18734353,00000523,false,Rx,0,6,02,02,F2,FF,FF,FF,00,00,
18782725,00000522,false,Rx,0,6,01,0C,B3,73,05,00,00,00,
18813288,00000526,false,Rx,0,6,05,07,03,00,00,00,00,00,
18835172,00000524,false,Rx,0,6,03,02,F1,FF,FF,FF,00,00,
19028736,00000527,false,Rx,0,6,06,09,3B,A9,00,00,00,00,
19079073,00000521,false,Rx,0,6,00,02,F7,FF,FF,FF,00,00,
19129491,00000525,false,Rx,0,6,04,0A,8F,00,00,00,00,00,
19383487,00000523,false,Rx,0,6,02,03,F2,FF,FF,FF,00,00,
19413716,00000522,false,Rx,0,6,01,0D,AE,73,05,00,00,00,
19440240,00000528,false,Rx,0,6,07,0E,46,10,00,00,00,00,
19502450,00000524,false,Rx,0,6,03,03,F9,FF,FF,FF,00,00,
19516684,00000526,false,Rx,0,6,05,08,04,00,00,00,00,00,
19691927,00000521,false,Rx,0,6,00,03,F6,FF,FF,FF,00,00,
19750449,00000527,false,Rx,0,6,06,0A,3B,A9,00,00,00,00,
19814926,00000525,false,Rx,0,6,04,0B,90,00,00,00,00,00,
20032968,00000523,false,Rx,0,6,02,04,F6,FF,FF,FF,00,00,
20044742,00000522,false,Rx,0,6,01,0E,B5,73,05,00,00,00,
20169723,00000524,false,Rx,0,6,03,04,EF,FF,FF,FF,00,00,
20179866,00000528,false,Rx,0,6,07,0F,46,10,00,00,00,00,
20220453,00000526,false,Rx,0,6,05,09,07,00,00,00,00,00,
20305074,00000521,false,Rx,0,6,00,04,F5,FF,FF,FF,00,00,
20472171,00000527,false,Rx,0,6,06,0B,3B,A9,00,00,00,00,
20500352,00000525,false,Rx,0,6,04,0C,90,00,00,00,00,00,
20675705,00000522,false,Rx,0,6,01,0F,BD,73,05,00,00,00,
20681770,00000523,false,Rx,0,6,02,05,F3,FF,FF,FF,00,00,
20837003,00000524,false,Rx,0,6,03,05,F7,FF,FF,FF,00,00,
20917626,00000521,false,Rx,0,6,00,05,F7,FF,FF,FF,00,00,
20919731,00000528,false,Rx,0,6,07,00,46,10,00,00,00,00,
20924015,00000526,false,Rx,0,6,05,0A,03,00,00,00,00,00,
21185781,00000525,false,Rx,0,6,04,0D,8F,00,00,00,00,00,
21194137,00000527,false,Rx,0,6,06,0C,3B,A9,00,00,00,00,
21306714,00000522,false,Rx,0,6,01,00,CC,73,05,00,00,00,
21330926,00000523,false,Rx,0,6,02,06,F3,FF,FF,FF,00,00,
21504313,00000524,false,Rx,0,6,03,06,F6,FF,FF,FF,00,00,
21530495,00000521,false,Rx,0,6,00,06,FA,FF,FF,FF,00,00,
21627607,00000526,false,Rx,0,6,05,0B,08,00,00,00,00,00,
21659601,00000528,false,Rx,0,6,07,01,46,10,00,00,00,00,
21871221,00000525,false,Rx,0,6,04,0E,90,00,00,00,00,00,
21915882,00000527,false,Rx,0,6,06,0D,3B,A9,00,00,00,00,
21937727,00000522,false,Rx,0,6,01,01,BE,73,05,00,00,00,
21980111,00000523,false,Rx,0,6,02,07,E8,FF,FF,FF,00,00,
22143352,00000521,false,Rx,0,6,00,07,F4,FF,FF,FF,00,00,
22171593,00000524,false,Rx,0,6,03,07,FD,FF,FF,FF,00,00,
22319047,00000100,false,Rx,0,8,00,00,00,00,9A,01,C8,00,
22319300,00000101,false,Rx,0,8,00,FF,FE,00,00,00,00,00,
22319546,00000102,false,Rx,0,8,01,90,01,00,00,00,00,00,
22331168,00000526,false,Rx,0,6,05,0C,FE,FF,FF,FF,00,00,
22399462,00000528,false,Rx,0,6,07,02,46,10,00,00,00,00,
22419042,00000100,false,Rx,0,8,00,00,00,00,9A,01,C8,00,
22419292,00000101,false,Rx,0,8,00,FF,FE,00,00,00,00,00,
22419545,00000102,false,Rx,0,8,01,90,01,00,00,00,00,00,
22519045,00000100,false,Rx,0,8,00,00,00,00,9A,01,C8,00,
22519292,00000101,false,Rx,0,8,00,FF,FE,00,00,00,00,00,
22519544,00000102,false,Rx,0,8,01,90,01,00,00,00,00,00,
22556656,00000525,false,Rx,0,6,04,0F,90,00,00,00,00,00,
22568722,00000522,false,Rx,0,6,01,02,C7,73,05,00,00,00,
22619043,00000100,false,Rx,0,8,00,00,00,00,9A,01,C8,00,
22619291,00000101,false,Rx,0,8,00,FF,FE,00,00,00,00,00,
22619537,00000102,false,Rx,0,8,01,90,01,00,00,00,00,00,
22629207,00000523,false,Rx,0,6,02,08,EA,FF,FF,FF,00,00,
22637327,00000527,false,Rx,0,6,06,0E,3B,A9,00,00,00,00,
22719042,00000100,false,Rx,0,8,00,00,00,00,9A,01,C8,00,
22719290,00000101,false,Rx,0,8,00,FF,FE,00,00,00,00,00,
22719536,00000102,false,Rx,0,8,01,90,01,00,00,00,00,00,
22756214,00000521,false,Rx,0,6,00,08,F6,FF,FF,FF,00,00,
22819036,00000100,false,Rx,0,8,00,00,00,00,9A,01,C8,00,
22819289,00000101,false,Rx,0,8,00,FF,FE,00,00,00,00,00,
22819536,00000102,false,Rx,0,8,01,90,01,00,00,00,00,00,
22838883,00000524,false,Rx,0,6,03,08,F2,FF,FF,FF,00,00,
22919036,00000100,false,Rx,0,8,00,00,00,00,9A,01,C8,00,
22919300,00000101,false,Rx,0,8,00,FF,FE,00,00,00,00,00,
22919535,00000102,false,Rx,0,8,01,90,01,00,00,00,00,00,
23019036,00000100,false,Rx,0,8,00,00,00,00,9A,01,C8,00,
23019284,00000101,false,Rx,0,8,00,FF,FE,00,00,00,00,00,
23019533,00000102,false,Rx,0,8,01,90,01,00,00,00,00,00,
23034740,00000526,false,Rx,0,6,05,0D,04,00,00,00,00,00,
23119033,00000100,false,Rx,0,8,00,00,00,00,9A,01,C8,00,
23119279,00000101,false,Rx,0,8,00,FF,FE,00,00,00,00,00,
23119527,00000102,false,Rx,0,8,01,90,01,00,00,00,00,00,
23139327,00000528,false,Rx,0,6,07,03,46,10,00,00,00,00,
23199724,00000522,false,Rx,0,6,01,03,C0,73,05,00,00,00,
23219032,00000100,false,Rx,0,8,00,00,00,00,9A,01,C8,00,
23219279,00000101,false,Rx,0,8,00,FF,FE,00,00,00,00,00,
23219530,00000102,false,Rx,0,8,01,90,01,00,00,00,00,00,
23242112,00000525,false,Rx,0,6,04,00,90,00,00,00,00,00,
23278373,00000523,false,Rx,0,6,02,09,EA,FF,FF,FF,00,00,
23319028,00000100,false,Rx,0,8,00,00,00,00,9A,01,C8,00,
23319276,00000101,false,Rx,0,8,00,FF,FE,00,00,00,00,00,
23319528,00000102,false,Rx,0,8,01,90,01,00,00,01,00,00,
23359311,00000527,false,Rx,0,6,06,0F,3B,A9,00,00,00,00,
23369078,00000521,false,Rx,0,6,00,09,F8,FF,FF,FF,00,00,
23419025,00000100,false,Rx,0,8,00,00,00,00,9A,01,C8,00,
23419271,00000101,false,Rx,0,8,00,FF,FE,00,00,00,00,00,
23419520,00000102,false,Rx,0,8,01,90,01,00,00,01,00,00,
23506170,00000524,false,Rx,0,6,03,09,F2,FF,FF,FF,00,00,
23519024,00000100,false,Rx,0,8,00,00,00,00,9A,01,C8,00,
23519272,00000101,false,Rx,0,8,00,FF,FE,00,00,00,00,00,
23519534,00000102,false,Rx,0,8,01,90,01,00,00,01,00,00,
23619024,00000100,false,Rx,0,8,00,00,00,00,9A,01,C8,00,
23619273,00000101,false,Rx,0,8,00,FF,FE,00,00,00,00,00,
23619518,00000102,false,Rx,0,8,01,90,01,00,00,01,00,00,
23719021,00000100,false,Rx,0,8,00,00,00,00,9A,01,C8,00,
23719269,00000101,false,Rx,0,8,00,FF,FE,00,00,00,00,00,
23719514,00000102,false,Rx,0,8,01,90,01,00,00,01,00,00,
23738150,00000526,false,Rx,0,6,05,0E,09,00,00,00,00,00,
23819020,00000100,false,Rx,0,8,00,00,00,00,9A,01,C8,00,
23819267,00000101,false,Rx,0,8,00,FF,FE,00,00,00,00,00,
23819513,00000102,false,Rx,0,8,01,90,01,00,00,01,00,00,
23830719,00000522,false,Rx,0,6,01,04,C6,73,05,00,00,00,
23879191,00000528,false,Rx,0,6,07,04,46,10,00,00,00,00,
23919018,00000100,false,Rx,0,8,00,00,00,00,9A,01,C8,00,
23919269,00000101,false,Rx,0,8,00,FF,FE,00,00,00,00,00,
23919515,00000102,false,Rx,0,8,01,90,01,00,00,01,00,00,
23927546,00000523,false,Rx,0,6,02,0A,F1,FF,FF,FF,00,00,
23927760,00000525,false,Rx,0,6,04,01,8F,00,00,00,00,00,
23981927,00000521,false,Rx,0,6,00,0A,F8,FF,FF,FF,00,00,
24019012,00000100,false,Rx,0,8,00,00,00,00,9A,01,C8,00,
24019263,00000101,false,Rx,0,8,00,FF,FE,00,00,00,00,00,
24019509,00000102,false,Rx,0,8,01,90,01,00,00,01,00,00,
24080774,00000527,false,Rx,0,6,06,00,3B,A9,00,00,00,00,
24119012,00000100,false,Rx,0,8,00,00,00,00,9A,01,C8,00,
24119262,00000101,false,Rx,0,8,00,FF,FE,00,00,00,00,00,
24119507,00000102,false,Rx,0,8,01,90,01,00,00,01,00,00,
24173462,00000524,false,Rx,0,6,03,0A,F8,FF,FF,FF,00,00,
24219012,00000100,false,Rx,0,8,00,00,00,00,9A,01,C8,00,
24219261,00000101,false,Rx,0,8,00,FF,FE,00,00,00,00,00,
24219507,00000102,false,Rx,0,8,01,90,01,00,00,01,00,00,
24319005,00000100,false,Rx,0,8,00,00,00,00,9A,01,C8,00,
24319271,00000101,false,Rx,0,8,00,FF,FE,00,00,00,00,00,
24319506,00000102,false,Rx,0,8,01,90,01,00,00,01,00,00,
24419004,00000100,false,Rx,0,8,00,00,00,00,9A,01,C8,00,
24419258,00000101,false,Rx,0,8,00,FF,FE,00,00,00,00,00,
24419501,00000102,false,Rx,0,8,01,90,01,00,00,01,00,00,
24441892,00000526,false,Rx,0,6,05,0F,0B,00,00,00,00,00,
24461728,00000522,false,Rx,0,6,01,05,CA,73,05,00,00,00,
24519005,00000100,false,Rx,0,8,00,00,00,00,9A,01,C8,00,
24519252,00000101,false,Rx,0,8,00,FF,FE,00,00,00,00,00,
24519500,00000102,false,Rx,0,8,01,90,01,00,00,01,00,00,
24576644,00000523,false,Rx,0,6,02,0B,F7,FF,FF,FF,00,00,
24594771,00000521,false,Rx,0,6,00,0B,F5,FF,FF,FF,00,00,
24612953,00000525,false,Rx,0,6,04,02,8F,00,00,00,00,00,
24618999,00000100,false,Rx,0,8,00,00,00,00,9A,01,C8,00,
24619253,00000101,false,Rx,0,8,00,FF,FE,00,00,00,00,00,
24619496,00000102,false,Rx,0,8,01,90,01,00,00,01,00,00,
24619705,00000528,false,Rx,0,6,07,05,46,10,00,00,00,00,
24718998,00000100,false,Rx,0,8,00,00,00,00,9A,01,C8,00,
24719251,00000101,false,Rx,0,8,00,FF,FE,00,00,00,00,00,
24719500,00000102,false,Rx,0,8,01,90,01,00,00,01,00,00,
24802487,00000527,false,Rx,0,6,06,01,3B,A9,00,00,00,00,
24818995,00000100,false,Rx,0,8,00,00,00,00,9A,01,C8,00,
24819249,00000101,false,Rx,0,8,00,FF,FE,00,00,00,00,00,
24819495,00000102,false,Rx,0,8,01,90,01,00,00,01,00,00,
24840740,00000524,false,Rx,0,6,03,0B,ED,FF,FF,FF,00,00,
24918996,00000100,false,Rx,0,8,00,00,00,00,9A,01,C8,00,
24919244,00000101,false,Rx,0,8,00,FF,FE,00,00,00,00,00,
24919498,00000102,false,Rx,0,8,01,90,01,00,00,01,00,00,
25018994,00000100,false,Rx,0,8,00,00,00,00,9A,01,C8,00,
25019242,00000101,false,Rx,0,8,00,FF,FE,00,00,00,00,00,
25019488,00000102,false,Rx,0,8,01,90,01,00,00,01,00,00,
25092718,00000522,false,Rx,0,6,01,06,D7,73,05,00,00,00,
25118991,00000100,false,Rx,0,8,00,00,00,00,9A,01,C8,00,
25119238,00000101,false,Rx,0,8,00,FF,FE,00,00,00,00,00,
25119491,00000102,false,Rx,0,8,01,90,01,00,00,01,00,00,
25145471,00000526,false,Rx,0,6,05,00,00,00,00,00,00,00,
25207627,00000521,false,Rx,0,6,00,0C,F8,FF,FF,FF,00,00,
25218989,00000100,false,Rx,0,8,00,00,00,00,9A,01,C8,00,
25219236,00000101,false,Rx,0,8,00,FF,FE,00,00,00,00,00,
25219488,00000102,false,Rx,0,8,01,90,01,00,00,01,00,00,
25225777,00000523,false,Rx,0,6,02,0C,F7,FF,FF,FF,00,00,
25298376,00000525,false,Rx,0,6,04,03,8F,00,00,00,00,00,
25318988,00000100,false,Rx,0,8,00,00,00,00,9A,01,C8,00,
25319236,00000101,false,Rx,0,8,00,FF,FE,00,00,00,00,00,
25319482,00000102,false,Rx,0,8,01,90,01,00,00,01,00,00,
25358911,00000528,false,Rx,0,6,07,06,46,10,00,00,00,00,
25418981,00000100,false,Rx,0,8,00,00,00,00,9A,01,C8,00,
25419235,00000101,false,Rx,0,8,00,FF,FE,00,00,00,00,00,
25419482,00000102,false,Rx,0,8,01,90,01,00,00,01,00,00,
25508032,00000524,false,Rx,0,6,03,0C,EC,FF,FF,FF,00,00,
25518981,00000100,false,Rx,0,8,00,00,00,00,9A,01,C8,00,
25519235,00000101,false,Rx,0,8,00,FF,FE,00,00,00,00,00,
25519481,00000102,false,Rx,0,8,01,90,01,00,00,01,00,00,
25524225,00000527,false,Rx,0,6,06,02,3B,A9,00,00,00,00,
25618981,00000100,false,Rx,0,8,00,00,00,00,9A,01,C8,00,
25619229,00000101,false,Rx,0,8,00,FF,FE,00,00,00,00,00,
25619475,00000102,false,Rx,0,8,01,90,01,00,00,01,00,00,
25718979,00000100,false,Rx,0,8,00,00,00,00,9A,01,C8,00,
25719227,00000101,false,Rx,0,8,00,FF,FE,00,00,00,00,00,
25719473,00000102,false,Rx,0,8,01,90,01,00,00,01,00,00,
25723753,00000522,false,Rx,0,6,01,07,C0,73,05,00,00,00,
25818977,00000100,false,Rx,0,8,00,00,00,00,9A,01,C8,00,
25819226,00000101,false,Rx,0,8,00,FF,FE,00,00,00,00,00,
25819471,00000102,false,Rx,0,8,01,90,01,00,00,01,00,00,
25820563,00000521,false,Rx,0,6,00,0D,F5,FF,FF,FF,00,00,
25849079,00000526,false,Rx,0,6,05,01,01,00,00,00,00,00,
25874956,00000523,false,Rx,0,6,02,0D,F4,FF,FF,FF,00,00,
25918970,00000100,false,Rx,0,8,00,00,00,00,9A,01,C8,00,
25919226,00000101,false,Rx,0,8,00,FF,FE,00,00,00,00,00,
25919472,00000102,false,Rx,0,8,01,90,01,00,00,01,00,00,
25983845,00000525,false,Rx,0,6,04,04,8F,00,00,00,00,00,
26018974,00000100,false,Rx,0,8,00,00,00,00,9A,01,C8,00,
26019224,00000101,false,Rx,0,8,00,FF,FE,00,00,00,00,00,
26019471,00000102,false,Rx,0,8,01,90,01,00,00,01,00,00,
26098808,00000528,false,Rx,0,6,07,07,46,10,00,00,00,00,
26118968,00000100,false,Rx,0,8,00,00,00,00,9A,01,C8,00,
26119218,00000101,false,Rx,0,8,00,FF,FE,00,00,00,00,00,
26119470,00000102,false,Rx,0,8,01,90,01,00,00,01,00,00,
26175355,00000524,false,Rx,0,6,03,0D,F2,FF,FF,FF,00,00,
26218968,00000100,false,Rx,0,8,00,00,00,00,9A,01,C8,00,
26219219,00000101,false,Rx,0,8,00,FF,FE,00,00,00,00,00,
26219464,00000102,false,Rx,0,8,01,90,01,00,00,01,00,00,
26245967,00000527,false,Rx,0,6,06,03,3B,A9,00,00,00,00,
26318965,00000100,false,Rx,0,8,00,00,00,00,9A,01,C8,00,
26319213,00000101,false,Rx,0,8,00,FF,FE,00,00,00,00,00,
26319461,00000102,false,Rx,0,8,01,90,01,00,00,01,00,00,
26354765,00000522,false,Rx,0,6,01,08,CF,73,05,00,00,00,
26418966,00000100,false,Rx,0,8,00,00,00,00,9A,01,C8,00,
26419212,00000101,false,Rx,0,8,00,FF,FE,00,00,00,00,00,
26419461,00000102,false,Rx,0,8,01,90,01,00,00,01,00,00,
26433382,00000521,false,Rx,0,6,00,0E,F6,FF,FF,FF,00,00,
26518963,00000100,false,Rx,0,8,00,00,00,00,9A,01,C8,00,
26519211,00000101,false,Rx,0,8,00,FF,FE,00,00,00,00,00,
26519460,00000102,false,Rx,0,8,01,90,01,00,00,01,00,00,
26524117,00000523,false,Rx,0,6,02,0E,ED,FF,FF,FF,00,00,
26552636,00000526,false,Rx,0,6,05,02,09,00,00,00,00,00,
26618956,00000100,false,Rx,0,8,00,00,00,00,9A,01,C8,00,
26619210,00000101,false,Rx,0,8,00,FF,FE,00,00,00,00,00,
26619453,00000102,false,Rx,0,8,01,90,01,00,00,01,00,00,
26669290,00000525,false,Rx,0,6,04,05,8F,00,00,00,00,00,
26718960,00000100,false,Rx,0,8,00,00,00,00,9A,01,C8,00,
26719207,00000101,false,Rx,0,8,00,FF,FE,00,00,00,00,00,
26719456,00000102,false,Rx,0,8,01,90,01,00,00,01,00,00,
26818953,00000100,false,Rx,0,8,00,00,00,00,9A,01,C8,00,
26819206,00000101,false,Rx,0,8,00,FF,FE,00,00,00,00,00,
26819455,00000102,false,Rx,0,8,01,90,01,00,00,01,00,00,
26838684,00000528,false,Rx,0,6,07,08,46,10,00,00,00,00,
26842649,00000524,false,Rx,0,6,03,0E,FB,FF,FF,FF,00,00,
26918953,00000100,false,Rx,0,8,00,00,00,00,9A,01,C8,00,
26919201,00000101,false,Rx,0,8,00,FF,FE,00,00,00,00,00,
26919468,00000102,false,Rx,0,8,01,90,01,00,00,01,00,00,
26967705,00000527,false,Rx,0,6,06,04,3B,A9,00,00,00,00,
26985801,00000522,false,Rx,0,6,01,09,CE,73,05,00,00,00,
27018950,00000100,false,Rx,0,8,00,00,00,00,9A,01,C8,00,
27019197,00000101,false,Rx,0,8,00,FF,FE,00,00,00,00,00,
27019450,00000102,false,Rx,0,8,01,90,01,00,00,01,00,00,
27046555,00000521,false,Rx,0,6,00,0F,FA,FF,FF,FF,00,00,
27118951,00000100,false,Rx,0,8,00,00,00,00,9A,01,C8,00,
27119199,00000101,false,Rx,0,8,00,FF,FE,00,00,00,00,00,
27119445,00000102,false,Rx,0,8,01,90,01,00,00,01,00,00,
27173277,00000523,false,Rx,0,6,02,0F,ED,FF,FF,FF,00,00,
27218945,00000100,false,Rx,0,8,00,00,00,00,9A,01,C8,00,
27219199,00000101,false,Rx,0,8,00,FF,FE,00,00,00,00,00,
27219446,00000102,false,Rx,0,8,01,90,01,00,00,01,00,00,
27256240,00000526,false,Rx,0,6,05,03,01,00,00,00,00,00,
27318944,00000100,false,Rx,0,8,00,00,00,00,9A,01,C8,00,
27319192,00000101,false,Rx,0,8,00,FF,FE,00,00,00,00,00,
27319444,00000102,false,Rx,0,8,01,90,01,00,00,01,00,00,
27354727,00000525,false,Rx,0,6,04,06,8F,00,00,00,00,00,
27418944,00000100,false,Rx,0,8,00,00,00,00,9A,01,C8,00,
27419192,00000101,false,Rx,0,8,00,FF,FE,00,00,00,00,00,
27419438,00000102,false,Rx,0,8,01,90,01,00,00,01,00,00,
27509946,00000524,false,Rx,0,6,03,0F,ED,FF,FF,FF,00,00,
27518940,00000100,false,Rx,0,8,00,00,00,00,9A,01,C8,00,
27519187,00000101,false,Rx,0,8,00,FF,FE,00,00,00,00,00,
27519439,00000102,false,Rx,0,8,01,90,01,00,00,01,00,00,
27578549,00000528,false,Rx,0,6,07,09,46,10,00,00,00,00,
27616780,00000522,false,Rx,0,6,01,0A,D4,73,05,00,00,00,
27618937,00000100,false,Rx,0,8,00,00,00,00,9A,01,C8,00,
27619185,00000101,false,Rx,0,8,00,FF,FE,00,00,00,00,00,
27619437,00000102,false,Rx,0,8,01,90,01,00,00,01,00,00,
27659117,00000521,false,Rx,0,6,00,00,F8,FF,FF,FF,00,00,
27689431,00000527,false,Rx,0,6,06,05,3B,A9,00,00,00,00,
27718936,00000100,false,Rx,0,8,00,00,00,00,9A,01,C8,00,
27719184,00000101,false,Rx,0,8,00,FF,FE,00,00,00,00,00,
27719436,00000102,false,Rx,0,8,01,90,01,00,00,01,00,00,
27818933,00000100,false,Rx,0,8,00,00,00,00,9A,01,C8,00,
27819187,00000101,false,Rx,0,8,00,FF,FE,00,00,00,00,00,
27819433,00000102,false,Rx,0,8,01,90,01,00,00,01,00,00,
27822423,00000523,false,Rx,0,6,02,00,ED,FF,FF,FF,00,00,
27918932,00000100,false,Rx,0,8,00,00,00,00,9A,01,C8,00,
27919179,00000101,false,Rx,0,8,00,FF,FE,00,00,00,00,00,
27919431,00000102,false,Rx,0,8,01,90,01,00,00,01,00,00,
27959644,00000526,false,Rx,0,6,05,04,08,00,00,00,00,00,
28018931,00000100,false,Rx,0,8,00,00,00,00,9A,01,C8,00,
28019178,00000101,false,Rx,0,8,00,FF,FE,00,00,00,00,00,
28019431,00000102,false,Rx,0,8,01,90,01,00,00,01,00,00,
28040159,00000525,false,Rx,0,6,04,07,8F,00,00,00,00,00,
28118928,00000100,false,Rx,0,8,00,00,00,00,9A,01,C8,00,
28119176,00000101,false,Rx,0,8,00,FF,FE,00,00,00,00,00,
28119427,00000102,false,Rx,0,8,01,90,01,00,00,01,00,00,
28177235,00000524,false,Rx,0,6,03,00,E0,FF,FF,FF,00,00,
28218926,00000100,false,Rx,0,8,00,00,00,00,9A,01,C8,00,
28219175,00000101,false,Rx,0,8,00,FF,FE,00,00,00,00,00,
28219421,00000102,false,Rx,0,8,01,90,01,00,00,01,00,00,
28247777,00000522,false,Rx,0,6,01,0B,D3,73,05,00,00,00,
28271986,00000521,false,Rx,0,6,00,01,F6,FF,FF,FF,00,00,
28318665,00000528,false,Rx,0,6,07,0A,46,10,00,00,00,00,
28318925,00000100,false,Rx,0,8,00,00,00,00,9A,01,C8,00,
28319171,00000101,false,Rx,0,8,00,FF,FE,00,00,00,00,00,
28319423,00000102,false,Rx,0,8,01,90,01,00,00,01,00,00,
28411149,00000527,false,Rx,0,6,06,06,3B,A9,00,00,00,00,
28418919,00000100,false,Rx,0,8,00,00,00,00,9A,01,C8,00,
28419187,00000101,false,Rx,0,8,00,FF,FE,00,00,00,00,00,
28419421,00000102,false,Rx,0,8,01,90,01,00,00,01,00,00,
28471580,00000523,false,Rx,0,6,02,01,ED,FF,FF,FF,00,00,
28518917,00000100,false,Rx,0,8,00,00,00,00,9A,01,C8,00,
28519170,00000101,false,Rx,0,8,00,FF,FE,00,00,00,00,00,
28519415,00000102,false,Rx,0,8,01,90,01,00,00,01,00,00,
28618920,00000100,false,Rx,0,8,00,00,00,00,9A,01,C8,00,
28619168,00000101,false,Rx,0,8,00,FF,FE,00,00,00,00,00,
28619418,00000102,false,Rx,0,8,01,90,01,00,00,01,00,00,
28663437,00000526,false,Rx,0,6,05,05,02,00,00,00,00,00,
28718922,00000100,false,Rx,0,8,00,00,00,00,9A,01,C8,00,
28719162,00000101,false,Rx,0,8,00,FF,FE,00,00,00,00,00,
28719411,00000102,false,Rx,0,8,01,90,01,00,00,01,00,00,
28725626,00000525,false,Rx,0,6,04,08,8F,00,00,00,00,00,
28818916,00000100,false,Rx,0,8,00,00,00,00,9A,01,C8,00,
28819164,00000101,false,Rx,0,8,00,FF,FE,00,00,00,00,00,
28819413,00000102,false,Rx,0,8,01,90,01,00,00,01,00,00,
28844564,00000524,false,Rx,0,6,03,01,EF,FF,FF,FF,00,00,
28878807,00000522,false,Rx,0,6,01,0C,D9,73,05,00,00,00,
28884883,00000521,false,Rx,0,6,00,02,FA,FF,FF,FF,00,00,
28918918,00000100,false,Rx,0,8,00,00,00,00,9A,01,C8,00,
28919160,00000101,false,Rx,0,8,00,FF,FE,00,00,00,00,00,
28919408,00000102,false,Rx,0,8,01,90,01,00,00,01,00,00,
29018910,00000100,false,Rx,0,8,00,00,00,00,9A,01,C8,00,
29019158,00000101,false,Rx,0,8,00,FF,FE,00,00,00,00,00,
29019418,00000102,false,Rx,0,8,01,90,01,00,00,01,00,00,
29058321,00000528,false,Rx,0,6,07,0B,46,10,00,00,00,00,
29118908,00000100,false,Rx,0,8,00,00,00,00,9A,01,C8,00,
29119161,00000101,false,Rx,0,8,00,FF,FE,00,00,00,00,00,
29119407,00000102,false,Rx,0,8,01,90,01,00,00,01,00,00,
29120745,00000523,false,Rx,0,6,02,02,ED,FF,FF,FF,00,00,
29132912,00000527,false,Rx,0,6,06,07,3B,A9,00,00,00,00,
29218908,00000100,false,Rx,0,8,00,00,00,00,9A,01,C8,00,
29219155,00000101,false,Rx,0,8,00,FF,FE,00,00,00,00,00,
29219400,00000102,false,Rx,0,8,01,90,01,00,00,01,00,00,
29318909,00000100,false,Rx,0,8,00,00,00,00,9A,01,C8,00,
29319150,00000101,false,Rx,0,8,00,FF,FE,00,00,00,00,00,
29319402,00000102,false,Rx,0,8,01,90,01,00,00,01,00,00,
29367035,00000526,false,Rx,0,6,05,06,FE,FF,FF,FF,00,00,
29411079,00000525,false,Rx,0,6,04,09,8F,00,00,00,00,00,
29418898,00000100,false,Rx,0,8,00,00,00,00,9A,01,C8,00,
29419148,00000101,false,Rx,0,8,00,FF,FE,00,00,00,00,00,
29419400,00000102,false,Rx,0,8,01,90,01,00,00,01,00,00,
29498048,00000521,false,Rx,0,6,00,03,F6,FF,FF,FF,00,00,
29509845,00000522,false,Rx,0,6,01,0D,CC,73,05,00,00,00,
29511870,00000524,false,Rx,0,6,03,02,F1,FF,FF,FF,00,00,
29518900,00000100,false,Rx,0,8,00,00,00,00,9A,01,C8,00,
29519149,00000101,false,Rx,0,8,00,FF,FE,00,00,00,00,00,
29519396,00000102,false,Rx,0,8,01,90,01,00,00,01,00,00,
29618899,00000100,false,Rx,0,8,00,00,00,00,9A,01,C8,00,
29619146,00000101,false,Rx,0,8,00,FF,FE,00,00,00,00,00,
29619392,00000102,false,Rx,0,8,01,90,01,00,00,01,00,00,
29718894,00000100,false,Rx,0,8,00,00,00,00,9A,01,C8,00,
29719141,00000101,false,Rx,0,8,00,FF,FE,00,00,00,00,00,
29719393,00000102,false,Rx,0,8,01,90,01,00,00,01,00,00,
29769974,00000523,false,Rx,0,6,02,03,F2,FF,FF,FF,00,00,
29798222,00000528,false,Rx,0,6,07,0C,46,10,00,00,00,00,
29818894,00000100,false,Rx,0,8,00,00,00,00,9A,01,C8,00,
29819147,00000101,false,Rx,0,8,00,FF,FE,00,00,00,00,00,
29819393,00000102,false,Rx,0,8,01,90,01,00,00,01,00,00,
29854670,00000527,false,Rx,0,6,06,08,3B,A9,00,00,00,00,
29918891,00000100,false,Rx,0,8,00,00,00,00,9A,01,C8,00,
29919139,00000101,false,Rx,0,8,00,FF,FE,00,00,00,00,00,
29919388,00000102,false,Rx,0,8,01,90,01,00,00,01,00,00,
30018891,00000100,false,Rx,0,8,00,00,00,00,9A,01,C8,00,
30019139,00000101,false,Rx,0,8,00,FF,FE,00,00,00,00,00,
30019388,00000102,false,Rx,0,8,01,90,01,00,00,01,00,00,
30070678,00000526,false,Rx,0,6,05,07,05,00,00,00,00,00,
30096558,00000525,false,Rx,0,6,04,0A,90,00,00,00,00,00,
30110647,00000521,false,Rx,0,6,00,04,F6,FF,FF,FF,00,00,
30118890,00000100,false,Rx,0,8,00,00,00,00,9A,01,C8,00,
30119137,00000101,false,Rx,0,8,00,FF,FE,00,00,00,00,00,
30119387,00000102,false,Rx,0,8,01,90,01,00,00,01,00,00,
30140880,00000522,false,Rx,0,6,01,0E,D2,73,05,00,00,00,
30179209,00000524,false,Rx,0,6,03,03,EE,FF,FF,FF,00,00,
30218883,00000100,false,Rx,0,8,00,00,00,00,9A,01,C8,00,
30219137,00000101,false,Rx,0,8,00,FF,FE,00,00,00,00,00,
30219381,00000102,false,Rx,0,8,01,90,01,00,00,01,00,00,
30318882,00000100,false,Rx,0,8,00,00,00,00,9A,01,C8,00,
30319136,00000101,false,Rx,0,8,00,FF,FE,00,00,00,00,00,
30319379,00000102,false,Rx,0,8,01,90,01,00,00,01,00,00,
30418877,00000100,false,Rx,0,8,00,00,00,00,9A,01,C8,00,
30419131,00000101,false,Rx,0,8,00,FF,FE,00,00,00,00,00,
30419374,00000102,false,Rx,0,8,01,90,01,00,00,01,00,00,
30419583,00000523,false,Rx,0,6,02,04,ED,FF,FF,FF,00,00,
30518875,00000100,false,Rx,0,8,00,00,00,00,9A,01,C8,00,
30519129,00000101,false,Rx,0,8,00,FF,FE,00,00,00,00,00,
30519383,00000102,false,Rx,0,8,01,90,01,00,00,01,00,00,
30538141,00000528,false,Rx,0,6,07,0D,46,10,00,00,00,00,
30576422,00000527,false,Rx,0,6,06,09,3B,A9,00,00,00,00,
30618875,00000100,false,Rx,0,8,00,00,00,00,9A,01,C8,00,
30619128,00000101,false,Rx,0,8,00,FF,FE,00,00,00,00,00,
30619374,00000102,false,Rx,0,8,01,90,01,00,00,01,00,00,
30718876,00000100,false,Rx,0,8,00,00,00,00,9A,01,C8,00,
30719130,00000101,false,Rx,0,8,00,FF,FE,00,00,00,00,00,
30719369,00000102,false,Rx,0,8,01,90,01,00,00,01,00,00,
30723531,00000521,false,Rx,0,6,00,05,F6,FF,FF,FF,00,00,
30771922,00000522,false,Rx,0,6,01,0F,D6,73,05,00,00,00,
30773977,00000526,false,Rx,0,6,05,08,00,00,00,00,00,00,
30782030,00000525,false,Rx,0,6,04,0B,8F,00,00,00,00,00,
30818870,00000100,false,Rx,0,8,00,00,00,00,9A,01,C8,00,
30819123,00000101,false,Rx,0,8,00,FF,FE,00,00,00,00,00,
30819368,00000102,false,Rx,0,8,01,90,01,00,00,01,00,00,
30846528,00000524,false,Rx,0,6,03,04,F8,FF,FF,FF,00,00,
30918872,00000100,false,Rx,0,8,00,00,00,00,9A,01,C8,00,
30919120,00000101,false,Rx,0,8,00,FF,FE,00,00,00,00,00,
30919366,00000102,false,Rx,0,8,01,90,01,00,00,01,00,00,
31018867,00000100,false,Rx,0,8,00,00,00,00,9A,01,C8,00,
31019115,00000101,false,Rx,0,8,00,FF,FE,00,00,00,00,00,
31019367,00000102,false,Rx,0,8,01,90,01,00,00,01,00,00,
31068296,00000523,false,Rx,0,6,02,05,ED,FF,FF,FF,00,00,
31118867,00000100,false,Rx,0,8,00,00,00,00,9A,01,C8,00,
31119114,00000101,false,Rx,0,8,00,FF,FE,00,00,00,00,00,
31119367,00000102,false,Rx,0,8,01,90,01,00,00,01,00,00,
31218867,00000100,false,Rx,0,8,00,00,00,00,9A,01,C8,00,
31219115,00000101,false,Rx,0,8,00,FF,FE,00,00,00,00,00,
31219361,00000102,false,Rx,0,8,01,90,01,00,00,01,00,00,
31278035,00000528,false,Rx,0,6,07,0E,46,10,00,00,00,00,
31298191,00000527,false,Rx,0,6,06,0A,3B,A9,00,00,00,00,
31318861,00000100,false,Rx,0,8,00,00,00,00,9A,01,C8,00,
31319120,00000101,false,Rx,0,8,00,FF,FE,00,00,00,00,00,
31319360,00000102,false,Rx,0,8,01,90,01,00,00,01,00,00,
31336438,00000521,false,Rx,0,6,00,06,FB,FF,FF,FF,00,00,
31402993,00000522,false,Rx,0,6,01,00,E6,73,05,00,00,00,
31418858,00000100,false,Rx,0,8,00,00,00,00,9A,01,C8,00,
31419114,00000101,false,Rx,0,8,00,FF,FE,00,00,00,00,00,
31419360,00000102,false,Rx,0,8,01,90,01,00,00,01,00,00,
31467500,00000525,false,Rx,0,6,04,0C,8F,00,00,00,00,00,
31477877,00000526,false,Rx,0,6,05,09,06,00,00,00,00,00,
31513853,00000524,false,Rx,0,6,03,05,00,00,00,00,00,00,
31518856,00000100,false,Rx,0,8,00,00,00,00,9A,01,C8,00,
31519116,00000101,false,Rx,0,8,00,FF,FE,00,00,00,00,00,
31519356,00000102,false,Rx,0,8,01,90,01,00,00,01,00,00,
31618856,00000100,false,Rx,0,8,00,00,00,00,9A,01,C8,00,
31619110,00000101,false,Rx,0,8,00,FF,FE,00,00,00,00,00,
31619352,00000102,false,Rx,0,8,01,90,01,00,00,01,00,00,
31717493,00000523,false,Rx,0,6,02,06,ED,FF,FF,FF,00,00,
31718851,00000100,false,Rx,0,8,00,00,00,00,9A,01,C8,00,
31719112,00000101,false,Rx,0,8,00,FF,FE,00,00,00,00,00,
31719350,00000102,false,Rx,0,8,01,90,01,00,00,01,00,00,
31818848,00000100,false,Rx,0,8,00,00,00,00,9A,01,C8,00,
31819100,00000101,false,Rx,0,8,00,FF,FE,00,00,00,00,00,
31819356,00000102,false,Rx,0,8,01,90,01,00,00,01,00,00,
31918848,00000100,false,Rx,0,8,00,00,00,00,9A,01,C8,00,
31919100,00000101,false,Rx,0,8,00,FF,FE,00,00,00,00,00,
31919358,00000102,false,Rx,0,8,01,90,01,00,00,01,00,00,
31949315,00000521,false,Rx,0,6,00,07,F9,FF,FF,FF,00,00,
32017950,00000528,false,Rx,0,6,07,0F,46,10,00,00,00,00,
32018844,00000100,false,Rx,0,8,00,00,00,00,9A,01,C8,00,
32019098,00000101,false,Rx,0,8,00,FF,FE,00,00,00,00,00,
32019343,00000102,false,Rx,0,8,01,90,01,00,00,01,00,00,
32020202,00000527,false,Rx,0,6,06,0B,3B,A9,00,00,00,00,
32034000,00000522,false,Rx,0,6,01,01,D9,73,05,00,00,00,
32118843,00000100,false,Rx,0,8,00,00,00,00,9A,01,C8,00,
32119104,00000101,false,Rx,0,8,00,FF,FE,00,00,00,00,00,
32119340,00000102,false,Rx,0,8,01,90,01,00,00,01,00,00,
32152967,00000525,false,Rx,0,6,04,0D,8F,00,00,00,00,00,
32181402,00000524,false,Rx,0,6,03,06,E7,FF,FF,FF,00,00,
32181622,00000526,false,Rx,0,6,05,0A,06,00,00,00,00,00,
32218843,00000100,false,Rx,0,8,00,00,00,00,9A,01,C8,00,
32219096,00000101,false,Rx,0,8,00,FF,FE,00,00,00,00,00,
32219361,00000102,false,Rx,0,8,01,90,01,00,00,01,00,00,
32318840,00000100,false,Rx,0,8,00,00,00,00,9A,01,C8,00,
32319099,00000101,false,Rx,0,8,00,FF,FE,00,00,00,00,00,
32319339,00000102,false,Rx,0,8,01,90,01,00,00,01,00,00,
32366647,00000523,false,Rx,0,6,02,07,FC,FF,FF,FF,00,00,
32418837,00000100,false,Rx,0,8,00,00,00,00,9A,01,C8,00,
32419091,00000101,false,Rx,0,8,00,FF,FE,00,00,00,00,00,
32419337,00000102,false,Rx,0,8,01,90,01,00,00,01,00,00,
32518837,00000100,false,Rx,0,8,00,00,00,00,9A,01,C8,00,
32519091,00000101,false,Rx,0,8,00,FF,FE,00,00,00,00,00,
32519330,00000102,false,Rx,0,8,01,90,01,00,00,01,00,00,
32562199,00000521,false,Rx,0,6,00,08,F8,FF,FF,FF,00,00,
32618832,00000100,false,Rx,0,8,00,00,00,00,9A,01,C8,00,
32619093,00000101,false,Rx,0,8,00,FF,FE,00,00,00,00,00,
32619332,00000102,false,Rx,0,8,01,90,01,00,00,01,00,00,
32665018,00000522,false,Rx,0,6,01,02,F1,73,05,00,00,00,
32718833,00000100,false,Rx,0,8,00,00,00,00,9A,01,C8,00,
32719079,00000101,false,Rx,0,8,00,FF,FE,00,00,00,00,00,
32719332,00000102,false,Rx,0,8,01,90,01,00,00,01,00,00,
32741710,00000527,false,Rx,0,6,06,0C,3B,A9,00,00,00,00,
32757836,00000528,false,Rx,0,6,07,00,46,10,00,00,00,00,
32818827,00000100,false,Rx,0,8,00,00,00,00,9A,01,C8,00,
32819088,00000101,false,Rx,0,8,00,FF,FE,00,00,00,00,00,
32819329,00000102,false,Rx,0,8,01,90,01,00,00,01,00,00,
32838426,00000525,false,Rx,0,6,04,0E,8F,00,00,00,00,00,
32848493,00000524,false,Rx,0,6,03,07,D9,FF,FF,FF,00,00,
32885111,00000526,false,Rx,0,6,05,0B,01,00,00,00,00,00,
32918829,00000100,false,Rx,0,8,00,00,00,00,9A,01,C8,00,
32919079,00000101,false,Rx,0,8,00,FF,FE,00,00,00,00,00,
32919327,00000102,false,Rx,0,8,01,90,01,00,00,01,00,00,
33015814,00000523,false,Rx,0,6,02,08,FC,FF,FF,FF,00,00,
33018827,00000100,false,Rx,0,8,00,00,00,00,9A,01,C8,00,
33019076,00000101,false,Rx,0,8,00,FF,FE,00,00,00,00,00,
33019324,00000102,false,Rx,0,8,01,90,01,00,00,01,00,00,
33118820,00000100,false,Rx,0,8,00,00,00,00,9A,01,C8,00,
33119073,00000101,false,Rx,0,8,00,FF,FE,00,00,00,00,00,
33119323,00000102,false,Rx,0,8,01,90,01,00,00,01,00,00,
33175093,00000521,false,Rx,0,6,00,09,FB,FF,FF,FF,00,00,
33218821,00000100,false,Rx,0,8,00,00,00,00,9A,01,C8,00,
33219074,00000101,false,Rx,0,8,00,FF,FE,00,00,00,00,00,
33219321,00000102,false,Rx,0,8,01,90,01,00,00,01,00,00,
33296052,00000522,false,Rx,0,6,01,03,EA,73,05,00,00,00,
33318818,00000100,false,Rx,0,8,00,00,00,00,9A,01,C8,00,
33319071,00000101,false,Rx,0,8,00,FF,FE,00,00,00,00,00,
33319318,00000102,false,Rx,0,8,01,90,01,00,00,01,00,00,
33418817,00000100,false,Rx,0,8,00,00,00,00,9A,01,C8,00,
33419070,00000101,false,Rx,0,8,00,FF,FE,00,00,00,00,00,
33419314,00000102,false,Rx,0,8,01,90,01,00,00,01,00,00,
33463518,00000527,false,Rx,0,6,06,0D,3B,A9,00,00,00,00,
33497732,00000528,false,Rx,0,6,07,01,46,10,00,00,00,00,
33515808,00000524,false,Rx,0,6,03,08,E7,FF,FF,FF,00,00,
33518816,00000100,false,Rx,0,8,00,00,00,00,9A,01,C8,00,
33519063,00000101,false,Rx,0,8,00,FF,FE,00,00,00,00,00,
33519312,00000102,false,Rx,0,8,01,90,01,00,00,01,00,00,
33523890,00000525,false,Rx,0,6,04,0F,8F,00,00,00,00,00,
33588710,00000526,false,Rx,0,6,05,0C,09,00,00,00,00,00,
33618816,00000100,false,Rx,0,8,00,00,00,00,9A,01,C8,00,
33619063,00000101,false,Rx,0,8,00,FF,FE,00,00,00,00,00,
33619309,00000102,false,Rx,0,8,01,90,01,00,00,01,00,00,
33664987,00000523,false,Rx,0,6,02,09,F3,FF,FF,FF,00,00,
33718808,00000100,false,Rx,0,8,00,00,00,00,9A,01,C8,00,
33719061,00000101,false,Rx,0,8,00,FF,FE,00,00,00,00,00,
33719309,00000102,false,Rx,0,8,01,90,01,00,00,01,00,00,
33787954,00000521,false,Rx,0,6,00,0A,F6,FF,FF,FF,00,00,
33818811,00000100,false,Rx,0,8,00,00,00,00,9A,01,C8,00,
33819057,00000101,false,Rx,0,8,00,FF,FE,00,00,00,00,00,
33819304,00000102,false,Rx,0,8,01,90,01,00,00,01,00,00,
33918808,00000100,false,Rx,0,8,00,00,00,00,9A,01,C8,00,
33919054,00000101,false,Rx,0,8,00,FF,FE,00,00,00,00,00,
33919308,00000102,false,Rx,0,8,01,90,01,00,00,01,00,00,
33927063,00000522,false,Rx,0,6,01,04,EE,73,05,00,00,00,
34018807,00000100,false,Rx,0,8,00,00,00,00,9A,01,C8,00,
34019054,00000101,false,Rx,0,8,00,FF,FE,00,00,00,00,00,
34019301,00000102,false,Rx,0,8,01,90,01,00,00,01,00,00,
34118802,00000100,false,Rx,0,8,00,00,00,00,9A,01,C8,00,
34119055,00000101,false,Rx,0,8,00,FF,FE,00,00,00,00,00,
34119302,00000102,false,Rx,0,8,01,90,01,00,00,01,00,00,
34183120,00000524,false,Rx,0,6,03,09,F4,FF,FF,FF,00,00,
34185435,00000527,false,Rx,0,6,06,0E,3B,A9,00,00,00,00,
34209338,00000525,false,Rx,0,6,04,00,8F,00,00,00,00,00,
34218801,00000100,false,Rx,0,8,00,00,00,00,9A,01,C8,00,
34219052,00000101,false,Rx,0,8,00,FF,FE,00,00,00,00,00,
34219300,00000102,false,Rx,0,8,01,90,01,00,00,01,00,00,
34237616,00000528,false,Rx,0,6,07,02,46,10,00,00,00,00,
34292300,00000526,false,Rx,0,6,05,0D,06,00,00,00,00,00,
34314158,00000523,false,Rx,0,6,02,0A,F9,FF,FF,FF,00,00,
34318802,00000100,false,Rx,0,8,00,00,00,00,9A,01,C8,00,
34319048,00000101,false,Rx,0,8,00,FF,FE,00,00,00,00,00,
34319295,00000102,false,Rx,0,8,01,90,01,00,00,01,00,00,
34400833,00000521,false,Rx,0,6,00,0B,F7,FF,FF,FF,00,00,
34418799,00000100,false,Rx,0,8,00,00,00,00,9A,01,C8,00,
34419048,00000101,false,Rx,0,8,00,FF,FE,00,00,00,00,00,
34419296,00000102,false,Rx,0,8,01,90,01,00,00,01,00,00,
34518796,00000100,false,Rx,0,8,00,00,00,00,9A,01,C8,00,
34519043,00000101,false,Rx,0,8,00,FF,FE,00,00,00,00,00,
34519291,00000102,false,Rx,0,8,01,90,01,00,00,01,00,00,
34558095,00000522,false,Rx,0,6,01,05,F2,73,05,00,00,00,
34618795,00000100,false,Rx,0,8,00,00,00,00,9A,01,C8,00,
34619053,00000101,false,Rx,0,8,00,FF,FE,00,00,00,00,00,
34619289,00000102,false,Rx,0,8,01,90,01,00,00,01,00,00,
34718789,00000100,false,Rx,0,8,00,00,00,00,9A,01,C8,00,
34719042,00000101,false,Rx,0,8,00,FF,FE,00,00,00,00,00,
34719285,00000102,false,Rx,0,8,01,90,01,00,00,01,00,00,
34818790,00000100,false,Rx,0,8,00,00,00,00,9A,01,C8,00,
34819036,00000101,false,Rx,0,8,00,FF,FE,00,00,00,00,00,
34819287,00000102,false,Rx,0,8,01,90,01,00,00,01,00,00,
34850449,00000524,false,Rx,0,6,03,0A,EC,FF,FF,FF,00,00,
34894770,00000525,false,Rx,0,6,04,01,90,00,00,00,00,00,
34906922,00000527,false,Rx,0,6,06,0F,3B,A9,00,00,00,00,
34918789,00000100,false,Rx,0,8,00,00,00,00,9A,01,C8,00,
34919036,00000101,false,Rx,0,8,00,FF,FE,00,00,00,00,00,
34919285,00000102,false,Rx,0,8,01,90,01,00,00,01,00,00,
34963306,00000523,false,Rx,0,6,02,0B,F9,FF,FF,FF,00,00,
34977480,00000528,false,Rx,0,6,07,03,46,10,00,00,00,00,
34995855,00000526,false,Rx,0,6,05,0E,02,00,00,00,00,00,
35013736,00000521,false,Rx,0,6,00,0C,F6,FF,FF,FF,00,00,
35018786,00000100,false,Rx,0,8,00,00,00,00,9A,01,C8,00,
35019033,00000101,false,Rx,0,8,00,FF,FE,00,00,00,00,00,
35019279,00000102,false,Rx,0,8,01,90,01,00,00,01,00,00,
35118783,00000100,false,Rx,0,8,00,00,00,00,9A,01,C8,00,
35119030,00000101,false,Rx,0,8,00,FF,FE,00,00,00,00,00,
35119279,00000102,false,Rx,0,8,01,90,01,00,00,01,00,00,
35189093,00000522,false,Rx,0,6,01,06,E1,73,05,00,00,00,
35218783,00000100,false,Rx,0,8,00,00,00,00,9A,01,C8,00,
35219030,00000101,false,Rx,0,8,00,FF,FE,00,00,00,00,00,
35219294,00000102,false,Rx,0,8,01,90,01,00,00,01,00,00,
35318776,00000100,false,Rx,0,8,00,00,00,00,9A,01,C8,00,
35319029,00000101,false,Rx,0,8,00,FF,FE,00,00,00,00,00,
35319276,00000102,false,Rx,0,8,01,90,01,00,00,01,00,00,
35418777,00000100,false,Rx,0,8,00,00,00,00,9A,01,C8,00,
35419023,00000101,false,Rx,0,8,00,FF,FE,00,00,00,00,00,
35419277,00000102,false,Rx,0,8,01,90,01,00,00,01,00,00,
35517715,00000524,false,Rx,0,6,03,0B,EB,FF,FF,FF,00,00,
35518777,00000100,false,Rx,0,8,00,00,00,00,9A,01,C8,00,
35519024,00000101,false,Rx,0,8,00,FF,FE,00,00,00,00,00,
35519272,00000102,false,Rx,0,8,01,90,01,00,00,01,00,00,
35580220,00000525,false,Rx,0,6,04,02,8F,00,00,00,00,00,
35612456,00000523,false,Rx,0,6,02,0C,F3,FF,FF,FF,00,00,
35618770,00000100,false,Rx,0,8,00,00,00,00,9A,01,C8,00,
35619023,00000101,false,Rx,0,8,00,FF,FE,00,00,00,00,00,
35619271,00000102,false,Rx,0,8,01,90,01,00,00,01,00,00,
35626561,00000521,false,Rx,0,6,00,0D,F8,FF,FF,FF,00,00,
35628648,00000527,false,Rx,0,6,06,00,3B,A9,00,00,00,00,
35699456,00000526,false,Rx,0,6,05,0F,0A,00,00,00,00,00,
35717351,00000528,false,Rx,0,6,07,04,46,10,00,00,00,00,
35718767,00000100,false,Rx,0,8,00,00,00,00,9A,01,C8,00,
35719019,00000101,false,Rx,0,8,00,FF,FE,00,00,00,00,00,
35719267,00000102,false,Rx,0,8,01,90,01,00,00,01,00,00,
35818763,00000100,false,Rx,0,8,00,00,00,00,9A,01,C8,00,
35819017,00000101,false,Rx,0,8,00,FF,FE,00,00,00,00,00,
35819265,00000102,false,Rx,0,8,01,90,01,00,00,01,00,00,
35820111,00000522,false,Rx,0,6,01,07,FD,73,05,00,00,00,
35918761,00000100,false,Rx,0,8,00,00,00,00,9A,01,C8,00,
35919015,00000101,false,Rx,0,8,00,FF,FE,00,00,00,00,00,
35919263,00000102,false,Rx,0,8,01,90,01,00,00,01,00,00,
36018765,00000100,false,Rx,0,8,00,00,00,00,9A,01,C8,00,
36019011,00000101,false,Rx,0,8,00,FF,FE,00,00,00,00,00,
36019258,00000102,false,Rx,0,8,01,90,01,00,00,01,00,00,
36118761,00000100,false,Rx,0,8,00,00,00,00,9A,01,C8,00,
36119014,00000101,false,Rx,0,8,00,FF,FE,00,00,00,00,00,
36119261,00000102,false,Rx,0,8,01,90,01,00,00,01,00,00,
36185017,00000524,false,Rx,0,6,03,0C,F2,FF,FF,FF,00,00,
36218759,00000100,false,Rx,0,8,00,00,00,00,9A,01,C8,00,
36219009,00000101,false,Rx,0,8,00,FF,FE,00,00,00,00,00,
36219256,00000102,false,Rx,0,8,01,90,01,00,00,01,00,00,
36239466,00000521,false,Rx,0,6,00,0E,F4,FF,FF,FF,00,00,
36261611,00000523,false,Rx,0,6,02,0D,EE,FF,FF,FF,00,00,
36265662,00000525,false,Rx,0,6,04,03,8F,00,00,00,00,00,
36318760,00000100,false,Rx,0,8,00,00,00,00,9A,01,C8,00,
36319006,00000101,false,Rx,0,8,00,FF,FE,00,00,00,00,00,
36319253,00000102,false,Rx,0,8,01,90,01,00,00,01,00,00,
36350378,00000527,false,Rx,0,6,06,01,3B,A9,00,00,00,00,
36402885,00000526,false,Rx,0,6,05,00,05,00,00,00,00,00,
36418752,00000100,false,Rx,0,8,00,00,00,00,9A,01,C8,00,
36419019,00000101,false,Rx,0,8,00,FF,FE,00,00,00,00,00,
36419255,00000102,false,Rx,0,8,01,90,01,00,00,01,00,00,
36451134,00000522,false,Rx,0,6,01,08,FE,73,05,00,00,00,
36457241,00000528,false,Rx,0,6,07,05,46,10,00,00,00,00,
36518753,00000100,false,Rx,0,8,00,00,00,00,9A,01,C8,00,
36518999,00000101,false,Rx,0,8,00,FF,FE,00,00,00,00,00,
36519251,00000102,false,Rx,0,8,01,90,01,00,00,01,00,00,
36618753,00000100,false,Rx,0,8,00,00,00,00,9A,01,C8,00,
36618998,00000101,false,Rx,0,8,00,FF,FE,00,00,00,00,00,
36619248,00000102,false,Rx,0,8,01,90,01,00,00,01,00,00,
36718745,00000100,false,Rx,0,8,00,00,00,00,9A,01,C8,00,
36718999,00000101,false,Rx,0,8,00,FF,FE,00,00,00,00,00,
36719250,00000102,false,Rx,0,8,01,90,01,00,00,01,00,00,
36818747,00000100,false,Rx,0,8,00,00,00,00,9A,01,C8,00,
36819000,00000101,false,Rx,0,8,00,FF,FE,00,00,00,00,00,
36819243,00000102,false,Rx,0,8,01,90,01,00,00,01,00,00,
36852354,00000521,false,Rx,0,6,00,0F,F9,FF,FF,FF,00,00,
36852574,00000524,false,Rx,0,6,03,0D,EA,FF,FF,FF,00,00,
36910785,00000523,false,Rx,0,6,02,0E,EE,FF,FF,FF,00,00,
36918743,00000100,false,Rx,0,8,00,00,00,00,9A,01,C8,00,
36918995,00000101,false,Rx,0,8,00,FF,FE,00,00,00,00,00,
36919239,00000102,false,Rx,0,8,01,90,01,00,00,01,00,00,
36951131,00000525,false,Rx,0,6,04,04,8F,00,00,00,00,00,
37018743,00000100,false,Rx,0,8,00,00,00,00,9A,01,C8,00,
37018989,00000101,false,Rx,0,8,00,FF,FE,00,00,00,00,00,
37019255,00000102,false,Rx,0,8,01,90,01,00,00,01,00,00,
37072394,00000527,false,Rx,0,6,06,02,3B,A9,00,00,00,00,
37082142,00000522,false,Rx,0,6,01,09,FA,73,05,00,00,00,
37106675,00000526,false,Rx,0,6,05,01,08,00,00,00,00,00,
37118740,00000100,false,Rx,0,8,00,00,00,00,9A,01,C8,00,
37118993,00000101,false,Rx,0,8,00,FF,FE,00,00,00,00,00,
37119240,00000102,false,Rx,0,8,01,90,01,00,00,01,00,00,
37197138,00000528,false,Rx,0,6,07,06,46,10,00,00,00,00,
37218739,00000100,false,Rx,0,8,00,00,00,00,9A,01,C8,00,
37218985,00000101,false,Rx,0,8,00,FF,FE,00,00,00,00,00,
37219233,00000102,false,Rx,0,8,01,90,01,00,00,01,00,00,
37318733,00000100,false,Rx,0,8,00,00,00,00,9A,01,C8,00,
37318986,00000101,false,Rx,0,8,00,FF,FE,00,00,00,00,00,
37319233,00000102,false,Rx,0,8,01,90,01,00,00,01,00,00,
37418731,00000100,false,Rx,0,8,00,00,00,00,9A,01,C8,00,
37418984,00000101,false,Rx,0,8,00,FF,FE,00,00,00,00,00,
37419232,00000102,false,Rx,0,8,01,90,01,00,00,01,00,00,
37465184,00000521,false,Rx,0,6,00,00,F7,FF,FF,FF,00,00,
37518733,00000100,false,Rx,0,8,00,00,00,00,9A,01,C8,00,
37518979,00000101,false,Rx,0,8,00,FF,FE,00,00,00,00,00,
37519227,00000102,false,Rx,0,8,01,90,01,00,00,01,00,00,
37519626,00000524,false,Rx,0,6,03,0E,EE,FF,FF,FF,00,00,
37559947,00000523,false,Rx,0,6,02,0F,F3,FF,FF,FF,00,00,
37618727,00000100,false,Rx,0,8,00,00,00,00,9A,01,C8,00,
37618979,00000101,false,Rx,0,8,00,FF,FE,00,00,00,00,00,
37619227,00000102,false,Rx,0,8,01,90,01,00,00,01,00,00,
37636574,00000525,false,Rx,0,6,04,05,8F,00,00,00,00,00,
37713153,00000522,false,Rx,0,6,01,0A,FA,73,05,00,00,00,
37718727,00000100,false,Rx,0,8,00,00,00,00,9A,01,C8,00,
37718977,00000101,false,Rx,0,8,00,FF,FE,00,00,00,00,00,
37719224,00000102,false,Rx,0,8,01,90,01,00,00,01,00,00,
37793868,00000527,false,Rx,0,6,06,03,3C,A9,00,00,00,00,
37810265,00000526,false,Rx,0,6,05,02,04,00,00,00,00,00,
37818727,00000100,false,Rx,0,8,00,00,00,00,9A,01,C8,00,
37818972,00000101,false,Rx,0,8,00,FF,FE,00,00,00,00,00,
37819220,00000102,false,Rx,0,8,01,90,01,00,00,01,00,00,
37918725,00000100,false,Rx,0,8,00,00,00,00,9A,01,C8,00,
37918972,00000101,false,Rx,0,8,00,FF,FE,00,00,00,00,00,
37919223,00000102,false,Rx,0,8,01,90,01,00,00,01,00,00,
37937023,00000528,false,Rx,0,6,07,07,46,10,00,00,00,00,
38018721,00000100,false,Rx,0,8,00,00,00,00,9A,01,C8,00,
38018974,00000101,false,Rx,0,8,00,FF,FE,00,00,00,00,00,
38019219,00000102,false,Rx,0,8,01,90,01,00,00,01,00,00,
38078068,00000521,false,Rx,0,6,00,01,F7,FF,FF,FF,00,00,
38118721,00000100,false,Rx,0,8,00,00,00,00,9A,01,C8,00,
38118967,00000101,false,Rx,0,8,00,FF,FE,00,00,00,00,00,
38119220,00000102,false,Rx,0,8,01,90,01,00,00,01,00,00,
38186948,00000524,false,Rx,0,6,03,0F,EC,FF,FF,FF,00,00,
38209128,00000523,false,Rx,0,6,02,00,EC,FF,FF,FF,00,00,
38218714,00000100,false,Rx,0,8,00,00,00,00,9A,01,C8,00,
38218967,00000101,false,Rx,0,8,00,FF,FE,00,00,00,00,00,
38219216,00000102,false,Rx,0,8,01,90,01,00,00,01,00,00,
38318715,00000100,false,Rx,0,8,00,00,00,00,9A,01,C8,00,
38318968,00000101,false,Rx,0,8,00,FF,FE,00,00,00,00,00,
38319213,00000102,false,Rx,0,8,01,90,01,00,00,01,00,00,
38322034,00000525,false,Rx,0,6,04,06,8F,00,00,00,00,00,
38344178,00000522,false,Rx,0,6,01,0B,05,74,05,00,00,00,
38418715,00000100,false,Rx,0,8,00,00,00,00,9A,01,C8,00,
38418962,00000101,false,Rx,0,8,00,FF,FE,00,00,00,00,00,
38419212,00000102,false,Rx,0,8,01,90,01,00,00,01,00,00,
38513878,00000526,false,Rx,0,6,05,03,06,00,00,00,00,00,
38515614,00000527,false,Rx,0,6,06,04,3C,A9,00,00,00,00,
38518710,00000100,false,Rx,0,8,00,00,00,00,9A,01,C8,00,
38518957,00000101,false,Rx,0,8,00,FF,FE,00,00,00,00,00,
38519230,00000102,false,Rx,0,8,01,90,01,00,00,01,00,00,
38618710,00000100,false,Rx,0,8,00,00,00,00,9A,01,C8,00,
38618958,00000101,false,Rx,0,8,00,FF,FE,00,00,00,00,00,
38619204,00000102,false,Rx,0,8,01,90,01,00,00,01,00,00,
38676919,00000528,false,Rx,0,6,07,08,46,10,00,00,00,00,
38691271,00000521,false,Rx,0,6,00,02,F7,FF,FF,FF,00,00,
38718708,00000100,false,Rx,0,8,00,00,00,00,9A,01,C8,00,
38718955,00000101,false,Rx,0,8,00,FF,FE,00,00,00,00,00,
38719203,00000102,false,Rx,0,8,01,90,01,00,00,01,00,00,
38818706,00000100,false,Rx,0,8,00,00,00,00,9A,01,C8,00,
38818953,00000101,false,Rx,0,8,00,FF,FE,00,00,00,00,00,
38819199,00000102,false,Rx,0,8,01,90,01,00,00,01,00,00,
38854282,00000524,false,Rx,0,6,03,00,E5,FF,FF,FF,00,00,
38858284,00000523,false,Rx,0,6,02,01,EC,FF,FF,FF,00,00,
38918702,00000100,false,Rx,0,8,00,00,00,00,9A,01,C8,00,
38918955,00000101,false,Rx,0,8,00,FF,FE,00,00,00,00,00,
38919203,00000102,false,Rx,0,8,01,90,01,00,00,01,00,00,
38975233,00000522,false,Rx,0,6,01,0C,FB,73,05,00,00,00,
39007480,00000525,false,Rx,0,6,04,07,8F,00,00,00,00,00,
39018698,00000100,false,Rx,0,8,00,00,00,00,9A,01,C8,00,
39018951,00000101,false,Rx,0,8,00,FF,FE,00,00,00,00,00,
39019198,00000102,false,Rx,0,8,01,90,01,00,00,01,00,00,
39118699,00000100,false,Rx,0,8,00,00,00,00,9A,01,C8,00,
39118946,00000101,false,Rx,0,8,00,FF,FE,00,00,00,00,00,
39119194,00000102,false,Rx,0,8,01,90,01,00,00,01,00,00,
39217188,00000526,false,Rx,0,6,05,04,00,00,00,00,00,00,
39218699,00000100,false,Rx,0,8,00,00,00,00,9A,01,C8,00,
39218948,00000101,false,Rx,0,8,00,FF,FE,00,00,00,00,00,
39219196,00000102,false,Rx,0,8,01,90,01,00,00,01,00,00,
39237615,00000527,false,Rx,0,6,06,05,3C,A9,00,00,00,00,
39303819,00000521,false,Rx,0,6,00,03,FA,FF,FF,FF,00,00,
39318696,00000100,false,Rx,0,8,00,00,00,00,9A,01,C8,00,
39318946,00000101,false,Rx,0,8,00,FF,FE,00,00,00,00,00,
39319194,00000102,false,Rx,0,8,01,90,01,00,00,01,00,00,
39416792,00000528,false,Rx,0,6,07,09,46,10,00,00,00,00,
39418688,00000100,false,Rx,0,8,00,00,00,00,9A,01,C8,00,
39418944,00000101,false,Rx,0,8,00,FF,FE,00,00,00,00,00,
39419191,00000102,false,Rx,0,8,01,90,01,00,00,01,00,00,
39507469,00000523,false,Rx,0,6,02,02,F2,FF,FF,FF,00,00,
39518692,00000100,false,Rx,0,8,00,00,00,00,9A,01,C8,00,
39518942,00000101,false,Rx,0,8,00,FF,FE,00,00,00,00,00,
39519190,00000102,false,Rx,0,8,01,90,01,00,00,01,00,00,
39521567,00000524,false,Rx,0,6,03,01,F3,FF,FF,FF,00,00,
39606223,00000522,false,Rx,0,6,01,0D,04,74,05,00,00,00,
39618689,00000100,false,Rx,0,8,00,00,00,00,9A,01,C8,00,
39618939,00000101,false,Rx,0,8,00,FF,FE,00,00,00,00,00,
39619185,00000102,false,Rx,0,8,01,90,01,00,00,01,00,00,
39692944,00000525,false,Rx,0,6,04,08,8F,00,00,00,00,00,
39718686,00000100,false,Rx,0,8,00,00,00,00,9A,01,C8,00,
39718941,00000101,false,Rx,0,8,00,FF,FE,00,00,00,00,00,
39719184,00000102,false,Rx,0,8,01,90,01,00,00,01,00,00,
39818684,00000100,false,Rx,0,8,00,00,00,00,9A,01,C8,00,
39818937,00000101,false,Rx,0,8,00,FF,FE,00,00,00,00,00,
39819182,00000102,false,Rx,0,8,01,90,01,00,00,01,00,00,
39916689,00000521,false,Rx,0,6,00,04,F9,FF,FF,FF,00,00,
39918684,00000100,false,Rx,0,8,00,00,00,00,9A,01,C8,00,
39918930,00000101,false,Rx,0,8,00,FF,FE,00,00,00,00,00,
39919182,00000102,false,Rx,0,8,01,90,01,00,00,01,00,00,
39921038,00000526,false,Rx,0,6,05,05,01,00,00,00,00,00,
39959113,00000527,false,Rx,0,6,06,06,3C,A9,00,00,00,00,
40018678,00000100,false,Rx,0,8,00,00,00,00,9A,01,C8,00,
40018931,00000101,false,Rx,0,8,00,FF,FE,00,00,00,00,00,
40019176,00000102,false,Rx,0,8,01,90,01,00,00,01,00,00,
40118675,00000100,false,Rx,0,8,00,00,00,00,9A,01,C8,00,
40118928,00000101,false,Rx,0,8,00,FF,FE,00,00,00,00,00,
40119179,00000102,false,Rx,0,8,01,90,01,00,00,01,00,00,
40156950,00000523,false,Rx,0,6,02,03,E6,FF,FF,FF,00,00,
40157166,00000528,false,Rx,0,6,07,0A,46,10,00,00,00,00,
40188875,00000524,false,Rx,0,6,03,02,F5,FF,FF,FF,00,00,
40218671,00000100,false,Rx,0,8,00,00,00,00,9A,01,C8,00,
40218924,00000101,false,Rx,0,8,00,FF,FE,00,00,00,00,00,
40219171,00000102,false,Rx,0,8,01,90,01,00,00,01,00,00,
40237233,00000522,false,Rx,0,6,01,0E,08,74,05,00,00,00,
40318673,00000100,false,Rx,0,8,00,00,00,00,9A,01,C8,00,
40318926,00000101,false,Rx,0,8,00,FF,FE,00,00,00,00,00,
40319175,00000102,false,Rx,0,8,01,90,01,00,00,01,00,00,
40378394,00000525,false,Rx,0,6,04,09,8F,00,00,00,00,00,
40418671,00000100,false,Rx,0,8,00,00,00,00,9A,01,C8,00,
40418924,00000101,false,Rx,0,8,00,FF,FE,00,00,00,00,00,
40419166,00000102,false,Rx,0,8,01,90,01,00,00,01,00,00,
40518671,00000100,false,Rx,0,8,00,00,00,00,9A,01,C8,00,
40518918,00000101,false,Rx,0,8,00,FF,FE,00,00,00,00,00,
40519165,00000102,false,Rx,0,8,01,90,01,00,00,01,00,00,
40529567,00000521,false,Rx,0,6,00,05,FD,FF,FF,FF,00,00,
40618666,00000100,false,Rx,0,8,00,00,00,00,9A,01,C8,00,
40618921,00000101,false,Rx,0,8,00,FF,FE,00,00,00,00,00,
40619161,00000102,false,Rx,0,8,01,90,01,00,00,01,00,00,
40624462,00000526,false,Rx,0,6,05,06,0D,00,00,00,00,00,
40680841,00000527,false,Rx,0,6,06,07,3C,A9,00,00,00,00,
40718664,00000100,false,Rx,0,8,00,00,00,00,9A,01,C8,00,
40718916,00000101,false,Rx,0,8,00,FF,FE,00,00,00,00,00,
40719163,00000102,false,Rx,0,8,01,90,01,00,00,01,00,00,
40805775,00000523,false,Rx,0,6,02,04,E6,FF,FF,FF,00,00,
40818659,00000100,false,Rx,0,8,00,00,00,00,9A,01,C8,00,
40818918,00000101,false,Rx,0,8,00,FF,FE,00,00,00,00,00,
40819158,00000102,false,Rx,0,8,01,90,01,00,00,01,00,00,
40856178,00000524,false,Rx,0,6,03,03,E3,FF,FF,FF,00,00,
40868255,00000522,false,Rx,0,6,01,0F,F6,73,05,00,00,00,
40896553,00000528,false,Rx,0,6,07,0B,46,10,00,00,00,00,
40918659,00000100,false,Rx,0,8,00,00,00,00,9A,01,C8,00,
40918918,00000101,false,Rx,0,8,00,FF,FE,00,00,00,00,00,
40919160,00000102,false,Rx,0,8,01,90,01,00,00,01,00,00,
41018656,00000100,false,Rx,0,8,00,00,00,00,9A,01,C8,00,
41018911,00000101,false,Rx,0,8,00,FF,FE,00,00,00,00,00,
41019159,00000102,false,Rx,0,8,01,90,01,00,00,01,00,00,
41063844,00000525,false,Rx,0,6,04,0A,8F,00,00,00,00,00,
41118656,00000100,false,Rx,0,8,00,00,00,00,9A,01,C8,00,
41118910,00000101,false,Rx,0,8,00,FF,FE,00,00,00,00,00,
41119156,00000102,false,Rx,0,8,01,90,01,00,00,01,00,00,
41142431,00000521,false,Rx,0,6,00,06,F7,FF,FF,FF,00,00,
41218654,00000100,false,Rx,0,8,00,00,00,00,9A,01,C8,00,
41218910,00000101,false,Rx,0,8,00,FF,FE,00,00,00,00,00,
41219152,00000102,false,Rx,0,8,01,90,01,00,00,01,00,00,
41318650,00000100,false,Rx,0,8,00,00,00,00,9A,01,C8,00,
41318909,00000101,false,Rx,0,8,00,FF,FE,00,00,00,00,00,
41319147,00000102,false,Rx,0,8,01,90,01,00,00,01,00,00,
41328252,00000526,false,Rx,0,6,05,07,0C,00,00,00,00,00,
41402580,00000527,false,Rx,0,6,06,08,3C,A9,00,00,00,00,
41418646,00000100,false,Rx,0,8,00,00,00,00,9A,01,C8,00,
41418896,00000101,false,Rx,0,8,00,FF,FE,00,00,00,00,00,
41419149,00000102,false,Rx,0,8,01,90,01,00,00,01,00,00,
41454963,00000523,false,Rx,0,6,02,05,FB,FF,FF,FF,00,00,
41499281,00000522,false,Rx,0,6,01,00,09,74,05,00,00,00,
41518645,00000100,false,Rx,0,8,00,00,00,00,9A,01,C8,00,
41518897,00000101,false,Rx,0,8,00,FF,FE,00,00,00,00,00,
41519144,00000102,false,Rx,0,8,01,90,01,00,00,01,00,00,
41523486,00000524,false,Rx,0,6,03,04,EF,FF,FF,FF,00,00,
41618646,00000100,false,Rx,0,8,00,00,00,00,9A,01,C8,00,
41618899,00000101,false,Rx,0,8,00,FF,FE,00,00,00,00,00,
41619143,00000102,false,Rx,0,8,01,90,01,00,00,01,00,00,
41636677,00000528,false,Rx,0,6,07,0C,46,10,00,00,00,00,
41718644,00000100,false,Rx,0,8,00,00,00,00,9A,01,C8,00,
41718898,00000101,false,Rx,0,8,00,FF,FE,00,00,00,00,00,
41719143,00000102,false,Rx,0,8,01,90,01,00,00,01,00,00,
41749294,00000525,false,Rx,0,6,04,0B,8F,00,00,00,00,00,
41755334,00000521,false,Rx,0,6,00,07,F4,FF,FF,FF,00,00,
41818640,00000100,false,Rx,0,8,00,00,00,00,9A,01,C8,00,
41818893,00000101,false,Rx,0,8,00,FF,FE,00,00,00,00,00,
41819142,00000102,false,Rx,0,8,01,90,01,00,00,01,00,00,
41918641,00000100,false,Rx,0,8,00,00,00,00,9A,01,C8,00,
41918887,00000101,false,Rx,0,8,00,FF,FE,00,00,00,00,00,
41919135,00000102,false,Rx,0,8,01,90,01,00,00,01,00,00,
42018635,00000100,false,Rx,0,8,00,00,00,00,9A,01,C8,00,
42018889,00000101,false,Rx,0,8,00,FF,FE,00,00,00,00,00,
42019137,00000102,false,Rx,0,8,01,90,01,00,00,01,00,00,
42031862,00000526,false,Rx,0,6,05,08,03,00,00,00,00,00,
42104114,00000523,false,Rx,0,6,02,06,EE,FF,FF,FF,00,00,
42118637,00000100,false,Rx,0,8,00,00,00,00,9A,01,C8,00,
42118885,00000101,false,Rx,0,8,00,FF,FE,00,00,00,00,00,
42119133,00000102,false,Rx,0,8,01,90,01,00,00,01,00,00,
42124395,00000527,false,Rx,0,6,06,09,3C,A9,00,00,00,00,
42130305,00000522,false,Rx,0,6,01,01,0D,74,05,00,00,00,
42190801,00000524,false,Rx,0,6,03,05,EC,FF,FF,FF,00,00,
42218634,00000100,false,Rx,0,8,00,00,00,00,9A,01,C8,00,
42218882,00000101,false,Rx,0,8,00,FF,FE,00,00,00,00,00,
42219130,00000102,false,Rx,0,8,01,90,01,00,00,01,00,00,
42318629,00000100,false,Rx,0,8,00,00,00,00,9A,01,C8,00,
42318883,00000101,false,Rx,0,8,00,FF,FE,00,00,00,00,00,
42319130,00000102,false,Rx,0,8,01,90,01,00,00,01,00,00,
42368193,00000521,false,Rx,0,6,00,08,F4,FF,FF,FF,00,00,
42376344,00000528,false,Rx,0,6,07,0D,46,10,00,00,00,00,
42418628,00000100,false,Rx,0,8,00,00,00,00,9A,01,C8,00,
42418877,00000101,false,Rx,0,8,00,FF,FE,00,00,00,00,00,
42419124,00000102,false,Rx,0,8,01,90,01,00,00,01,00,00,
42434757,00000525,false,Rx,0,6,04,0C,8F,00,00,00,00,00,
42518628,00000100,false,Rx,0,8,00,00,00,00,9A,01,C8,00,
42518881,00000101,false,Rx,0,8,00,FF,FE,00,00,00,00,00,
42519128,00000102,false,Rx,0,8,01,90,01,00,00,01,00,00,
42618628,00000100,false,Rx,0,8,00,00,00,00,9A,01,C8,00,
42618886,00000101,false,Rx,0,8,00,FF,FE,00,00,00,00,00,
42619128,00000102,false,Rx,0,8,01,90,01,00,00,01,00,00,
42718623,00000100,false,Rx,0,8,00,00,00,00,9A,01,C8,00,
42718875,00000101,false,Rx,0,8,00,FF,FE,00,00,00,00,00,
42719120,00000102,false,Rx,0,8,01,90,01,00,00,01,00,00,
42735459,00000526,false,Rx,0,6,05,09,01,00,00,00,00,00,
42753283,00000523,false,Rx,0,6,02,07,EE,FF,FF,FF,00,00,
42761326,00000522,false,Rx,0,6,01,02,01,74,05,00,00,00,
42818619,00000100,false,Rx,0,8,00,00,00,00,9A,01,C8,00,
42818872,00000101,false,Rx,0,8,00,FF,FE,00,00,00,00,00,
42819117,00000102,false,Rx,0,8,01,90,01,00,00,01,00,00,
42846318,00000527,false,Rx,0,6,06,0A,3C,A9,00,00,00,00,
42858117,00000524,false,Rx,0,6,03,06,F0,FF,FF,FF,00,00,
42918617,00000100,false,Rx,0,8,00,00,00,00,9A,01,C8,00,
42918869,00000101,false,Rx,0,8,00,FF,FE,00,00,00,00,00,
42919120,00000102,false,Rx,0,8,01,90,01,00,00,01,00,00,
42981068,00000521,false,Rx,0,6,00,09,F8,FF,FF,FF,00,00,
43018619,00000100,false,Rx,0,8,00,00,00,00,9A,01,C8,00,
43018865,00000101,false,Rx,0,8,00,FF,FE,00,00,00,00,00,
43019111,00000102,false,Rx,0,8,01,90,01,00,00,01,00,00,
43116238,00000528,false,Rx,0,6,07,0E,46,10,00,00,00,00,
43118615,00000100,false,Rx,0,8,00,00,00,00,9A,01,C8,00,
43118861,00000101,false,Rx,0,8,00,FF,FE,00,00,00,00,00,
43119115,00000102,false,Rx,0,8,01,90,01,00,00,01,00,00,
43120207,00000525,false,Rx,0,6,04,0D,8F,00,00,00,00,00,
43218609,00000100,false,Rx,0,8,00,00,00,00,9A,01,C8,00,
43218862,00000101,false,Rx,0,8,00,FF,FE,00,00,00,00,00,
43219115,00000102,false,Rx,0,8,01,90,01,00,00,01,00,00,
43318610,00000100,false,Rx,0,8,00,00,00,00,9A,01,C8,00,
43318862,00000101,false,Rx,0,8,00,FF,FE,00,00,00,00,00,
43319116,00000102,false,Rx,0,8,01,90,01,00,00,01,00,00,
43392353,00000522,false,Rx,0,6,01,03,08,74,05,00,00,00,
43402441,00000523,false,Rx,0,6,02,08,ED,FF,FF,FF,00,00,
43418610,00000100,false,Rx,0,8,00,00,00,00,9A,01,C8,00,
43418855,00000101,false,Rx,0,8,00,FF,FE,00,00,00,00,00,
43419116,00000102,false,Rx,0,8,01,90,01,00,00,01,00,00,
43439048,00000526,false,Rx,0,6,05,0A,02,00,00,00,00,00,
43518607,00000100,false,Rx,0,8,00,00,00,00,9A,01,C8,00,
43518859,00000101,false,Rx,0,8,00,FF,FE,00,00,00,00,00,
43519113,00000102,false,Rx,0,8,01,90,01,00,00,01,00,00,
43525420,00000524,false,Rx,0,6,03,07,E6,FF,FF,FF,00,00,
43567813,00000527,false,Rx,0,6,06,0B,3C,A9,00,00,00,00,
43593940,00000521,false,Rx,0,6,00,0A,F2,FF,FF,FF,00,00,
43618603,00000100,false,Rx,0,8,00,00,00,00,9A,01,C8,00,
43618851,00000101,false,Rx,0,8,00,FF,FE,00,00,00,00,00,
43619106,00000102,false,Rx,0,8,01,90,01,00,00,01,00,00,
43718601,00000100,false,Rx,0,8,00,00,00,00,9A,01,C8,00,
43718853,00000101,false,Rx,0,8,00,FF,FE,00,00,00,00,00,
43719098,00000102,false,Rx,0,8,01,90,01,00,00,01,00,00,
43805673,00000525,false,Rx,0,6,04,0E,8F,00,00,00,00,00,
43818603,00000100,false,Rx,0,8,00,00,00,00,9A,01,C8,00,
43818852,00000101,false,Rx,0,8,00,FF,FE,00,00,00,00,00,
43819097,00000102,false,Rx,0,8,01,90,01,00,00,01,00,00,
43856123,00000528,false,Rx,0,6,07,0F,46,10,00,00,00,00,
43918601,00000100,false,Rx,0,8,00,00,00,00,9A,01,C8,00,
43918848,00000101,false,Rx,0,8,00,FF,FE,00,00,00,00,00,
43919096,00000102,false,Rx,0,8,01,90,01,00,00,01,00,00,
44018597,00000100,false,Rx,0,8,00,00,00,00,9A,01,C8,00,
44018849,00000101,false,Rx,0,8,00,FF,FE,00,00,00,00,00,
44019097,00000102,false,Rx,0,8,01,90,01,00,00,01,00,00,
44023500,00000522,false,Rx,0,6,01,04,14,74,05,00,00,00,
44051607,00000523,false,Rx,0,6,02,09,E7,FF,FF,FF,00,00,
44118590,00000100,false,Rx,0,8,00,00,00,00,9A,01,C8,00,
44118842,00000101,false,Rx,0,8,00,FF,FE,00,00,00,00,00,
44119099,00000102,false,Rx,0,8,01,90,01,00,00,01,00,00,
44142635,00000526,false,Rx,0,6,05,0B,05,00,00,00,00,00,
44192727,00000524,false,Rx,0,6,03,08,EF,FF,FF,FF,00,00,
44206874,00000521,false,Rx,0,6,00,0B,F6,FF,FF,FF,00,00,
44218591,00000100,false,Rx,0,8,00,00,00,00,9A,01,C8,00,
44218844,00000101,false,Rx,0,8,00,FF,FE,00,00,00,00,00,
44219099,00000102,false,Rx,0,8,01,90,01,00,00,01,00,00,
44289560,00000527,false,Rx,0,6,06,0C,3C,A9,00,00,00,00,
44318591,00000100,false,Rx,0,8,00,00,00,00,9A,01,C8,00,
44318843,00000101,false,Rx,0,8,00,FF,FE,00,00,00,00,00,
44319096,00000102,false,Rx,0,8,01,90,01,00,00,01,00,00,
44418591,00000100,false,Rx,0,8,00,00,00,00,9A,01,C8,00,
44418837,00000101,false,Rx,0,8,00,FF,FE,00,00,00,00,00,
44419094,00000102,false,Rx,0,8,01,90,01,00,00,01,00,00,
44491125,00000525,false,Rx,0,6,04,0F,8F,00,00,00,00,00,
44518585,00000100,false,Rx,0,8,00,00,00,00,9A,01,C8,00,
44518838,00000101,false,Rx,0,8,00,FF,FE,00,00,00,00,00,
44519091,00000102,false,Rx,0,8,01,90,01,00,00,01,00,00,
44596006,00000528,false,Rx,0,6,07,00,46,10,00,00,00,00,
44618585,00000100,false,Rx,0,8,00,00,00,00,9A,01,C8,00,
44618837,00000101,false,Rx,0,8,00,FF,FE,00,00,00,00,00,
44619092,00000102,false,Rx,0,8,01,90,01,00,00,01,00,00,
44654398,00000522,false,Rx,0,6,01,05,10,74,05,00,00,00,
44700788,00000523,false,Rx,0,6,02,0A,E7,FF,FF,FF,00,00,
44718578,00000100,false,Rx,0,8,00,00,00,00,9A,01,C8,00,
44718831,00000101,false,Rx,0,8,00,FF,FE,00,00,00,00,00,
44719078,00000102,false,Rx,0,8,01,90,01,00,00,01,00,00,
44818577,00000100,false,Rx,0,8,00,00,00,00,9A,01,C8,00,
44818829,00000101,false,Rx,0,8,00,FF,FE,00,00,00,00,00,
44819075,00000102,false,Rx,0,8,01,90,01,00,00,01,00,00,
44819729,00000521,false,Rx,0,6,00,0C,FE,FF,FF,FF,00,00,
44846092,00000526,false,Rx,0,6,05,0C,00,00,00,00,00,00,
44860060,00000524,false,Rx,0,6,03,09,F5,FF,FF,FF,00,00,
44918575,00000100,false,Rx,0,8,00,00,00,00,9A,01,C8,00,
44918828,00000101,false,Rx,0,8,00,FF,FE,00,00,00,00,00,
44919075,00000102,false,Rx,0,8,01,90,01,00,00,01,00,00,
45011563,00000527,false,Rx,0,6,06,0D,3C,A9,00,00,00,00,
45018575,00000100,false,Rx,0,8,00,00,00,00,9A,01,C8,00,
45018824,00000101,false,Rx,0,8,00,FF,FE,00,00,00,00,00,
45019071,00000102,false,Rx,0,8,01,90,01,00,00,01,00,00,
45118574,00000100,false,Rx,0,8,00,00,00,00,9A,01,C8,00,
45118820,00000101,false,Rx,0,8,00,FF,FE,00,00,00,00,00,
45119072,00000102,false,Rx,0,8,01,90,01,00,00,01,00,00,
45176600,00000525,false,Rx,0,6,04,00,8F,00,00,00,00,00,
45218569,00000100,false,Rx,0,8,00,00,00,00,9A,01,C8,00,
45218823,00000101,false,Rx,0,8,00,FF,FE,00,00,00,00,00,
45219071,00000102,false,Rx,0,8,01,90,01,00,00,01,00,00,
45285446,00000522,false,Rx,0,6,01,06,1D,74,05,00,00,00,
45318566,00000100,false,Rx,0,8,00,00,00,00,9A,01,C8,00,
45318820,00000101,false,Rx,0,8,00,FF,FE,00,00,00,00,00,
45319068,00000102,false,Rx,0,8,01,90,01,00,00,01,00,00,
45335928,00000528,false,Rx,0,6,07,01,46,10,00,00,00,00,
45349967,00000523,false,Rx,0,6,02,0B,F3,FF,FF,FF,00,00,
45418567,00000100,false,Rx,0,8,00,00,00,00,9A,01,C8,00,
45418830,00000101,false,Rx,0,8,00,FF,FE,00,00,00,00,00,
45419066,00000102,false,Rx,0,8,01,90,01,00,00,01,00,00,
45432930,00000521,false,Rx,0,6,00,0D,F3,FF,FF,FF,00,00,
45518563,00000100,false,Rx,0,8,00,00,00,00,9A,01,C8,00,
45518815,00000101,false,Rx,0,8,00,FF,FE,00,00,00,00,00,
45519059,00000102,false,Rx,0,8,01,90,01,00,00,01,00,00,
45527400,00000524,false,Rx,0,6,03,0A,EE,FF,FF,FF,00,00,
45549900,00000526,false,Rx,0,6,05,0D,06,00,00,00,00,00,
45618560,00000100,false,Rx,0,8,00,00,00,00,9A,01,C8,00,
45618813,00000101,false,Rx,0,8,00,FF,FE,00,00,00,00,00,
45619063,00000102,false,Rx,0,8,01,90,01,00,00,01,00,00,
45718557,00000100,false,Rx,0,8,00,00,00,00,9A,01,C8,00,
45718809,00000101,false,Rx,0,8,00,FF,FE,00,00,00,00,00,
45719059,00000102,false,Rx,0,8,01,90,01,00,00,01,00,00,
45733111,00000527,false,Rx,0,6,06,0E,3C,A9,00,00,00,00,
45818557,00000100,false,Rx,0,8,00,00,00,00,9A,01,C8,00,
45818810,00000101,false,Rx,0,8,00,FF,FE,00,00,00,00,00,
45819053,00000102,false,Rx,0,8,01,90,01,00,00,01,00,00,
45862091,00000525,false,Rx,0,6,04,01,8F,00,00,00,00,00,
45916520,00000522,false,Rx,0,6,01,07,12,74,05,00,00,00,
45918558,00000100,false,Rx,0,8,00,00,00,00,9A,01,C8,00,
45918804,00000101,false,Rx,0,8,00,FF,FE,00,00,00,00,00,
45919056,00000102,false,Rx,0,8,01,90,01,00,00,01,00,00,
45999170,00000523,false,Rx,0,6,02,0C,F5,FF,FF,FF,00,00,
46018556,00000100,false,Rx,0,8,00,00,00,00,9A,01,C8,00,
46018802,00000101,false,Rx,0,8,00,FF,FE,00,00,00,00,00,
46019064,00000102,false,Rx,0,8,01,90,01,00,00,01,00,00,
46045530,00000521,false,Rx,0,6,00,0E,F5,FF,FF,FF,00,00,
46075850,00000528,false,Rx,0,6,07,02,46,10,00,00,00,00,
46118552,00000100,false,Rx,0,8,00,00,00,00,9A,01,C8,00,
46118804,00000101,false,Rx,0,8,00,FF,FE,00,00,00,00,00,
46119051,00000102,false,Rx,0,8,01,90,01,00,00,01,00,00,
46194734,00000524,false,Rx,0,6,03,0B,EA,FF,FF,FF,00,00,
46218550,00000100,false,Rx,0,8,00,00,00,00,9A,01,C8,00,
46218803,00000101,false,Rx,0,8,00,FF,FE,00,00,00,00,00,
46219050,00000102,false,Rx,0,8,01,90,01,00,00,01,00,00,
46253524,00000526,false,Rx,0,6,05,0E,07,00,00,00,00,00,
46318548,00000100,false,Rx,0,8,00,00,00,00,9A,01,C8,00,
46318800,00000101,false,Rx,0,8,00,FF,FE,00,00,00,00,00,
46319047,00000102,false,Rx,0,8,01,90,01,00,00,01,00,00,
46418548,00000100,false,Rx,0,8,00,00,00,00,9A,01,C8,00,
46418794,00000101,false,Rx,0,8,00,FF,FE,00,00,00,00,00,
46419040,00000102,false,Rx,0,8,01,90,01,00,00,01,00,00,
46454861,00000527,false,Rx,0,6,06,0F,3C,A9,00,00,00,00,
46518541,00000100,false,Rx,0,8,00,00,00,00,9A,01,C8,00,
46518793,00000101,false,Rx,0,8,00,FF,FE,00,00,00,00,00,
46519041,00000102,false,Rx,0,8,01,90,01,00,00,01,00,00,
46547574,00000522,false,Rx,0,6,01,08,15,74,05,00,00,00,
46547795,00000525,false,Rx,0,6,04,02,8F,00,00,00,00,00,
46618542,00000100,false,Rx,0,8,00,00,00,00,9A,01,C8,00,
46618788,00000101,false,Rx,0,8,00,FF,FE,00,00,00,00,00,
46619041,00000102,false,Rx,0,8,01,90,01,00,00,01,00,00,
46648339,00000523,false,Rx,0,6,02,0D,F5,FF,FF,FF,00,00,
46658420,00000521,false,Rx,0,6,00,0F,F9,FF,FF,FF,00,00,
46718539,00000100,false,Rx,0,8,00,00,00,00,9A,01,C8,00,
46718791,00000101,false,Rx,0,8,00,FF,FE,00,00,00,00,00,
46719038,00000102,false,Rx,0,8,01,90,01,00,00,01,00,00,
46815747,00000528,false,Rx,0,6,07,03,46,10,00,00,00,00,
46818539,00000100,false,Rx,0,8,00,00,00,00,9A,01,C8,00,
46818784,00000101,false,Rx,0,8,00,FF,FE,00,00,00,00,00,
46819038,00000102,false,Rx,0,8,01,90,01,00,00,01,00,00,
46862054,00000524,false,Rx,0,6,03,0C,F7,FF,FF,FF,00,00,
46918536,00000100,false,Rx,0,8,00,00,00,00,9A,01,C8,00,
46918782,00000101,false,Rx,0,8,00,FF,FE,00,00,00,00,00,
46919035,00000102,false,Rx,0,8,01,90,01,00,00,01,00,00,
46957136,00000526,false,Rx,0,6,05,0F,0A,00,00,00,00,00,
47018535,00000100,false,Rx,0,8,00,00,00,00,9A,01,C8,00,
47018781,00000101,false,Rx,0,8,00,FF,FE,00,00,00,00,00,
47019035,00000102,false,Rx,0,8,01,90,01,00,00,01,00,00,
47118529,00000100,false,Rx,0,8,00,00,00,00,9A,01,C8,00,
47118781,00000101,false,Rx,0,8,00,FF,FE,00,00,00,00,00,
47119028,00000102,false,Rx,0,8,01,90,01,00,00,01,00,00,
47176615,00000527,false,Rx,0,6,06,00,3C,A9,00,00,00,00,
47178554,00000522,false,Rx,0,6,01,09,16,74,05,00,00,00,
47218527,00000100,false,Rx,0,8,00,00,00,00,9A,01,C8,00,
47218778,00000101,false,Rx,0,8,00,FF,FE,00,00,00,00,00,
47219024,00000102,false,Rx,0,8,01,90,01,00,00,01,00,00,
47233018,00000525,false,Rx,0,6,04,03,8F,00,00,00,00,00,
47271301,00000521,false,Rx,0,6,00,00,F8,FF,FF,FF,00,00,
47297523,00000523,false,Rx,0,6,02,0E,F6,FF,FF,FF,00,00,
47318530,00000100,false,Rx,0,8,00,00,00,00,9A,01,C8,00,
47318774,00000101,false,Rx,0,8,00,FF,FE,00,00,00,00,00,
47319027,00000102,false,Rx,0,8,01,90,01,00,00,01,00,00,
47418526,00000100,false,Rx,0,8,00,00,00,00,9A,01,C8,00,
47418778,00000101,false,Rx,0,8,00,FF,FE,00,00,00,00,00,
47419025,00000102,false,Rx,0,8,01,90,01,00,00,01,00,00,
47518520,00000100,false,Rx,0,8,00,00,00,00,9A,01,C8,00,
47518771,00000101,false,Rx,0,8,00,FF,FE,00,00,00,00,00,
47519019,00000102,false,Rx,0,8,01,90,01,00,00,01,00,00,
47529376,00000524,false,Rx,0,6,03,0D,E8,FF,FF,FF,00,00,
47555643,00000528,false,Rx,0,6,07,04,46,10,00,00,00,00,
47618521,00000100,false,Rx,0,8,00,00,00,00,9A,01,C8,00,
47618778,00000101,false,Rx,0,8,00,FF,FE,00,00,00,00,00,
47619019,00000102,false,Rx,0,8,01,90,01,00,00,01,00,00,
47660712,00000526,false,Rx,0,6,05,00,FF,FF,FF,FF,00,00,
47718519,00000100,false,Rx,0,8,00,00,00,00,9A,01,C8,00,
47718771,00000101,false,Rx,0,8,00,FF,FE,00,00,00,00,00,
47719014,00000102,false,Rx,0,8,01,90,01,00,00,01,00,00,
47809591,00000522,false,Rx,0,6,01,0A,1C,74,05,00,00,00,
47818518,00000100,false,Rx,0,8,00,00,00,00,9A,01,C8,00,
47818763,00000101,false,Rx,0,8,00,FF,FE,00,00,00,00,00,
47819016,00000102,false,Rx,0,8,01,90,01,00,00,01,00,00,
47884568,00000521,false,Rx,0,6,00,01,F8,FF,FF,FF,00,00,
47898376,00000527,false,Rx,0,6,06,01,3C,A9,00,00,00,00,
47918510,00000100,false,Rx,0,8,00,00,00,00,9A,01,C8,00,
47918762,00000101,false,Rx,0,8,00,FF,FE,00,00,00,00,00,
47919010,00000102,false,Rx,0,8,01,90,01,00,00,01,00,00,
47919214,00000525,false,Rx,0,6,04,04,8F,00,00,00,00,00,
47946692,00000523,false,Rx,0,6,02,0F,EA,FF,FF,FF,00,00,
48018510,00000100,false,Rx,0,8,00,00,00,00,9A,01,C8,00,
48018763,00000101,false,Rx,0,8,00,FF,FE,00,00,00,00,00,
48019013,00000102,false,Rx,0,8,01,90,01,00,00,01,00,00,
48118512,00000100,false,Rx,0,8,00,00,00,00,9A,01,C8,00,
48118758,00000101,false,Rx,0,8,00,FF,FE,00,00,00,00,00,
48119007,00000102,false,Rx,0,8,01,90,01,00,00,01,00,00,
48196703,00000524,false,Rx,0,6,03,0E,F3,FF,FF,FF,00,00,
48218505,00000100,false,Rx,0,8,00,00,00,00,9A,01,C8,00,
48218758,00000101,false,Rx,0,8,00,FF,FE,00,00,00,00,00,
48219014,00000102,false,Rx,0,8,01,90,01,00,00,01,00,00,
48295812,00000528,false,Rx,0,6,07,05,46,10,00,00,00,00,
48318505,00000100,false,Rx,0,8,00,00,00,00,9A,01,C8,00,
48318757,00000101,false,Rx,0,8,00,FF,FE,00,00,00,00,00,
48319003,00000102,false,Rx,0,8,01,90,01,00,00,01,00,00,
48364344,00000526,false,Rx,0,6,05,01,07,00,00,00,00,00,
48418504,00000100,false,Rx,0,8,00,00,00,00,9A,01,C8,00,
48418756,00000101,false,Rx,0,8,00,FF,FE,00,00,00,00,00,
48419003,00000102,false,Rx,0,8,01,90,01,00,00,01,00,00,
48440637,00000522,false,Rx,0,6,01,0B,22,74,05,00,00,00,
48497098,00000521,false,Rx,0,6,00,02,F3,FF,FF,FF,00,00,
48518505,00000100,false,Rx,0,8,00,00,00,00,9A,01,C8,00,
48518751,00000101,false,Rx,0,8,00,FF,FE,00,00,00,00,00,
48518997,00000102,false,Rx,0,8,01,90,01,00,00,01,00,00,
48595888,00000523,false,Rx,0,6,02,00,EA,FF,FF,FF,00,00,
48603967,00000525,false,Rx,0,6,04,05,8F,00,00,00,00,00,
48618499,00000100,false,Rx,0,8,00,00,00,00,9A,01,C8,00,
48618751,00000101,false,Rx,0,8,00,FF,FE,00,00,00,00,00,
48618998,00000102,false,Rx,0,8,01,90,01,00,00,01,00,00,
48620147,00000527,false,Rx,0,6,06,02,3C,A9,00,00,00,00,
48718499,00000100,false,Rx,0,8,00,00,00,00,9A,01,C8,00,
48718745,00000101,false,Rx,0,8,00,FF,FE,00,00,00,00,00,
48718998,00000102,false,Rx,0,8,01,90,01,00,00,01,00,00,
48818493,00000100,false,Rx,0,8,00,00,00,00,9A,01,C8,00,
48818745,00000101,false,Rx,0,8,00,FF,FE,00,00,00,00,00,
48818991,00000102,false,Rx,0,8,01,90,01,00,00,01,00,00,
48864035,00000524,false,Rx,0,6,03,0F,F2,FF,FF,FF,00,00,
48918490,00000100,false,Rx,0,8,00,00,00,00,9A,01,C8,00,
48918741,00000101,false,Rx,0,8,00,FF,FE,00,00,00,00,00,
48918988,00000102,false,Rx,0,8,01,90,01,00,00,01,00,00,
49018491,00000100,false,Rx,0,8,00,00,00,00,9A,01,C8,00,
49018744,00000101,false,Rx,0,8,00,FF,FE,00,00,00,00,00,
49018991,00000102,false,Rx,0,8,01,90,01,00,00,01,00,00,
49035468,00000528,false,Rx,0,6,07,06,46,10,00,00,00,00,
49067800,00000526,false,Rx,0,6,05,02,07,00,00,00,00,00,
49071669,00000522,false,Rx,0,6,01,0C,27,74,05,00,00,00,
49109983,00000521,false,Rx,0,6,00,03,F6,FF,FF,FF,00,00,
49118489,00000100,false,Rx,0,8,00,00,00,00,9A,01,C8,00,
49118740,00000101,false,Rx,0,8,00,FF,FE,00,00,00,00,00,
49118986,00000102,false,Rx,0,8,01,90,01,00,00,01,00,00,
49218487,00000100,false,Rx,0,8,00,00,00,00,9A,01,C8,00,
49218740,00000101,false,Rx,0,8,00,FF,FE,00,00,00,00,00,
49218987,00000102,false,Rx,0,8,01,90,01,00,00,01,00,00,
49245111,00000523,false,Rx,0,6,02,01,F2,FF,FF,FF,00,00,
49289430,00000525,false,Rx,0,6,04,06,8F,00,00,00,00,00,
49318482,00000100,false,Rx,0,8,00,00,00,00,9A,01,C8,00,
49318737,00000101,false,Rx,0,8,00,FF,FE,00,00,00,00,00,
49318983,00000102,false,Rx,0,8,01,90,01,00,00,01,00,00,
49341910,00000527,false,Rx,0,6,06,03,3C,A9,00,00,00,00,
49418484,00000100,false,Rx,0,8,00,00,00,00,9A,01,C8,00,
49418747,00000101,false,Rx,0,8,00,FF,FE,00,00,00,00,00,
49418983,00000102,false,Rx,0,8,01,90,01,00,00,01,00,00,
49518481,00000100,false,Rx,0,8,00,00,00,00,9A,01,C8,00,
49518733,00000101,false,Rx,0,8,00,FF,FE,00,00,00,00,00,
49518976,00000102,false,Rx,0,8,01,90,01,00,00,01,00,00,
49531344,00000524,false,Rx,0,6,03,00,F8,FF,FF,FF,00,00,
49618477,00000100,false,Rx,0,8,00,00,00,00,9A,01,C8,00,
49618730,00000101,false,Rx,0,8,00,FF,FE,00,00,00,00,00,
49618980,00000102,false,Rx,0,8,01,90,01,00,00,01,00,00,
49702704,00000522,false,Rx,0,6,01,0D,17,74,05,00,00,00,
49718477,00000100,false,Rx,0,8,00,00,00,00,9A,01,C8,00,
49718729,00000101,false,Rx,0,8,00,FF,FE,00,00,00,00,00,
49718975,00000102,false,Rx,0,8,01,90,01,00,00,01,00,00,
49722861,00000521,false,Rx,0,6,00,04,F6,FF,FF,FF,00,00,
49771590,00000526,false,Rx,0,6,05,03,05,00,00,00,00,00,
49775363,00000528,false,Rx,0,6,07,07,46,10,00,00,00,00,
49818473,00000100,false,Rx,0,8,00,00,00,00,9A,01,C8,00,
49818726,00000101,false,Rx,0,8,00,FF,FE,00,00,00,00,00,
49818975,00000102,false,Rx,0,8,01,90,01,00,00,01,00,00,
49894246,00000523,false,Rx,0,6,02,02,F8,FF,FF,FF,00,00,
49918474,00000100,false,Rx,0,8,00,00,00,00,9A,01,C8,00,
49918719,00000101,false,Rx,0,8,00,FF,FE,00,00,00,00,00,
49918971,00000102,false,Rx,0,8,01,90,01,00,00,01,00,00,
49974896,00000525,false,Rx,0,6,04,07,8F,00,00,00,00,00,
50018469,00000100,false,Rx,0,8,00,00,00,00,9A,01,C8,00,
50018721,00000101,false,Rx,0,8,00,FF,FE,00,00,00,00,00,
50018984,00000102,false,Rx,0,8,01,90,01,00,00,01,00,00,
50063658,00000527,false,Rx,0,6,06,04,3C,A9,00,00,00,00,
50118472,00000100,false,Rx,0,8,00,00,00,00,9A,01,C8,00,
50118717,00000101,false,Rx,0,8,00,FF,FE,00,00,00,00,00,
50118970,00000102,false,Rx,0,8,01,90,01,00,00,01,00,00,
50198678,00000524,false,Rx,0,6,03,01,F8,FF,FF,FF,00,00,
50218468,00000100,false,Rx,0,8,00,00,00,00,9A,01,C8,00,
50218713,00000101,false,Rx,0,8,00,FF,FE,00,00,00,00,00,
50218967,00000102,false,Rx,0,8,01,90,01,00,00,01,00,00,
50318461,00000100,false,Rx,0,8,00,00,00,00,9A,01,C8,00,
50318713,00000101,false,Rx,0,8,00,FF,FE,00,00,00,00,00,
50318960,00000102,false,Rx,0,8,01,90,01,00,00,01,00,00,
50333766,00000522,false,Rx,0,6,01,0E,25,74,05,00,00,00,
50335754,00000521,false,Rx,0,6,00,05,F6,FF,FF,FF,00,00,
50418461,00000100,false,Rx,0,8,00,00,00,00,9A,01,C8,00,
50418713,00000101,false,Rx,0,8,00,FF,FE,00,00,00,00,00,
50418961,00000102,false,Rx,0,8,01,90,01,00,00,01,00,00,
50475193,00000526,false,Rx,0,6,05,04,05,00,00,00,00,00,
50515505,00000528,false,Rx,0,6,07,08,46,10,00,00,00,00,
50518464,00000100,false,Rx,0,8,00,00,00,00,9A,01,C8,00,
50518708,00000101,false,Rx,0,8,00,FF,FE,00,00,00,00,00,
50518961,00000102,false,Rx,0,8,01,90,01,00,00,01,00,00,
50543409,00000523,false,Rx,0,6,02,03,F8,FF,FF,FF,00,00,
50618459,00000100,false,Rx,0,8,00,00,00,00,9A,01,C8,00,
50618705,00000101,false,Rx,0,8,00,FF,FE,00,00,00,00,00,
50618958,00000102,false,Rx,0,8,01,90,01,00,00,01,00,00,
50660359,00000525,false,Rx,0,6,04,08,8F,00,00,00,00,00,
50718455,00000100,false,Rx,0,8,00,00,00,00,9A,01,C8,00,
50718708,00000101,false,Rx,0,8,00,FF,FE,00,00,00,00,00,
50718955,00000102,false,Rx,0,8,01,90,01,00,00,01,00,00,
50785389,00000527,false,Rx,0,6,06,05,3C,A9,00,00,00,00,
50818456,00000100,false,Rx,0,8,00,00,00,00,9A,01,C8,00,
50818704,00000101,false,Rx,0,8,00,FF,FE,00,00,00,00,00,
50818950,00000102,false,Rx,0,8,01,90,01,00,00,01,00,00,
50865985,00000524,false,Rx,0,6,03,02,F2,FF,FF,FF,00,00,
50918450,00000100,false,Rx,0,8,00,00,00,00,9A,01,C8,00,
50918702,00000101,false,Rx,0,8,00,FF,FE,00,00,00,00,00,
50918952,00000102,false,Rx,0,8,01,90,01,00,00,01,00,00,
50948638,00000521,false,Rx,0,6,00,06,FB,FF,FF,FF,00,00,
50964756,00000522,false,Rx,0,6,01,0F,18,74,05,00,00,00,
51018450,00000100,false,Rx,0,8,00,00,00,00,9A,01,C8,00,
51018702,00000101,false,Rx,0,8,00,FF,FE,00,00,00,00,00,
51018945,00000102,false,Rx,0,8,01,90,01,00,00,01,00,00,
51118450,00000100,false,Rx,0,8,00,00,00,00,9A,01,C8,00,
51118695,00000101,false,Rx,0,8,00,FF,FE,00,00,00,00,00,
51118945,00000102,false,Rx,0,8,01,90,01,00,00,01,00,00,
51178816,00000526,false,Rx,0,6,05,05,00,00,00,00,00,00,
51192611,00000523,false,Rx,0,6,02,04,E6,FF,FF,FF,00,00,
51218446,00000100,false,Rx,0,8,00,00,00,00,9A,01,C8,00,
51218692,00000101,false,Rx,0,8,00,FF,FE,00,00,00,00,00,
51218941,00000102,false,Rx,0,8,01,90,01,00,00,01,00,00,
51255152,00000528,false,Rx,0,6,07,09,46,10,00,00,00,00,
51318445,00000100,false,Rx,0,8,00,00,00,00,9A,01,C8,00,
51318691,00000101,false,Rx,0,8,00,FF,FE,00,00,00,00,00,
51318941,00000102,false,Rx,0,8,01,90,01,00,00,01,00,00,
51345819,00000525,false,Rx,0,6,04,09,8F,00,00,00,00,00,
51418443,00000100,false,Rx,0,8,00,00,00,00,9A,01,C8,00,
51418695,00000101,false,Rx,0,8,00,FF,FE,00,00,00,00,00,
51418940,00000102,false,Rx,0,8,01,90,01,00,00,01,00,00,
51507164,00000527,false,Rx,0,6,06,06,3C,A9,00,00,00,00,
51518437,00000100,false,Rx,0,8,00,00,00,00,9A,01,C8,00,
51518689,00000101,false,Rx,0,8,00,FF,FE,00,00,00,00,00,
51518936,00000102,false,Rx,0,8,01,90,01,00,00,01,00,00,
51533323,00000524,false,Rx,0,6,03,03,F6,FF,FF,FF,00,00,
51561527,00000521,false,Rx,0,6,00,07,F7,FF,FF,FF,00,00,
51595797,00000522,false,Rx,0,6,01,00,29,74,05,00,00,00,
51618435,00000100,false,Rx,0,8,00,00,00,00,9A,01,C8,00,
51618687,00000101,false,Rx,0,8,00,FF,FE,00,00,00,00,00,
51618934,00000102,false,Rx,0,8,01,90,01,00,00,01,00,00,
51718437,00000100,false,Rx,0,8,00,00,00,00,9A,01,C8,00,
51718682,00000101,false,Rx,0,8,00,FF,FE,00,00,00,00,00,
51718936,00000102,false,Rx,0,8,01,90,01,00,00,01,00,00,
51818434,00000100,false,Rx,0,8,00,00,00,00,9A,01,C8,00,
51818686,00000101,false,Rx,0,8,00,FF,FE,00,00,00,00,00,
51818933,00000102,false,Rx,0,8,01,90,01,00,00,01,00,00,
51841772,00000523,false,Rx,0,6,02,05,F6,FF,FF,FF,00,00,
51882392,00000526,false,Rx,0,6,05,06,08,00,00,00,00,00,
51918430,00000100,false,Rx,0,8,00,00,00,00,9A,01,C8,00,
51918685,00000101,false,Rx,0,8,00,FF,FE,00,00,00,00,00,
51918932,00000102,false,Rx,0,8,01,90,01,00,00,01,00,00,
51995071,00000528,false,Rx,0,6,07,0A,46,10,00,00,00,00,
52018431,00000100,false,Rx,0,8,00,00,00,00,9A,01,C8,00,
52018680,00000101,false,Rx,0,8,00,FF,FE,00,00,00,00,00,
52018927,00000102,false,Rx,0,8,01,90,01,00,00,01,00,00,
52031314,00000525,false,Rx,0,6,04,0A,8F,00,00,00,00,00,
52118424,00000100,false,Rx,0,8,00,00,00,00,9A,01,C8,00,
52118676,00000101,false,Rx,0,8,00,FF,FE,00,00,00,00,00,
52118927,00000102,false,Rx,0,8,01,90,01,00,00,01,00,00,
52174443,00000521,false,Rx,0,6,00,08,F9,FF,FF,FF,00,00,
52200671,00000524,false,Rx,0,6,03,04,F9,FF,FF,FF,00,00,
52218428,00000100,false,Rx,0,8,00,00,00,00,9A,01,C8,00,
52218672,00000101,false,Rx,0,8,00,FF,FE,00,00,00,00,00,
52218924,00000102,false,Rx,0,8,01,90,01,00,00,01,00,00,
52226848,00000522,false,Rx,0,6,01,01,26,74,05,00,00,00,
52228945,00000527,false,Rx,0,6,06,07,3C,A9,00,00,00,00,
52318425,00000100,false,Rx,0,8,00,00,00,00,9A,01,C8,00,
52318671,00000101,false,Rx,0,8,00,FF,FE,00,00,00,00,00,
52318924,00000102,false,Rx,0,8,01,90,01,00,00,01,00,00,
52418422,00000100,false,Rx,0,8,00,00,00,00,9A,01,C8,00,
52418679,00000101,false,Rx,0,8,00,FF,FE,00,00,00,00,00,
52418921,00000102,false,Rx,0,8,01,90,01,00,00,01,00,00,
52490980,00000523,false,Rx,0,6,02,06,F6,FF,FF,FF,00,00,
52518418,00000100,false,Rx,0,8,00,00,00,00,9A,01,C8,00,
52518671,00000101,false,Rx,0,8,00,FF,FE,00,00,00,00,00,
52518918,00000102,false,Rx,0,8,01,90,01,00,00,01,00,00,
52586062,00000526,false,Rx,0,6,05,07,02,00,00,00,00,00,
52618418,00000100,false,Rx,0,8,00,00,00,00,9A,01,C8,00,
52618670,00000101,false,Rx,0,8,00,FF,FE,00,00,00,00,00,
52618919,00000102,false,Rx,0,8,01,90,01,00,00,01,00,00,
52716806,00000525,false,Rx,0,6,04,0B,8F,00,00,00,00,00,
52718412,00000100,false,Rx,0,8,00,00,00,00,9A,01,C8,00,
52718665,00000101,false,Rx,0,8,00,FF,FE,00,00,00,00,00,
52718919,00000102,false,Rx,0,8,01,90,01,00,00,01,00,00,
52734998,00000528,false,Rx,0,6,07,0B,46,10,00,00,00,00,
52787347,00000521,false,Rx,0,6,00,09,F5,FF,FF,FF,00,00,
52818411,00000100,false,Rx,0,8,00,00,00,00,9A,01,C8,00,
52818664,00000101,false,Rx,0,8,00,FF,FE,00,00,00,00,00,
52818911,00000102,false,Rx,0,8,01,90,01,00,00,01,00,00,
52857906,00000522,false,Rx,0,6,01,02,2C,74,05,00,00,00,
52868007,00000524,false,Rx,0,6,03,05,EC,FF,FF,FF,00,00,
52918407,00000100,false,Rx,0,8,00,00,00,00,9A,01,C8,00,
52918660,00000101,false,Rx,0,8,00,FF,FE,00,00,00,00,00,
52918909,00000102,false,Rx,0,8,01,90,01,00,00,01,00,00,
52950733,00000527,false,Rx,0,6,06,08,3C,A9,00,00,00,00,
53018406,00000100,false,Rx,0,8,00,00,00,00,9A,01,C8,00,
53018658,00000101,false,Rx,0,8,00,FF,FE,00,00,00,00,00,
53018906,00000102,false,Rx,0,8,01,90,01,00,00,01,00,00,
53118405,00000100,false,Rx,0,8,00,00,00,00,9A,01,C8,00,
53118658,00000101,false,Rx,0,8,00,FF,FE,00,00,00,00,00,
53118909,00000102,false,Rx,0,8,01,90,01,00,00,01,00,00,
53140169,00000523,false,Rx,0,6,02,07,ED,FF,FF,FF,00,00,
53218403,00000100,false,Rx,0,8,00,00,00,00,9A,01,C8,00,
53218655,00000101,false,Rx,0,8,00,FF,FE,00,00,00,00,00,
53218907,00000102,false,Rx,0,8,01,90,01,00,00,01,00,00,
53289518,00000526,false,Rx,0,6,05,08,FC,FF,FF,FF,00,00,
53318402,00000100,false,Rx,0,8,00,00,00,00,9A,01,C8,00,
53318649,00000101,false,Rx,0,8,00,FF,FE,00,00,00,00,00,
53318900,00000102,false,Rx,0,8,01,90,01,00,00,01,00,00,
53400283,00000521,false,Rx,0,6,00,0A,F7,FF,FF,FF,00,00,
53402291,00000525,false,Rx,0,6,04,0C,8F,00,00,00,00,00,
53418402,00000100,false,Rx,0,8,00,00,00,00,9A,01,C8,00,
53418654,00000101,false,Rx,0,8,00,FF,FE,00,00,00,00,00,
53418898,00000102,false,Rx,0,8,01,90,01,00,00,01,00,00,
53474925,00000528,false,Rx,0,6,07,0C,46,10,00,00,00,00,
53488942,00000522,false,Rx,0,6,01,03,32,74,05,00,00,00,
53518399,00000100,false,Rx,0,8,00,00,00,00,9A,01,C8,00,
53518651,00000101,false,Rx,0,8,00,FF,FE,00,00,00,00,00,
53518898,00000102,false,Rx,0,8,01,90,01,00,00,01,00,00,
53535338,00000524,false,Rx,0,6,03,06,F5,FF,FF,FF,00,00,
53618396,00000100,false,Rx,0,8,00,00,00,00,9A,01,C8,00,
53618648,00000101,false,Rx,0,8,00,FF,FE,00,00,00,00,00,
53618896,00000102,false,Rx,0,8,01,90,01,00,00,01,00,00,
53672721,00000527,false,Rx,0,6,06,09,3C,A9,00,00,00,00,
53718393,00000100,false,Rx,0,8,00,00,00,00,9A,01,C8,00,
53718653,00000101,false,Rx,0,8,00,FF,FE,00,00,00,00,00,
53718895,00000102,false,Rx,0,8,01,90,01,00,00,01,00,00,
53789362,00000523,false,Rx,0,6,02,08,F3,FF,FF,FF,00,00,
53818389,00000100,false,Rx,0,8,00,00,00,00,9A,01,C8,00,
53818642,00000101,false,Rx,0,8,00,FF,FE,00,00,00,00,00,
53818888,00000102,false,Rx,0,8,01,90,01,00,00,01,00,00,
53918389,00000100,false,Rx,0,8,00,00,00,00,9A,01,C8,00,
53918642,00000101,false,Rx,0,8,00,FF,FE,00,00,00,00,00,
53918892,00000102,false,Rx,0,8,01,90,01,00,00,01,00,00,
53993317,00000526,false,Rx,0,6,05,09,0D,00,00,00,00,00,
54013129,00000521,false,Rx,0,6,00,0B,F5,FF,FF,FF,00,00,
54018385,00000100,false,Rx,0,8,00,00,00,00,9A,01,C8,00,
54018637,00000101,false,Rx,0,8,00,FF,FE,00,00,00,00,00,
54018886,00000102,false,Rx,0,8,01,90,01,00,00,01,00,00,
54087757,00000525,false,Rx,0,6,04,0D,8F,00,00,00,00,00,
54118382,00000100,false,Rx,0,8,00,00,00,00,9A,01,C8,00,
54118635,00000101,false,Rx,0,8,00,FF,FE,00,00,00,00,00,
54118880,00000102,false,Rx,0,8,01,90,01,00,00,01,00,00,
54119979,00000522,false,Rx,0,6,01,04,35,74,05,00,00,00,
54202658,00000524,false,Rx,0,6,03,07,EC,FF,FF,FF,00,00,
54214820,00000528,false,Rx,0,6,07,0D,46,10,00,00,00,00,
54218386,00000100,false,Rx,0,8,00,00,00,00,9A,01,C8,00,
54218631,00000101,false,Rx,0,8,00,FF,FE,00,00,00,00,00,
54218879,00000102,false,Rx,0,8,01,90,01,00,00,01,00,00,
54318382,00000100,false,Rx,0,8,00,00,00,00,9A,01,C8,00,
54318634,00000101,false,Rx,0,8,00,FF,FE,00,00,00,00,00,
54318883,00000102,false,Rx,0,8,01,90,01,00,00,01,00,00,
54394246,00000527,false,Rx,0,6,06,0A,3C,A9,00,00,00,00,
54418379,00000100,false,Rx,0,8,00,00,00,00,9A,01,C8,00,
54418631,00000101,false,Rx,0,8,00,FF,FE,00,00,00,00,00,
54418877,00000102,false,Rx,0,8,01,90,01,00,00,01,00,00,
54438544,00000523,false,Rx,0,6,02,09,F3,FF,FF,FF,00,00,
54518375,00000100,false,Rx,0,8,00,00,00,00,9A,01,C8,00,
54518628,00000101,false,Rx,0,8,00,FF,FE,00,00,00,00,00,
54518874,00000102,false,Rx,0,8,01,90,01,00,00,01,00,00,
54618376,00000100,false,Rx,0,8,00,00,00,00,9A,01,C8,00,
54618621,00000101,false,Rx,0,8,00,FF,FE,00,00,00,00,00,
54618873,00000102,false,Rx,0,8,01,90,01,00,00,01,00,00,
54626336,00000521,false,Rx,0,6,00,0C,F5,FF,FF,FF,00,00,
54696924,00000526,false,Rx,0,6,05,0A,01,00,00,00,00,00,
54718375,00000100,false,Rx,0,8,00,00,00,00,9A,01,C8,00,
54718621,00000101,false,Rx,0,8,00,FF,FE,00,00,00,00,00,
54718873,00000102,false,Rx,0,8,01,90,01,00,00,01,00,00,
54751037,00000522,false,Rx,0,6,01,05,28,74,05,00,00,00,
54773227,00000525,false,Rx,0,6,04,0E,8F,00,00,00,00,00,
54818369,00000100,false,Rx,0,8,00,00,00,00,9A,01,C8,00,
54818621,00000101,false,Rx,0,8,00,FF,FE,00,00,00,00,00,
54818867,00000102,false,Rx,0,8,01,90,01,00,00,01,00,00,
54870016,00000524,false,Rx,0,6,03,08,F2,FF,FF,FF,00,00,
54918370,00000100,false,Rx,0,8,00,00,00,00,9A,01,C8,00,
54918622,00000101,false,Rx,0,8,00,FF,FE,00,00,00,00,00,
54918868,00000102,false,Rx,0,8,01,90,01,00,00,01,00,00,
54954735,00000528,false,Rx,0,6,07,0E,46,10,00,00,00,00,
55018369,00000100,false,Rx,0,8,00,00,00,00,9A,01,C8,00,
55018615,00000101,false,Rx,0,8,00,FF,FE,00,00,00,00,00,
55018866,00000102,false,Rx,0,8,01,90,01,00,00,01,00,00,
55087718,00000523,false,Rx,0,6,02,0A,ED,FF,FF,FF,00,00,
55116008,00000527,false,Rx,0,6,06,0B,3C,A9,00,00,00,00,
55118363,00000100,false,Rx,0,8,00,00,00,00,9A,01,C8,00,
55118614,00000101,false,Rx,0,8,00,FF,FE,00,00,00,00,00,
55118860,00000102,false,Rx,0,8,01,90,01,00,00,01,00,00,
55218364,00000100,false,Rx,0,8,00,00,00,00,9A,01,C8,00,
55218610,00000101,false,Rx,0,8,00,FF,FE,00,00,00,00,00,
55218863,00000102,false,Rx,0,8,01,90,01,00,00,01,00,00,
55238914,00000521,false,Rx,0,6,00,0D,FA,FF,FF,FF,00,00,
55318357,00000100,false,Rx,0,8,00,00,00,00,9A,01,C8,00,
55318610,00000101,false,Rx,0,8,00,FF,FE,00,00,00,00,00,
55318856,00000102,false,Rx,0,8,01,90,01,00,00,01,00,00,
55382075,00000522,false,Rx,0,6,01,06,3D,74,05,00,00,00,
55400270,00000526,false,Rx,0,6,05,0B,00,00,00,00,00,00,
55418357,00000100,false,Rx,0,8,00,00,00,00,9A,01,C8,00,
55418607,00000101,false,Rx,0,8,00,FF,FE,00,00,00,00,00,
55418860,00000102,false,Rx,0,8,01,90,01,00,00,01,00,00,
55458682,00000525,false,Rx,0,6,04,0F,8F,00,00,00,00,00,
55518354,00000100,false,Rx,0,8,00,00,00,00,9A,01,C8,00,
55518606,00000101,false,Rx,0,8,00,FF,FE,00,00,00,00,00,
55518851,00000102,false,Rx,0,8,01,90,01,00,00,01,00,00,
55537308,00000524,false,Rx,0,6,03,09,F9,FF,FF,FF,00,00,
55618357,00000100,false,Rx,0,8,00,00,00,00,9A,01,C8,00,
55618603,00000101,false,Rx,0,8,00,FF,FE,00,00,00,00,00,
55618855,00000102,false,Rx,0,8,01,90,01,00,00,01,00,00,
55694629,00000528,false,Rx,0,6,07,0F,46,10,00,00,00,00,
55718354,00000100,false,Rx,0,8,00,00,00,00,9A,01,C8,00,
55718602,00000101,false,Rx,0,8,00,FF,FE,00,00,00,00,00,
55718848,00000102,false,Rx,0,8,01,90,01,00,00,01,00,00,
55736897,00000523,false,Rx,0,6,02,0B,FB,FF,FF,FF,00,00,
55818352,00000100,false,Rx,0,8,00,00,00,00,9A,01,C8,00,
55818610,00000101,false,Rx,0,8,00,FF,FE,00,00,00,00,00,
55818851,00000102,false,Rx,0,8,01,90,01,00,00,01,00,00,
55838011,00000527,false,Rx,0,6,06,0C,3C,A9,00,00,00,00,
55851787,00000521,false,Rx,0,6,00,0E,F6,FF,FF,FF,00,00,
55918344,00000100,false,Rx,0,8,00,00,00,00,9A,01,C8,00,
55918596,00000101,false,Rx,0,8,00,FF,FE,00,00,00,00,00,
55918845,00000102,false,Rx,0,8,01,90,01,00,00,01,00,00,
56013091,00000522,false,Rx,0,6,01,07,30,74,05,00,00,00,
56018347,00000100,false,Rx,0,8,00,00,00,00,9A,01,C8,00,
56018593,00000101,false,Rx,0,8,00,FF,FE,00,00,00,00,00,
56018844,00000102,false,Rx,0,8,01,90,01,00,00,01,00,00,
56104116,00000526,false,Rx,0,6,05,0C,06,00,00,00,00,00,
56118345,00000100,false,Rx,0,8,00,00,00,00,9A,01,C8,00,
56118591,00000101,false,Rx,0,8,00,FF,FE,00,00,00,00,00,
56118842,00000102,false,Rx,0,8,01,90,01,00,00,01,00,00,
56144155,00000525,false,Rx,0,6,04,00,8F,00,00,00,00,00,
56204628,00000524,false,Rx,0,6,03,0A,EF,FF,FF,FF,00,00,
56218344,00000100,false,Rx,0,8,00,00,00,00,9A,01,C8,00,
56218590,00000101,false,Rx,0,8,00,FF,FE,00,00,00,00,00,
56218840,00000102,false,Rx,0,8,01,90,01,00,00,01,00,00,
56318339,00000100,false,Rx,0,8,00,00,00,00,9A,01,C8,00,
56318590,00000101,false,Rx,0,8,00,FF,FE,00,00,00,00,00,
56318840,00000102,false,Rx,0,8,01,90,01,00,00,01,00,00,
56386064,00000523,false,Rx,0,6,02,0C,FB,FF,FF,FF,00,00,
56418339,00000100,false,Rx,0,8,00,00,00,00,9A,01,C8,00,
56418585,00000101,false,Rx,0,8,00,FF,FE,00,00,00,00,00,
56418835,00000102,false,Rx,0,8,01,90,01,00,00,01,00,00,
56434511,00000528,false,Rx,0,6,07,00,46,10,00,00,00,00,
56464678,00000521,false,Rx,0,6,00,0F,F9,FF,FF,FF,00,00,
56518336,00000100,false,Rx,0,8,00,00,00,00,9A,01,C8,00,
56518588,00000101,false,Rx,0,8,00,FF,FE,00,00,00,00,00,
56518834,00000102,false,Rx,0,8,01,90,01,00,00,01,00,00,
56559766,00000527,false,Rx,0,6,06,0D,3C,A9,00,00,00,00,
56618334,00000100,false,Rx,0,8,00,00,00,00,9A,01,C8,00,
56618579,00000101,false,Rx,0,8,00,FF,FE,00,00,00,00,00,
56618832,00000102,false,Rx,0,8,01,90,01,00,00,01,00,00,
56644116,00000522,false,Rx,0,6,01,08,36,74,05,00,00,00,
56718334,00000100,false,Rx,0,8,00,00,00,00,9A,01,C8,00,
56718579,00000101,false,Rx,0,8,00,FF,FE,00,00,00,00,00,
56718831,00000102,false,Rx,0,8,01,90,01,00,00,01,00,00,
56807743,00000526,false,Rx,0,6,05,0D,01,00,00,00,00,00,
56818332,00000100,false,Rx,0,8,00,00,00,00,9A,01,C8,00,
56818578,00000101,false,Rx,0,8,00,FF,FE,00,00,00,00,00,
56818829,00000102,false,Rx,0,8,01,90,01,00,00,01,00,00,
56829610,00000525,false,Rx,0,6,04,01,8F,00,00,00,00,00,
56871949,00000524,false,Rx,0,6,03,0B,F9,FF,FF,FF,00,00,
56918326,00000100,false,Rx,0,8,00,00,00,00,9A,01,C8,00,
56918578,00000101,false,Rx,0,8,00,FF,FE,00,00,00,00,00,
56918824,00000102,false,Rx,0,8,01,90,01,00,00,01,00,00,
57018322,00000100,false,Rx,0,8,00,00,00,00,9A,01,C8,00,
57018574,00000101,false,Rx,0,8,00,FF,FE,00,00,00,00,00,
57018820,00000102,false,Rx,0,8,01,90,01,00,00,01,00,00,
57035240,00000523,false,Rx,0,6,02,0D,FC,FF,FF,FF,00,00,
57077909,00000521,false,Rx,0,6,00,00,FA,FF,FF,FF,00,00,
57118324,00000100,false,Rx,0,8,00,00,00,00,9A,01,C8,00,
57118573,00000101,false,Rx,0,8,00,FF,FE,00,00,00,00,00,
57118818,00000102,false,Rx,0,8,01,90,01,00,00,01,00,00,
57174421,00000528,false,Rx,0,6,07,01,46,10,00,00,00,00,
57218318,00000100,false,Rx,0,8,00,00,00,00,9A,01,C8,00,
57218572,00000101,false,Rx,0,8,00,FF,FE,00,00,00,00,00,
57218819,00000102,false,Rx,0,8,01,90,01,00,00,01,00,00,
57275144,00000522,false,Rx,0,6,01,09,38,74,05,00,00,00,
57281334,00000527,false,Rx,0,6,06,0E,3C,A9,00,00,00,00,
57318317,00000100,false,Rx,0,8,00,00,00,00,9A,01,C8,00,
57318569,00000101,false,Rx,0,8,00,FF,FE,00,00,00,00,00,
57318815,00000102,false,Rx,0,8,01,90,01,00,00,01,00,00,
57418318,00000100,false,Rx,0,8,00,00,00,00,9A,01,C8,00,
57418570,00000101,false,Rx,0,8,00,FF,FE,00,00,00,00,00,
57418816,00000102,false,Rx,0,8,01,90,01,00,00,01,00,00,
57511176,00000526,false,Rx,0,6,05,0E,00,00,00,00,00,00,
57515078,00000525,false,Rx,0,6,04,02,8F,00,00,00,00,00,
57518315,00000100,false,Rx,0,8,00,00,00,00,9A,01,C8,00,
57518566,00000101,false,Rx,0,8,00,FF,FE,00,00,00,00,00,
57518811,00000102,false,Rx,0,8,01,90,01,00,00,01,00,00,
57539270,00000524,false,Rx,0,6,03,0C,F0,FF,FF,FF,00,00,
57618314,00000100,false,Rx,0,8,00,00,00,00,9A,01,C8,00,
57618572,00000101,false,Rx,0,8,00,FF,FE,00,00,00,00,00,
57618813,00000102,false,Rx,0,8,01,90,01,00,00,01,00,00,
57684410,00000523,false,Rx,0,6,02,0E,F0,FF,FF,FF,00,00,
57690458,00000521,false,Rx,0,6,00,01,F9,FF,FF,FF,00,00,
57718309,00000100,false,Rx,0,8,00,00,00,00,9A,01,C8,00,
57718562,00000101,false,Rx,0,8,00,FF,FE,00,00,00,00,00,
57718809,00000102,false,Rx,0,8,01,90,01,00,00,01,00,00,
57818307,00000100,false,Rx,0,8,00,00,00,00,9A,01,C8,00,
57818559,00000101,false,Rx,0,8,00,FF,FE,00,00,00,00,00,
57818808,00000102,false,Rx,0,8,01,90,01,00,00,01,00,00,
57906184,00000522,false,Rx,0,6,01,0A,32,74,05,00,00,00,
57914319,00000528,false,Rx,0,6,07,02,46,10,00,00,00,00,
57918308,00000100,false,Rx,0,8,00,00,00,00,9A,01,C8,00,
57918560,00000101,false,Rx,0,8,00,FF,FE,00,00,00,00,00,
57918808,00000102,false,Rx,0,8,01,90,01,00,00,01,00,00,
58003017,00000527,false,Rx,0,6,06,0F,3C,A9,00,00,00,00,
58018306,00000100,false,Rx,0,8,00,00,00,00,9A,01,C8,00,
58018552,00000101,false,Rx,0,8,00,FF,FE,00,00,00,00,00,
58018803,00000102,false,Rx,0,8,01,90,01,00,00,01,00,00,
58118303,00000100,false,Rx,0,8,00,00,00,00,9A,01,C8,00,
58118549,00000101,false,Rx,0,8,00,FF,FE,00,00,00,00,00,
58118798,00000102,false,Rx,0,8,01,90,01,00,00,01,00,00,
58200546,00000525,false,Rx,0,6,04,03,8F,00,00,00,00,00,
58206574,00000524,false,Rx,0,6,03,0D,F4,FF,FF,FF,00,00,
58214973,00000526,false,Rx,0,6,05,0F,02,00,00,00,00,00,
58218303,00000100,false,Rx,0,8,00,00,00,00,9A,01,C8,00,
58218548,00000101,false,Rx,0,8,00,FF,FE,00,00,00,00,00,
58218803,00000102,false,Rx,0,8,01,90,01,00,00,01,00,00,
58303344,00000521,false,Rx,0,6,00,02,F7,FF,FF,FF,00,00,
58318295,00000100,false,Rx,0,8,00,00,00,00,9A,01,C8,00,
58318547,00000101,false,Rx,0,8,00,FF,FE,00,00,00,00,00,
58318792,00000102,false,Rx,0,8,01,90,01,00,00,01,00,00,
58333597,00000523,false,Rx,0,6,02,0F,F0,FF,FF,FF,00,00,
58418297,00000100,false,Rx,0,8,00,00,00,00,9A,01,C8,00,
58418543,00000101,false,Rx,0,8,00,FF,FE,00,00,00,00,00,
58418795,00000102,false,Rx,0,8,01,90,01,00,00,01,00,00,
58518292,00000100,false,Rx,0,8,00,00,00,00,9A,01,C8,00,
58518543,00000101,false,Rx,0,8,00,FF,FE,00,00,00,00,00,
58518789,00000102,false,Rx,0,8,01,90,01,00,00,01,00,00,
58537206,00000522,false,Rx,0,6,01,0B,3F,74,05,00,00,00,
58618295,00000100,false,Rx,0,8,00,00,00,00,9A,01,C8,00,
58618542,00000101,false,Rx,0,8,00,FF,FE,00,00,00,00,00,
58618788,00000102,false,Rx,0,8,01,90,01,00,00,01,00,00,
58654207,00000528,false,Rx,0,6,07,03,46,10,00,00,00,00,
58718293,00000100,false,Rx,0,8,00,00,00,00,9A,01,C8,00,
58718539,00000101,false,Rx,0,8,00,FF,FE,00,00,00,00,00,
58718785,00000102,false,Rx,0,8,01,90,01,00,00,01,00,00,
58724759,00000527,false,Rx,0,6,06,00,3C,A9,00,00,00,00,
58818290,00000100,false,Rx,0,8,00,00,00,00,9A,01,C8,00,
58818536,00000101,false,Rx,0,8,00,FF,FE,00,00,00,00,00,
58818787,00000102,false,Rx,0,8,01,90,01,00,00,01,00,00,
58873910,00000524,false,Rx,0,6,03,0E,F6,FF,FF,FF,00,00,
58886007,00000525,false,Rx,0,6,04,04,8F,00,00,00,00,00,
58916227,00000521,false,Rx,0,6,00,03,F4,FF,FF,FF,00,00,
58918283,00000100,false,Rx,0,8,00,00,00,00,9A,01,C8,00,
58918537,00000101,false,Rx,0,8,00,FF,FE,00,00,00,00,00,
58918782,00000102,false,Rx,0,8,01,90,01,00,00,01,00,00,
