Time Stamp,ID,Extended,Dir,Bus,LEN,D1,D2,D3,D4,D5,D6,D7,D8
9061530,00000528,false,Rx,0,6,07,09,1D,07,00,00,00,00,
9112771,00000521,false,Rx,0,6,00,03,07,00,00,00,00,00,
9168159,00000522,false,Rx,0,6,01,0C,25,B5,05,00,00,00,
9305004,00000523,false,Rx,0,6,02,08,EC,FF,FF,FF,00,00,
9401642,00000525,false,Rx,0,6,04,08,C4,00,00,00,00,00,
9556618,00000524,false,Rx,0,6,03,07,F7,FF,FF,FF,00,00,
9651772,00000526,false,Rx,0,6,05,0C,07,00,00,00,00,00,
9724684,00000521,false,Rx,0,6,00,04,09,00,00,00,00,00,
9747901,00000527,false,Rx,0,6,06,02,EF,45,00,00,00,00,
9798147,00000522,false,Rx,0,6,01,0D,22,B5,05,00,00,00,
9800246,00000528,false,Rx,0,6,07,0A,1D,07,00,00,00,00,
9953168,00000523,false,Rx,0,6,02,09,EB,FF,FF,FF,00,00,
10086006,00000525,false,Rx,0,6,04,09,C4,00,00,00,00,00,
10222875,00000524,false,Rx,0,6,03,08,FC,FF,FF,FF,00,00,
10336577,00000521,false,Rx,0,6,00,05,08,00,00,00,00,00,
10354005,00000526,false,Rx,0,6,05,0D,02,00,00,00,00,00,
10428164,00000522,false,Rx,0,6,01,0E,20,B5,05,00,00,00,
10468499,00000527,false,Rx,0,6,06,03,EF,45,00,00,00,00,
10539207,00000528,false,Rx,0,6,07,0B,1D,07,00,00,00,00,
10601273,00000523,false,Rx,0,6,02,0A,E2,FF,FF,FF,00,00,
10770373,00000525,false,Rx,0,6,04,0A,C4,00,00,00,00,00,
10889107,00000524,false,Rx,0,6,03,09,FA,FF,FF,FF,00,00,
10948480,00000521,false,Rx,0,6,00,06,07,00,00,00,00,00,
11056317,00000526,false,Rx,0,6,05,0E,08,00,00,00,00,00,
11058177,00000522,false,Rx,0,6,01,0F,29,B5,05,00,00,00,
11189157,00000527,false,Rx,0,6,06,04,EF,45,00,00,00,00,
11249412,00000523,false,Rx,0,6,02,0B,E2,FF,FF,FF,00,00,
11277659,00000528,false,Rx,0,6,07,0C,1D,07,00,00,00,00,
11454728,00000525,false,Rx,0,6,04,0B,C4,00,00,00,00,00,
11555359,00000524,false,Rx,0,6,03,0A,F0,FF,FF,FF,00,00,
11560393,00000521,false,Rx,0,6,00,07,06,00,00,00,00,00,
11688195,00000522,false,Rx,0,6,01,00,1B,B5,05,00,00,00,
11758979,00000526,false,Rx,0,6,05,0F,00,00,00,00,00,00,
11897536,00000523,false,Rx,0,6,02,0C,E9,FF,FF,FF,00,00,
11909681,00000527,false,Rx,0,6,06,05,EF,45,00,00,00,00,
12016366,00000528,false,Rx,0,6,07,0D,1D,07,00,00,00,00,
12139089,00000525,false,Rx,0,6,04,0C,C5,00,00,00,00,00,
12172315,00000521,false,Rx,0,6,00,08,0E,00,00,00,00,00,
12221605,00000524,false,Rx,0,6,03,0B,F4,FF,FF,FF,00,00,
12318207,00000522,false,Rx,0,6,01,01,20,B5,05,00,00,00,
12461451,00000526,false,Rx,0,6,05,00,00,00,00,00,00,00,
12545674,00000523,false,Rx,0,6,02,0D,F9,FF,FF,FF,00,00,
12630269,00000527,false,Rx,0,6,06,06,EF,45,00,00,00,00,
12755066,00000528,false,Rx,0,6,07,0E,1D,07,00,00,00,00,
12784166,00000521,false,Rx,0,6,00,09,09,00,00,00,00,00,
12823462,00000525,false,Rx,0,6,04,0D,C4,00,00,00,00,00,
12887851,00000524,false,Rx,0,6,03,0C,E2,FF,FF,FF,00,00,
12948218,00000522,false,Rx,0,6,01,02,1D,B5,05,00,00,00,
13163934,00000526,false,Rx,0,6,05,01,0C,00,00,00,00,00,
13193795,00000523,false,Rx,0,6,02,0E,F9,FF,FF,FF,00,00,
13350855,00000527,false,Rx,0,6,06,07,EF,45,00,00,00,00,
13396391,00000521,false,Rx,0,6,00,0A,09,00,00,00,00,00,
13493771,00000528,false,Rx,0,6,07,0F,1D,07,00,00,00,00,
13507808,00000525,false,Rx,0,6,04,0E,C4,00,00,00,00,00,
13554092,00000524,false,Rx,0,6,03,0D,E7,FF,FF,FF,00,00,
13578229,00000522,false,Rx,0,6,01,03,29,B5,05,00,00,00,
13841927,00000523,false,Rx,0,6,02,0F,FA,FF,FF,FF,00,00,
13866377,00000526,false,Rx,0,6,05,02,02,00,00,00,00,00,
14007975,00000521,false,Rx,0,6,00,0B,0C,00,00,00,00,00,
14071447,00000527,false,Rx,0,6,06,08,EF,45,00,00,00,00,
14192187,00000525,false,Rx,0,6,04,0F,C5,00,00,00,00,00,
14208258,00000522,false,Rx,0,6,01,04,26,B5,05,00,00,00,
14220353,00000524,false,Rx,0,6,03,0E,EF,FF,FF,FF,00,00,
14232496,00000528,false,Rx,0,6,07,00,1D,07,00,00,00,00,
14490063,00000523,false,Rx,0,6,02,00,F3,FF,FF,FF,00,00,
14568875,00000526,false,Rx,0,6,05,03,0D,00,00,00,00,00,
14619887,00000521,false,Rx,0,6,00,0C,0A,00,00,00,00,00,
14792062,00000527,false,Rx,0,6,06,09,EF,45,00,00,00,00,
14838280,00000522,false,Rx,0,6,01,05,26,B5,05,00,00,00,
14876567,00000525,false,Rx,0,6,04,00,C5,00,00,00,00,00,
14886612,00000524,false,Rx,0,6,03,0F,FA,FF,FF,FF,00,00,
14971225,00000528,false,Rx,0,6,07,01,1D,07,00,00,00,00,
15138215,00000523,false,Rx,0,6,02,01,F3,FF,FF,FF,00,00,
15231803,00000521,false,Rx,0,6,00,0D,06,00,00,00,00,00,
15271208,00000526,false,Rx,0,6,05,04,00,00,00,00,00,00,
15468297,00000522,false,Rx,0,6,01,06,27,B5,05,00,00,00,
15512647,00000527,false,Rx,0,6,06,0A,EF,45,00,00,00,00,
15552849,00000524,false,Rx,0,6,03,00,EE,FF,FF,FF,00,00,
15560914,00000525,false,Rx,0,6,04,01,C5,00,00,00,00,00,
15709916,00000528,false,Rx,0,6,07,02,1D,07,00,00,00,00,
15786324,00000523,false,Rx,0,6,02,02,F2,FF,FF,FF,00,00,
15843695,00000521,false,Rx,0,6,00,0E,08,00,00,00,00,00,
15914169,00000100,false,Rx,0,8,00,00,00,00,8E,01,C8,00,
15914414,00000101,false,Rx,0,8,00,FF,FE,00,00,00,00,00,
15914670,00000102,false,Rx,0,8,01,84,01,00,00,00,00,00,
15973845,00000526,false,Rx,0,6,05,05,09,00,00,00,00,00,
16014159,00000100,false,Rx,0,8,00,00,00,00,8E,01,C8,00,
16014414,00000101,false,Rx,0,8,00,FF,FE,00,00,00,00,00,
16014670,00000102,false,Rx,0,8,01,84,01,00,00,00,00,00,
16098307,00000522,false,Rx,0,6,01,07,39,B5,05,00,00,00,
16114160,00000100,false,Rx,0,8,00,00,00,00,8E,01,C8,00,
16114409,00000101,false,Rx,0,8,00,FF,FE,00,00,00,00,00,
16114655,00000102,false,Rx,0,8,01,84,01,00,00,00,00,00,
16214160,00000100,false,Rx,0,8,00,00,00,00,8E,01,C8,00,
16214406,00000101,false,Rx,0,8,00,FF,FE,00,00,00,00,00,
16214653,00000102,false,Rx,0,8,01,84,01,00,00,00,00,00,
16219100,00000524,false,Rx,0,6,03,01,F7,FF,FF,FF,00,00,
16233730,00000527,false,Rx,0,6,06,0B,EF,45,00,00,00,00,
16245271,00000525,false,Rx,0,6,04,02,C4,00,00,00,00,00,
16314153,00000100,false,Rx,0,8,00,00,00,00,8E,01,C8,00,
16314405,00000101,false,Rx,0,8,00,FF,FE,00,00,00,00,00,
16314653,00000102,false,Rx,0,8,01,84,01,00,00,00,00,00,
16414157,00000100,false,Rx,0,8,00,00,00,00,8E,01,C8,00,
16414403,00000101,false,Rx,0,8,00,FF,FE,00,00,00,00,00,
16414649,00000102,false,Rx,0,8,01,84,01,00,00,00,00,00,
16434463,00000523,false,Rx,0,6,02,03,E4,FF,FF,FF,00,00,
16448617,00000528,false,Rx,0,6,07,03,1D,07,00,00,00,00,
16455584,00000521,false,Rx,0,6,00,0F,0C,00,00,00,00,00,
16514153,00000100,false,Rx,0,8,00,00,00,00,8E,01,C8,00,
16514416,00000101,false,Rx,0,8,00,FF,FE,00,00,00,00,00,
16514646,00000102,false,Rx,0,8,01,84,01,00,00,00,00,00,
16614151,00000100,false,Rx,0,8,00,00,00,00,8E,01,C8,00,
16614403,00000101,false,Rx,0,8,00,FF,FE,00,00,00,00,00,
16614647,00000102,false,Rx,0,8,01,84,01,00,00,00,00,00,
16676333,00000526,false,Rx,0,6,05,06,FE,FF,FF,FF,00,00,
16714145,00000100,false,Rx,0,8,00,00,00,00,8E,01,C8,00,
16714397,00000101,false,Rx,0,8,00,FF,FE,00,00,00,00,00,
16714644,00000102,false,Rx,0,8,01,84,01,00,00,00,00,00,
16728328,00000522,false,Rx,0,6,01,08,21,B5,05,00,00,00,
16814144,00000100,false,Rx,0,8,00,00,00,00,8E,01,C8,00,
16814396,00000101,false,Rx,0,8,00,FF,FE,00,00,00,00,00,
16814640,00000102,false,Rx,0,8,01,84,01,00,00,00,00,00,
16885342,00000524,false,Rx,0,6,03,02,F0,FF,FF,FF,00,00,
16914145,00000100,false,Rx,0,8,00,00,00,00,8E,01,C8,00,
16914397,00000101,false,Rx,0,8,00,FF,FE,00,00,00,00,00,
16914643,00000102,false,Rx,0,8,01,84,01,00,00,01,00,00,
16929646,00000525,false,Rx,0,6,04,03,C4,00,00,00,00,00,
16953833,00000527,false,Rx,0,6,06,0C,EF,45,00,00,00,00,
17014141,00000100,false,Rx,0,8,00,00,00,00,8E,01,C8,00,
17014394,00000101,false,Rx,0,8,00,FF,FE,00,00,00,00,00,
17014637,00000102,false,Rx,0,8,01,84,01,00,00,01,00,00,
17067495,00000521,false,Rx,0,6,00,00,03,00,00,00,00,00,
17082594,00000523,false,Rx,0,6,02,04,E4,FF,FF,FF,00,00,
17114139,00000100,false,Rx,0,8,00,00,00,00,8E,01,C8,00,
17114390,00000101,false,Rx,0,8,00,FF,FE,00,00,00,00,00,
17114638,00000102,false,Rx,0,8,01,84,01,00,00,01,00,00,
17187550,00000528,false,Rx,0,6,07,04,1D,07,00,00,00,00,
17214137,00000100,false,Rx,0,8,00,00,00,00,8E,01,C8,00,
17214389,00000101,false,Rx,0,8,00,FF,FE,00,00,00,00,00,
17214630,00000102,false,Rx,0,8,01,84,01,00,00,01,00,00,
17314138,00000100,false,Rx,0,8,00,00,00,00,8E,01,C8,00,
17314384,00000101,false,Rx,0,8,00,FF,FE,00,00,00,00,00,
17314630,00000102,false,Rx,0,8,01,84,01,00,00,01,00,00,
17358340,00000522,false,Rx,0,6,01,09,1C,B5,05,00,00,00,
17378809,00000526,false,Rx,0,6,05,07,0D,00,00,00,00,00,
17414133,00000100,false,Rx,0,8,00,00,00,00,8E,01,C8,00,
17414381,00000101,false,Rx,0,8,00,FF,FE,00,00,00,00,00,
17414627,00000102,false,Rx,0,8,01,84,01,00,00,01,00,00,
17514128,00000100,false,Rx,0,8,00,00,00,00,8E,01,C8,00,
17514381,00000101,false,Rx,0,8,00,FF,FE,00,00,00,00,00,
17514628,00000102,false,Rx,0,8,01,84,01,00,00,01,00,00,
17551592,00000524,false,Rx,0,6,03,03,F9,FF,FF,FF,00,00,
17613993,00000525,false,Rx,0,6,04,04,C4,00,00,00,00,00,
17614239,00000100,false,Rx,0,8,00,00,00,00,8E,01,C8,00,
17614499,00000101,false,Rx,0,8,00,FF,FE,00,00,00,00,00,
17614741,00000102,false,Rx,0,8,01,84,01,00,00,01,00,00,
17674501,00000527,false,Rx,0,6,06,0D,EF,45,00,00,00,00,
17679389,00000521,false,Rx,0,6,00,01,0C,00,00,00,00,00,
17714129,00000100,false,Rx,0,8,00,00,00,00,8E,01,C8,00,
17714374,00000101,false,Rx,0,8,00,FF,FE,00,00,00,00,00,
17714621,00000102,false,Rx,0,8,01,84,01,00,00,01,00,00,
17730729,00000523,false,Rx,0,6,02,05,F2,FF,FF,FF,00,00,
17814127,00000100,false,Rx,0,8,00,00,00,00,8E,01,C8,00,
17814373,00000101,false,Rx,0,8,00,FF,FE,00,00,00,00,00,
17814619,00000102,false,Rx,0,8,01,84,01,00,00,01,00,00,
17914121,00000100,false,Rx,0,8,00,00,00,00,8E,01,C8,00,
17914373,00000101,false,Rx,0,8,00,FF,FE,00,00,00,00,00,
17914616,00000102,false,Rx,0,8,01,84,01,00,00,01,00,00,
17926045,00000528,false,Rx,0,6,07,05,1D,07,00,00,00,00,
17988369,00000522,false,Rx,0,6,01,0A,2B,B5,05,00,00,00,
18014123,00000100,false,Rx,0,8,00,00,00,00,8E,01,C8,00,
18014368,00000101,false,Rx,0,8,00,FF,FE,00,00,00,00,00,
18014614,00000102,false,Rx,0,8,01,84,01,00,00,01,00,00,
18081259,00000526,false,Rx,0,6,05,08,00,00,00,00,00,00,
18114119,00000100,false,Rx,0,8,00,00,00,00,8E,01,C8,00,
18114372,00000101,false,Rx,0,8,00,FF,FE,00,00,00,00,00,
18114617,00000102,false,Rx,0,8,01,84,01,00,00,01,00,00,
18214114,00000100,false,Rx,0,8,00,00,00,00,8E,01,C8,00,
18214366,00000101,false,Rx,0,8,00,FF,FE,00,00,00,00,00,
18214615,00000102,false,Rx,0,8,01,84,01,00,00,01,00,00,
18217872,00000524,false,Rx,0,6,03,04,FC,FF,FF,FF,00,00,
18291307,00000521,false,Rx,0,6,00,02,06,00,00,00,00,00,
18298380,00000525,false,Rx,0,6,04,05,C4,00,00,00,00,00,
18314111,00000100,false,Rx,0,8,00,00,00,00,8E,01,C8,00,
18314362,00000101,false,Rx,0,8,00,FF,FE,00,00,00,00,00,
18314611,00000102,false,Rx,0,8,01,84,01,00,00,01,00,00,
18378877,00000523,false,Rx,0,6,02,06,E1,FF,FF,FF,00,00,
18395043,00000527,false,Rx,0,6,06,0E,EF,45,00,00,00,00,
18414110,00000100,false,Rx,0,8,00,00,00,00,8E,01,C8,00,
18414361,00000101,false,Rx,0,8,00,FF,FE,00,00,00,00,00,
18414611,00000102,false,Rx,0,8,01,84,01,00,00,01,00,00,
18514110,00000100,false,Rx,0,8,00,00,00,00,8E,01,C8,00,
18514363,00000101,false,Rx,0,8,00,FF,FE,00,00,00,00,00,
18514603,00000102,false,Rx,0,8,01,84,01,00,00,01,00,00,
18614110,00000100,false,Rx,0,8,00,00,00,00,8E,01,C8,00,
18614356,00000101,false,Rx,0,8,00,FF,FE,00,00,00,00,00,
18614603,00000102,false,Rx,0,8,01,84,01,00,00,01,00,00,
18618396,00000522,false,Rx,0,6,01,0B,29,B5,05,00,00,00,
18664854,00000528,false,Rx,0,6,07,06,1D,07,00,00,00,00,
18714104,00000100,false,Rx,0,8,00,00,00,00,8E,01,C8,00,
18714359,00000101,false,Rx,0,8,00,FF,FE,00,00,00,00,00,
18714600,00000102,false,Rx,0,8,01,84,01,00,00,01,00,00,
18783501,00000526,false,Rx,0,6,05,09,00,00,00,00,00,00,
18814105,00000100,false,Rx,0,8,00,00,00,00,8E,01,C8,00,
18814353,00000101,false,Rx,0,8,00,FF,FE,00,00,00,00,00,
18814599,00000102,false,Rx,0,8,01,84,01,00,00,01,00,00,
18884118,00000524,false,Rx,0,6,03,05,FB,FF,FF,FF,00,00,
18903219,00000521,false,Rx,0,6,00,03,0A,00,00,00,00,00,
18914105,00000100,false,Rx,0,8,00,00,00,00,8E,01,C8,00,
18914356,00000101,false,Rx,0,8,00,FF,FE,00,00,00,00,00,
18914597,00000102,false,Rx,0,8,01,84,01,00,00,01,00,00,
18982764,00000525,false,Rx,0,6,04,06,C4,00,00,00,00,00,
19014097,00000100,false,Rx,0,8,00,00,00,00,8E,01,C8,00,
19014352,00000101,false,Rx,0,8,00,FF,FE,00,00,00,00,00,
19014593,00000102,false,Rx,0,8,01,84,01,00,00,01,00,00,
19027024,00000523,false,Rx,0,6,02,07,E1,FF,FF,FF,00,00,
19114099,00000100,false,Rx,0,8,00,00,00,00,8E,01,C8,00,
19114350,00000101,false,Rx,0,8,00,FF,FE,00,00,00,00,00,
19114597,00000102,false,Rx,0,8,01,84,01,00,00,01,00,00,
19115672,00000527,false,Rx,0,6,06,0F,EF,45,00,00,00,00,
19214098,00000100,false,Rx,0,8,00,00,00,00,8E,01,C8,00,
19214344,00000101,false,Rx,0,8,00,FF,FE,00,00,00,00,00,
19214596,00000102,false,Rx,0,8,01,84,01,00,00,01,00,00,
19248433,00000522,false,Rx,0,6,01,0C,3D,B5,05,00,00,00,
19314092,00000100,false,Rx,0,8,00,00,00,00,8E,01,C8,00,
19314344,00000101,false,Rx,0,8,00,FF,FE,00,00,00,00,00,
19314588,00000102,false,Rx,0,8,01,84,01,00,00,01,00,00,
19403503,00000528,false,Rx,0,6,07,07,1D,07,00,00,00,00,
19414092,00000100,false,Rx,0,8,00,00,00,00,8E,01,C8,00,
19414344,00000101,false,Rx,0,8,00,FF,FE,00,00,00,00,00,
19414591,00000102,false,Rx,0,8,01,84,01,00,00,01,00,00,
19486104,00000526,false,Rx,0,6,05,0A,06,00,00,00,00,00,
19514091,00000100,false,Rx,0,8,00,00,00,00,8E,01,C8,00,
19514337,00000101,false,Rx,0,8,00,FF,FE,00,00,00,00,00,
19514583,00000102,false,Rx,0,8,01,84,01,00,00,01,00,00,
19515139,00000521,false,Rx,0,6,00,04,08,00,00,00,00,00,
19550372,00000524,false,Rx,0,6,03,06,E6,FF,FF,FF,00,00,
19614086,00000100,false,Rx,0,8,00,00,00,00,8E,01,C8,00,
19614339,00000101,false,Rx,0,8,00,FF,FE,00,00,00,00,00,
19614582,00000102,false,Rx,0,8,01,84,01,00,00,01,00,00,
19667150,00000525,false,Rx,0,6,04,07,C4,00,00,00,00,00,
19675209,00000523,false,Rx,0,6,02,08,F4,FF,FF,FF,00,00,
19714085,00000100,false,Rx,0,8,00,00,00,00,8E,01,C8,00,
19714337,00000101,false,Rx,0,8,00,FF,FE,00,00,00,00,00,
19714580,00000102,false,Rx,0,8,01,84,01,00,00,01,00,00,
19814086,00000100,false,Rx,0,8,00,00,00,00,8E,01,C8,00,
19814331,00000101,false,Rx,0,8,00,FF,FE,00,00,00,00,00,
19814578,00000102,false,Rx,0,8,01,84,01,00,00,01,00,00,
19836270,00000527,false,Rx,0,6,06,00,EF,45,00,00,00,00,
19878462,00000522,false,Rx,0,6,01,0D,34,B5,05,00,00,00,
19914080,00000100,false,Rx,0,8,00,00,00,00,8E,01,C8,00,
19914332,00000101,false,Rx,0,8,00,FF,FE,00,00,00,00,00,
19914579,00000102,false,Rx,0,8,01,84,01,00,00,01,00,00,
20014081,00000100,false,Rx,0,8,00,00,00,00,8E,01,C8,00,
20014333,00000101,false,Rx,0,8,00,FF,FE,00,00,00,00,00,
20014573,00000102,false,Rx,0,8,01,84,01,00,00,01,00,00,
20114077,00000100,false,Rx,0,8,00,00,00,00,8E,01,C8,00,
20114329,00000101,false,Rx,0,8,00,FF,FE,00,00,00,00,00,
20114569,00000102,false,Rx,0,8,01,84,01,00,00,01,00,00,
20127056,00000521,false,Rx,0,6,00,05,08,00,00,00,00,00,
20142241,00000528,false,Rx,0,6,07,08,1D,07,00,00,00,00,
20189055,00000526,false,Rx,0,6,05,0B,02,00,00,00,00,00,
20214076,00000100,false,Rx,0,8,00,00,00,00,8E,01,C8,00,
20214326,00000101,false,Rx,0,8,00,FF,FE,00,00,00,00,00,
20214573,00000102,false,Rx,0,8,01,84,01,00,00,01,00,00,
20216654,00000524,false,Rx,0,6,03,07,F9,FF,FF,FF,00,00,
20314074,00000100,false,Rx,0,8,00,00,00,00,8E,01,C8,00,
20314319,00000101,false,Rx,0,8,00,FF,FE,00,00,00,00,00,
20314566,00000102,false,Rx,0,8,01,84,01,00,00,01,00,00,
20323339,00000523,false,Rx,0,6,02,09,ED,FF,FF,FF,00,00,
20351531,00000525,false,Rx,0,6,04,08,C4,00,00,00,00,00,
20414068,00000100,false,Rx,0,8,00,00,00,00,8E,01,C8,00,
20414320,00000101,false,Rx,0,8,00,FF,FE,00,00,00,00,00,
20414567,00000102,false,Rx,0,8,01,84,01,00,00,01,00,00,
20508500,00000522,false,Rx,0,6,01,0E,34,B5,05,00,00,00,
20514065,00000100,false,Rx,0,8,00,00,00,00,8E,01,C8,00,
20514320,00000101,false,Rx,0,8,00,FF,FE,00,00,00,00,00,
20514567,00000102,false,Rx,0,8,01,84,01,00,00,01,00,00,
20557102,00000527,false,Rx,0,6,06,01,EF,45,00,00,00,00,
20614067,00000100,false,Rx,0,8,00,00,00,00,8E,01,C8,00,
20614317,00000101,false,Rx,0,8,00,FF,FE,00,00,00,00,00,
20614559,00000102,false,Rx,0,8,01,84,01,00,00,01,00,00,
20714068,00000100,false,Rx,0,8,00,00,00,00,8E,01,C8,00,
20714313,00000101,false,Rx,0,8,00,FF,FE,00,00,00,00,00,
20714563,00000102,false,Rx,0,8,01,84,01,00,00,01,00,00,
20738982,00000521,false,Rx,0,6,00,06,04,00,00,00,00,00,
20814060,00000100,false,Rx,0,8,00,00,00,00,8E,01,C8,00,
20814311,00000101,false,Rx,0,8,00,FF,FE,00,00,00,00,00,
20814561,00000102,false,Rx,0,8,01,84,01,00,00,01,00,00,
20880969,00000528,false,Rx,0,6,07,09,1D,07,00,00,00,00,
20882951,00000524,false,Rx,0,6,03,08,F8,FF,FF,FF,00,00,
20891302,00000526,false,Rx,0,6,05,0C,04,00,00,00,00,00,
20914061,00000100,false,Rx,0,8,00,00,00,00,8E,01,C8,00,
20914307,00000101,false,Rx,0,8,00,FF,FE,00,00,00,00,00,
20914558,00000102,false,Rx,0,8,01,84,01,00,00,01,00,00,
20971490,00000523,false,Rx,0,6,02,0A,ED,FF,FF,FF,00,00,
21014055,00000100,false,Rx,0,8,00,00,00,00,8E,01,C8,00,
21014308,00000101,false,Rx,0,8,00,FF,FE,00,00,00,00,00,
21014554,00000102,false,Rx,0,8,01,84,01,00,00,01,00,00,
21035925,00000525,false,Rx,0,6,04,09,C4,00,00,00,00,00,
21114055,00000100,false,Rx,0,8,00,00,00,00,8E,01,C8,00,
21114307,00000101,false,Rx,0,8,00,FF,FE,00,00,00,00,00,
21114553,00000102,false,Rx,0,8,01,84,01,00,00,01,00,00,
21138548,00000522,false,Rx,0,6,01,0F,2F,B5,05,00,00,00,
21214052,00000100,false,Rx,0,8,00,00,00,00,8E,01,C8,00,
21214304,00000101,false,Rx,0,8,00,FF,FE,00,00,00,00,00,
21214547,00000102,false,Rx,0,8,01,84,01,00,00,01,00,00,
21277764,00000527,false,Rx,0,6,06,02,EF,45,00,00,00,00,
21314055,00000100,false,Rx,0,8,00,00,00,00,8E,01,C8,00,
21314301,00000101,false,Rx,0,8,00,FF,FE,00,00,00,00,00,
21314547,00000102,false,Rx,0,8,01,84,01,00,00,01,00,00,
21350908,00000521,false,Rx,0,6,00,07,0A,00,00,00,00,00,
21414048,00000100,false,Rx,0,8,00,00,00,00,8E,01,C8,00,
21414300,00000101,false,Rx,0,8,00,FF,FE,00,00,00,00,00,
21414547,00000102,false,Rx,0,8,01,84,01,00,00,01,00,00,
21514048,00000100,false,Rx,0,8,00,00,00,00,8E,01,C8,00,
21514301,00000101,false,Rx,0,8,00,FF,FE,00,00,00,00,00,
21514548,00000102,false,Rx,0,8,01,84,01,00,00,01,00,00,
21549184,00000524,false,Rx,0,6,03,09,E5,FF,FF,FF,00,00,
21593815,00000526,false,Rx,0,6,05,0D,01,00,00,00,00,00,
21614049,00000100,false,Rx,0,8,00,00,00,00,8E,01,C8,00,
21614294,00000101,false,Rx,0,8,00,FF,FE,00,00,00,00,00,
21614542,00000102,false,Rx,0,8,01,84,01,00,00,01,00,00,
21619935,00000523,false,Rx,0,6,02,0B,EE,FF,FF,FF,00,00,
21620156,00000528,false,Rx,0,6,07,0A,1D,07,00,00,00,00,
21714042,00000100,false,Rx,0,8,00,00,00,00,8E,01,C8,00,
21714295,00000101,false,Rx,0,8,00,FF,FE,00,00,00,00,00,
21714541,00000102,false,Rx,0,8,01,84,01,00,00,01,00,00,
21720308,00000525,false,Rx,0,6,04,0A,C4,00,00,00,00,00,
21768589,00000522,false,Rx,0,6,01,00,37,B5,05,00,00,00,
21814042,00000100,false,Rx,0,8,00,00,00,00,8E,01,C8,00,
21814290,00000101,false,Rx,0,8,00,FF,FE,00,00,00,00,00,
21814537,00000102,false,Rx,0,8,01,84,01,00,00,01,00,00,
21914036,00000100,false,Rx,0,8,00,00,00,00,8E,01,C8,00,
21914288,00000101,false,Rx,0,8,00,FF,FE,00,00,00,00,00,
21914535,00000102,false,Rx,0,8,01,84,01,00,00,01,00,00,
21962831,00000521,false,Rx,0,6,00,08,0A,00,00,00,00,00,
21998120,00000527,false,Rx,0,6,06,03,EF,45,00,00,00,00,
22014035,00000100,false,Rx,0,8,00,00,00,00,8E,01,C8,00,
22014291,00000101,false,Rx,0,8,00,FF,FE,00,00,00,00,00,
22014531,00000102,false,Rx,0,8,01,84,01,00,00,01,00,00,
22114034,00000100,false,Rx,0,8,00,00,00,00,8E,01,C8,00,
22114286,00000101,false,Rx,0,8,00,FF,FE,00,00,00,00,00,
22114533,00000102,false,Rx,0,8,01,84,01,00,00,01,00,00,
22214035,00000100,false,Rx,0,8,00,00,00,00,8E,01,C8,00,
22214281,00000101,false,Rx,0,8,00,FF,FE,00,00,00,00,00,
22214527,00000102,false,Rx,0,8,01,84,01,00,00,01,00,00,
22215459,00000524,false,Rx,0,6,03,0A,F3,FF,FF,FF,00,00,
22267794,00000523,false,Rx,0,6,02,0C,F0,FF,FF,FF,00,00,
22296014,00000526,false,Rx,0,6,05,0E,00,00,00,00,00,00,
22314031,00000100,false,Rx,0,8,00,00,00,00,8E,01,C8,00,
22314286,00000101,false,Rx,0,8,00,FF,FE,00,00,00,00,00,
22314529,00000102,false,Rx,0,8,01,84,01,00,00,01,00,00,
22358444,00000528,false,Rx,0,6,07,0B,1D,07,00,00,00,00,
22398628,00000522,false,Rx,0,6,01,01,3E,B5,05,00,00,00,
22404697,00000525,false,Rx,0,6,04,0B,C4,00,00,00,00,00,
22414031,00000100,false,Rx,0,8,00,00,00,00,8E,01,C8,00,
22414277,00000101,false,Rx,0,8,00,FF,FE,00,00,00,00,00,
22414526,00000102,false,Rx,0,8,01,84,01,00,00,01,00,00,
22514025,00000100,false,Rx,0,8,00,00,00,00,8E,01,C8,00,
22514277,00000101,false,Rx,0,8,00,FF,FE,00,00,00,00,00,
22514520,00000102,false,Rx,0,8,01,84,01,00,00,01,00,00,
22575086,00000521,false,Rx,0,6,00,09,04,00,00,00,00,00,
22614024,00000100,false,Rx,0,8,00,00,00,00,8E,01,C8,00,
22614275,00000101,false,Rx,0,8,00,FF,FE,00,00,00,00,00,
22614522,00000102,false,Rx,0,8,01,84,01,00,00,01,00,00,
22714024,00000100,false,Rx,0,8,00,00,00,00,8E,01,C8,00,
22714276,00000101,false,Rx,0,8,00,FF,FE,00,00,00,00,00,
22714520,00000102,false,Rx,0,8,01,84,01,00,00,01,00,00,
22718746,00000527,false,Rx,0,6,06,04,EF,45,00,00,00,00,
22814018,00000100,false,Rx,0,8,00,00,00,00,8E,01,C8,00,
22814270,00000101,false,Rx,0,8,00,FF,FE,00,00,00,00,00,
22814513,00000102,false,Rx,0,8,01,84,01,00,00,01,00,00,
22881739,00000524,false,Rx,0,6,03,0B,03,00,00,00,00,00,
22914018,00000100,false,Rx,0,8,00,00,00,00,8E,01,C8,00,
22914271,00000101,false,Rx,0,8,00,FF,FE,00,00,00,00,00,
22914515,00000102,false,Rx,0,8,01,84,01,00,00,01,00,00,
22915955,00000523,false,Rx,0,6,02,0D,F0,FF,FF,FF,00,00,
22998542,00000526,false,Rx,0,6,05,0F,03,00,00,00,00,00,
23014019,00000100,false,Rx,0,8,00,00,00,00,8E,01,C8,00,
23014265,00000101,false,Rx,0,8,00,FF,FE,00,00,00,00,00,
23014510,00000102,false,Rx,0,8,01,84,01,00,00,01,00,00,
23028660,00000522,false,Rx,0,6,01,02,4A,B5,05,00,00,00,
23089066,00000525,false,Rx,0,6,04,0C,C5,00,00,00,00,00,
23097178,00000528,false,Rx,0,6,07,0C,1D,07,00,00,00,00,
23114012,00000100,false,Rx,0,8,00,00,00,00,8E,01,C8,00,
23114263,00000101,false,Rx,0,8,00,FF,FE,00,00,00,00,00,
23114511,00000102,false,Rx,0,8,01,84,01,00,00,01,00,00,
23186657,00000521,false,Rx,0,6,00,0A,0B,00,00,00,00,00,
23214012,00000100,false,Rx,0,8,00,00,00,00,8E,01,C8,00,
23214264,00000101,false,Rx,0,8,00,FF,FE,00,00,00,00,00,
23214505,00000102,false,Rx,0,8,01,84,01,00,00,01,00,00,
23314011,00000100,false,Rx,0,8,00,00,00,00,8E,01,C8,00,
23314257,00000101,false,Rx,0,8,00,FF,FE,00,00,00,00,00,
23314504,00000102,false,Rx,0,8,01,84,01,00,00,01,00,00,
23414011,00000100,false,Rx,0,8,00,00,00,00,8E,01,C8,00,
23414256,00000101,false,Rx,0,8,00,FF,FE,00,00,00,00,00,
23414502,00000102,false,Rx,0,8,01,84,01,00,00,01,00,00,
23439363,00000527,false,Rx,0,6,06,05,EF,45,00,00,00,00,
23514003,00000100,false,Rx,0,8,00,00,00,00,8E,01,C8,00,
23514255,00000101,false,Rx,0,8,00,FF,FE,00,00,00,00,00,
23514502,00000102,false,Rx,0,8,01,84,01,00,00,01,00,00,
23547994,00000524,false,Rx,0,6,03,0C,F3,FF,FF,FF,00,00,
23564093,00000523,false,Rx,0,6,02,0E,EC,FF,FF,FF,00,00,
23614003,00000100,false,Rx,0,8,00,00,00,00,8E,01,C8,00,
23614256,00000101,false,Rx,0,8,00,FF,FE,00,00,00,00,00,
23614503,00000102,false,Rx,0,8,01,84,01,00,00,01,00,00,
23658696,00000522,false,Rx,0,6,01,03,46,B5,05,00,00,00,
23701104,00000526,false,Rx,0,6,05,00,11,00,00,00,00,00,
23714003,00000100,false,Rx,0,8,00,00,00,00,8E,01,C8,00,
23714251,00000101,false,Rx,0,8,00,FF,FE,00,00,00,00,00,
23714499,00000102,false,Rx,0,8,01,84,01,00,00,01,00,00,
23773456,00000525,false,Rx,0,6,04,0D,C4,00,00,00,00,00,
23798582,00000521,false,Rx,0,6,00,0B,0B,00,00,00,00,00,
23814000,00000100,false,Rx,0,8,00,00,00,00,8E,01,C8,00,
23814251,00000101,false,Rx,0,8,00,FF,FE,00,00,00,00,00,
23814501,00000102,false,Rx,0,8,01,84,01,00,00,01,00,00,
23835894,00000528,false,Rx,0,6,07,0D,1D,07,00,00,00,00,
23914000,00000100,false,Rx,0,8,00,00,00,00,8E,01,C8,00,
23914246,00000101,false,Rx,0,8,00,FF,FE,00,00,00,00,00,
23914497,00000102,false,Rx,0,8,01,84,01,00,00,01,00,00,
24013997,00000100,false,Rx,0,8,00,00,00,00,8E,01,C8,00,
24014249,00000101,false,Rx,0,8,00,FF,FE,00,00,00,00,00,
24014510,00000102,false,Rx,0,8,01,84,01,00,00,01,00,00,
24113992,00000100,false,Rx,0,8,00,00,00,00,8E,01,C8,00,
24114244,00000101,false,Rx,0,8,00,FF,FE,00,00,00,00,00,
24114496,00000102,false,Rx,0,8,01,84,01,00,00,01,00,00,
24159969,00000527,false,Rx,0,6,06,06,EF,45,00,00,00,00,
24212238,00000523,false,Rx,0,6,02,0F,F2,FF,FF,FF,00,00,
24213993,00000100,false,Rx,0,8,00,00,00,00,8E,01,C8,00,
24214238,00000101,false,Rx,0,8,00,FF,FE,00,00,00,00,00,
24214486,00000102,false,Rx,0,8,01,84,01,00,00,01,00,00,
24214702,00000524,false,Rx,0,6,03,0D,EA,FF,FF,FF,00,00,
24288712,00000522,false,Rx,0,6,01,04,47,B5,05,00,00,00,
24313993,00000100,false,Rx,0,8,00,00,00,00,8E,01,C8,00,
24314238,00000101,false,Rx,0,8,00,FF,FE,00,00,00,00,00,
24314488,00000102,false,Rx,0,8,01,84,01,00,00,01,00,00,
24403535,00000526,false,Rx,0,6,05,01,04,00,00,00,00,00,
24410506,00000521,false,Rx,0,6,00,0C,06,00,00,00,00,00,
24413990,00000100,false,Rx,0,8,00,00,00,00,8E,01,C8,00,
24414236,00000101,false,Rx,0,8,00,FF,FE,00,00,00,00,00,
24414489,00000102,false,Rx,0,8,01,84,01,00,00,01,00,00,
24457827,00000525,false,Rx,0,6,04,0E,C4,00,00,00,00,00,
24513988,00000100,false,Rx,0,8,00,00,00,00,8E,01,C8,00,
24514234,00000101,false,Rx,0,8,00,FF,FE,00,00,00,00,00,
24514487,00000102,false,Rx,0,8,01,84,01,00,00,01,00,00,
24574624,00000528,false,Rx,0,6,07,0E,1D,07,00,00,00,00,
24613980,00000100,false,Rx,0,8,00,00,00,00,8E,01,C8,00,
24614232,00000101,false,Rx,0,8,00,FF,FE,00,00,00,00,00,
24614477,00000102,false,Rx,0,8,01,84,01,00,00,01,00,00,
24713980,00000100,false,Rx,0,8,00,00,00,00,8E,01,C8,00,
24714232,00000101,false,Rx,0,8,00,FF,FE,00,00,00,00,00,
24714479,00000102,false,Rx,0,8,01,84,01,00,00,01,00,00,
24813978,00000100,false,Rx,0,8,00,00,00,00,8E,01,C8,00,
24814230,00000101,false,Rx,0,8,00,FF,FE,00,00,00,00,00,
24814478,00000102,false,Rx,0,8,01,84,01,00,00,01,00,00,
24860369,00000523,false,Rx,0,6,02,00,F2,FF,FF,FF,00,00,
24880808,00000524,false,Rx,0,6,03,0E,EA,FF,FF,FF,00,00,
24881023,00000527,false,Rx,0,6,06,07,EF,45,00,00,00,00,
24913975,00000100,false,Rx,0,8,00,00,00,00,8E,01,C8,00,
24914226,00000101,false,Rx,0,8,00,FF,FE,00,00,00,00,00,
24914474,00000102,false,Rx,0,8,01,84,01,00,00,01,00,00,
24918742,00000522,false,Rx,0,6,01,05,48,B5,05,00,00,00,
25013975,00000100,false,Rx,0,8,00,00,00,00,8E,01,C8,00,
25014220,00000101,false,Rx,0,8,00,FF,FE,00,00,00,00,00,
25014474,00000102,false,Rx,0,8,01,84,01,00,00,01,00,00,
25022390,00000521,false,Rx,0,6,00,0D,05,00,00,00,00,00,
25106284,00000526,false,Rx,0,6,05,02,0A,00,00,00,00,00,
25113970,00000100,false,Rx,0,8,00,00,00,00,8E,01,C8,00,
25114225,00000101,false,Rx,0,8,00,FF,FE,00,00,00,00,00,
25114473,00000102,false,Rx,0,8,01,84,01,00,00,01,00,00,
25142197,00000525,false,Rx,0,6,04,0F,C4,00,00,00,00,00,
25213972,00000100,false,Rx,0,8,00,00,00,00,8E,01,C8,00,
25214218,00000101,false,Rx,0,8,00,FF,FE,00,00,00,00,00,
25214472,00000102,false,Rx,0,8,01,84,01,00,00,01,00,00,
25313604,00000528,false,Rx,0,6,07,0F,1D,07,00,00,00,00,
25313969,00000100,false,Rx,0,8,00,00,00,00,8E,01,C8,00,
25314215,00000101,false,Rx,0,8,00,FF,FE,00,00,00,00,00,
25314466,00000102,false,Rx,0,8,01,84,01,00,00,01,00,00,
25413969,00000100,false,Rx,0,8,00,00,00,00,8E,01,C8,00,
25414214,00000101,false,Rx,0,8,00,FF,FE,00,00,00,00,00,
25414463,00000102,false,Rx,0,8,01,84,01,00,00,01,00,00,
25508511,00000523,false,Rx,0,6,02,01,F2,FF,FF,FF,00,00,
25513966,00000100,false,Rx,0,8,00,00,00,00,8E,01,C8,00,
25514212,00000101,false,Rx,0,8,00,FF,FE,00,00,00,00,00,
25514464,00000102,false,Rx,0,8,01,84,01,00,00,01,00,00,
25546767,00000524,false,Rx,0,6,03,0F,FC,FF,FF,FF,00,00,
25548755,00000522,false,Rx,0,6,01,06,43,B5,05,00,00,00,
25601163,00000527,false,Rx,0,6,06,08,EF,45,00,00,00,00,
25613963,00000100,false,Rx,0,8,00,00,00,00,8E,01,C8,00,
25614215,00000101,false,Rx,0,8,00,FF,FE,00,00,00,00,00,
25614460,00000102,false,Rx,0,8,01,84,01,00,00,01,00,00,
25634304,00000521,false,Rx,0,6,00,0E,05,00,00,00,00,00,
25713956,00000100,false,Rx,0,8,00,00,00,00,8E,01,C8,00,
25714208,00000101,false,Rx,0,8,00,FF,FE,00,00,00,00,00,
25714457,00000102,false,Rx,0,8,01,84,01,00,00,01,00,00,
25808760,00000526,false,Rx,0,6,05,03,0A,00,00,00,00,00,
25813954,00000100,false,Rx,0,8,00,00,00,00,8E,01,C8,00,
25814206,00000101,false,Rx,0,8,00,FF,FE,00,00,00,00,00,
25814451,00000102,false,Rx,0,8,01,84,01,00,00,01,00,00,
25826566,00000525,false,Rx,0,6,04,00,C4,00,00,00,00,00,
25913956,00000100,false,Rx,0,8,00,00,00,00,8E,01,C8,00,
25914209,00000101,false,Rx,0,8,00,FF,FE,00,00,00,00,00,
25914470,00000102,false,Rx,0,8,01,84,01,00,00,01,00,00,
26013954,00000100,false,Rx,0,8,00,00,00,00,8E,01,C8,00,
26014206,00000101,false,Rx,0,8,00,FF,FE,00,00,00,00,00,
26014452,00000102,false,Rx,0,8,01,84,01,00,00,01,00,00,
26052040,00000528,false,Rx,0,6,07,00,1D,07,00,00,00,00,
26113953,00000100,false,Rx,0,8,00,00,00,00,8E,01,C8,00,
26114199,00000101,false,Rx,0,8,00,FF,FE,00,00,00,00,00,
26114444,00000102,false,Rx,0,8,01,84,01,00,00,01,00,00,
26156635,00000523,false,Rx,0,6,02,02,F7,FF,FF,FF,00,00,
26178771,00000522,false,Rx,0,6,01,07,52,B5,05,00,00,00,
26213010,00000524,false,Rx,0,6,03,00,F0,FF,FF,FF,00,00,
26213948,00000100,false,Rx,0,8,00,00,00,00,8E,01,C8,00,
26214201,00000101,false,Rx,0,8,00,FF,FE,00,00,00,00,00,
26214446,00000102,false,Rx,0,8,01,84,01,00,00,01,00,00,
26246195,00000521,false,Rx,0,6,00,0F,08,00,00,00,00,00,
26313948,00000100,false,Rx,0,8,00,00,00,00,8E,01,C8,00,
26314201,00000101,false,Rx,0,8,00,FF,FE,00,00,00,00,00,
26314447,00000102,false,Rx,0,8,01,84,01,00,00,01,00,00,
26321740,00000527,false,Rx,0,6,06,09,EF,45,00,00,00,00,
26413942,00000100,false,Rx,0,8,00,00,00,00,8E,01,C8,00,
26414194,00000101,false,Rx,0,8,00,FF,FE,00,00,00,00,00,
26414440,00000102,false,Rx,0,8,01,84,01,00,00,01,00,00,
26511178,00000525,false,Rx,0,6,04,01,C4,00,00,00,00,00,
26511411,00000526,false,Rx,0,6,05,04,00,00,00,00,00,00,
26513945,00000100,false,Rx,0,8,00,00,00,00,8E,01,C8,00,
26514191,00000101,false,Rx,0,8,00,FF,FE,00,00,00,00,00,
26514436,00000102,false,Rx,0,8,01,84,01,00,00,01,00,00,
26613943,00000100,false,Rx,0,8,00,00,00,00,8E,01,C8,00,
26614189,00000101,false,Rx,0,8,00,FF,FE,00,00,00,00,00,
26614435,00000102,false,Rx,0,8,01,84,01,00,00,01,00,00,
26713938,00000100,false,Rx,0,8,00,00,00,00,8E,01,C8,00,
26714191,00000101,false,Rx,0,8,00,FF,FE,00,00,00,00,00,
26714437,00000102,false,Rx,0,8,01,84,01,00,00,01,00,00,
26790736,00000528,false,Rx,0,6,07,01,1D,07,00,00,00,00,
26804763,00000523,false,Rx,0,6,02,03,F7,FF,FF,FF,00,00,
26808778,00000522,false,Rx,0,6,01,08,4F,B5,05,00,00,00,
26813935,00000100,false,Rx,0,8,00,00,00,00,8E,01,C8,00,
26814189,00000101,false,Rx,0,8,00,FF,FE,00,00,00,00,00,
26814435,00000102,false,Rx,0,8,01,84,01,00,00,01,00,00,
26858098,00000521,false,Rx,0,6,00,00,05,00,00,00,00,00,
26879245,00000524,false,Rx,0,6,03,01,FB,FF,FF,FF,00,00,
26913932,00000100,false,Rx,0,8,00,00,00,00,8E,01,C8,00,
26914186,00000101,false,Rx,0,8,00,FF,FE,00,00,00,00,00,
26914432,00000102,false,Rx,0,8,01,84,01,00,00,01,00,00,
27013935,00000100,false,Rx,0,8,00,00,00,00,8E,01,C8,00,
27014180,00000101,false,Rx,0,8,00,FF,FE,00,00,00,00,00,
27014426,00000102,false,Rx,0,8,01,84,01,00,00,01,00,00,
27042821,00000527,false,Rx,0,6,06,0A,EF,45,00,00,00,00,
27113932,00000100,false,Rx,0,8,00,00,00,00,8E,01,C8,00,
27114184,00000101,false,Rx,0,8,00,FF,FE,00,00,00,00,00,
27114430,00000102,false,Rx,0,8,01,84,01,00,00,01,00,00,
27195265,00000525,false,Rx,0,6,04,02,C4,00,00,00,00,00,
27213679,00000526,false,Rx,0,6,05,05,00,00,00,00,00,00,
27213931,00000100,false,Rx,0,8,00,00,00,00,8E,01,C8,00,
27214193,00000101,false,Rx,0,8,00,FF,FE,00,00,00,00,00,
27214422,00000102,false,Rx,0,8,01,84,01,00,00,01,00,00,
27313928,00000100,false,Rx,0,8,00,00,00,00,8E,01,C8,00,
27314173,00000101,false,Rx,0,8,00,FF,FE,00,00,00,00,00,
27314423,00000102,false,Rx,0,8,01,84,01,00,00,01,00,00,
27413926,00000100,false,Rx,0,8,00,00,00,00,8E,01,C8,00,
27414172,00000101,false,Rx,0,8,00,FF,FE,00,00,00,00,00,
27414421,00000102,false,Rx,0,8,01,84,01,00,00,01,00,00,
27438777,00000522,false,Rx,0,6,01,09,43,B5,05,00,00,00,
27452874,00000523,false,Rx,0,6,02,04,F1,FF,FF,FF,00,00,
27469982,00000521,false,Rx,0,6,00,01,09,00,00,00,00,00,
27513926,00000100,false,Rx,0,8,00,00,00,00,8E,01,C8,00,
27514171,00000101,false,Rx,0,8,00,FF,FE,00,00,00,00,00,
27514415,00000102,false,Rx,0,8,01,84,01,00,00,01,00,00,
27529440,00000528,false,Rx,0,6,07,02,1D,07,00,00,00,00,
27545477,00000524,false,Rx,0,6,03,02,F8,FF,FF,FF,00,00,
27613920,00000100,false,Rx,0,8,00,00,00,00,8E,01,C8,00,
27614172,00000101,false,Rx,0,8,00,FF,FE,00,00,00,00,00,
27614415,00000102,false,Rx,0,8,01,84,01,00,00,01,00,00,
27713921,00000100,false,Rx,0,8,00,00,00,00,8E,01,C8,00,
27714167,00000101,false,Rx,0,8,00,FF,FE,00,00,00,00,00,
27714415,00000102,false,Rx,0,8,01,84,01,00,00,01,00,00,
27762907,00000527,false,Rx,0,6,06,0B,EF,45,00,00,00,00,
27813915,00000100,false,Rx,0,8,00,00,00,00,8E,01,C8,00,
27814166,00000101,false,Rx,0,8,00,FF,FE,00,00,00,00,00,
27814413,00000102,false,Rx,0,8,01,84,01,00,00,01,00,00,
27879599,00000525,false,Rx,0,6,04,03,C4,00,00,00,00,00,
27913914,00000100,false,Rx,0,8,00,00,00,00,8E,01,C8,00,
27914167,00000101,false,Rx,0,8,00,FF,FE,00,00,00,00,00,
27914413,00000102,false,Rx,0,8,01,84,01,00,00,01,00,00,
27915958,00000526,false,Rx,0,6,05,06,02,00,00,00,00,00,
28013910,00000100,false,Rx,0,8,00,00,00,00,8E,01,C8,00,
28014162,00000101,false,Rx,0,8,00,FF,FE,00,00,00,00,00,
28014408,00000102,false,Rx,0,8,01,84,01,00,00,01,00,00,
28068806,00000522,false,Rx,0,6,01,0A,51,B5,05,00,00,00,
28081870,00000521,false,Rx,0,6,00,02,08,00,00,00,00,00,
28101003,00000523,false,Rx,0,6,02,05,F6,FF,FF,FF,00,00,
28113910,00000100,false,Rx,0,8,00,00,00,00,8E,01,C8,00,
28114163,00000101,false,Rx,0,8,00,FF,FE,00,00,00,00,00,
28114409,00000102,false,Rx,0,8,01,84,01,00,00,01,00,00,
28211714,00000524,false,Rx,0,6,03,03,F9,FF,FF,FF,00,00,
28213906,00000100,false,Rx,0,8,00,00,00,00,8E,01,C8,00,
28214161,00000101,false,Rx,0,8,00,FF,FE,00,00,00,00,00,
28214407,00000102,false,Rx,0,8,01,84,01,00,00,01,00,00,
28268137,00000528,false,Rx,0,6,07,03,1D,07,00,00,00,00,
28313905,00000100,false,Rx,0,8,00,00,00,00,8E,01,C8,00,
28314153,00000101,false,Rx,0,8,00,FF,FE,00,00,00,00,00,
28314399,00000102,false,Rx,0,8,01,84,01,00,00,01,00,00,
28413904,00000100,false,Rx,0,8,00,00,00,00,8E,01,C8,00,
28414156,00000101,false,Rx,0,8,00,FF,FE,00,00,00,00,00,
28414402,00000102,false,Rx,0,8,01,84,01,00,00,01,00,00,
28483573,00000527,false,Rx,0,6,06,0C,EF,45,00,00,00,00,
28513904,00000100,false,Rx,0,8,00,00,00,00,8E,01,C8,00,
28514152,00000101,false,Rx,0,8,00,FF,FE,00,00,00,00,00,
28514398,00000102,false,Rx,0,8,01,84,01,00,00,01,00,00,
28563963,00000525,false,Rx,0,6,04,04,C4,00,00,00,00,00,
28613901,00000100,false,Rx,0,8,00,00,00,00,8E,01,C8,00,
28614147,00000101,false,Rx,0,8,00,FF,FE,00,00,00,00,00,
28614396,00000102,false,Rx,0,8,01,84,01,00,00,01,00,00,
28618628,00000526,false,Rx,0,6,05,07,11,00,00,00,00,00,
28693771,00000521,false,Rx,0,6,00,03,0C,00,00,00,00,00,
28698806,00000522,false,Rx,0,6,01,0B,4C,B5,05,00,00,00,
28713898,00000100,false,Rx,0,8,00,00,00,00,8E,01,C8,00,
28714150,00000101,false,Rx,0,8,00,FF,FE,00,00,00,00,00,
28714391,00000102,false,Rx,0,8,01,84,01,00,00,01,00,00,
28749138,00000523,false,Rx,0,6,02,06,F6,FF,FF,FF,00,00,
28813895,00000100,false,Rx,0,8,00,00,00,00,8E,01,C8,00,
28814148,00000101,false,Rx,0,8,00,FF,FE,00,00,00,00,00,
28814391,00000102,false,Rx,0,8,01,84,01,00,00,01,00,00,
28877964,00000524,false,Rx,0,6,03,04,FE,FF,FF,FF,00,00,
28913895,00000100,false,Rx,0,8,00,00,00,00,8E,01,C8,00,
28914141,00000101,false,Rx,0,8,00,FF,FE,00,00,00,00,00,
28914393,00000102,false,Rx,0,8,01,84,01,00,00,01,00,00,
29006858,00000528,false,Rx,0,6,07,04,1D,07,00,00,00,00,
29013894,00000100,false,Rx,0,8,00,00,00,00,8E,01,C8,00,
29014140,00000101,false,Rx,0,8,00,FF,FE,00,00,00,00,00,
29014385,00000102,false,Rx,0,8,01,84,01,00,00,01,00,00,
29113885,00000100,false,Rx,0,8,00,00,00,00,8E,01,C8,00,
29114137,00000101,false,Rx,0,8,00,FF,FE,00,00,00,00,00,
29114385,00000102,false,Rx,0,8,01,84,01,00,00,01,00,00,
29204092,00000527,false,Rx,0,6,06,0D,EF,45,00,00,00,00,
29213884,00000100,false,Rx,0,8,00,00,00,00,8E,01,C8,00,
29214137,00000101,false,Rx,0,8,00,FF,FE,00,00,00,00,00,
29214382,00000102,false,Rx,0,8,01,84,01,00,00,01,00,00,
29248335,00000525,false,Rx,0,6,04,05,C4,00,00,00,00,00,
29305673,00000521,false,Rx,0,6,00,04,09,00,00,00,00,00,
29313884,00000100,false,Rx,0,8,00,00,00,00,8E,01,C8,00,
29314136,00000101,false,Rx,0,8,00,FF,FE,00,00,00,00,00,
29314383,00000102,false,Rx,0,8,01,84,01,00,00,01,00,00,
29321100,00000526,false,Rx,0,6,05,08,0E,00,00,00,00,00,
29328815,00000522,false,Rx,0,6,01,0C,45,B5,05,00,00,00,
29397301,00000523,false,Rx,0,6,02,07,E9,FF,FF,FF,00,00,
29413882,00000100,false,Rx,0,8,00,00,00,00,8E,01,C8,00,
29414134,00000101,false,Rx,0,8,00,FF,FE,00,00,00,00,00,
29414380,00000102,false,Rx,0,8,01,84,01,00,00,01,00,00,
29513880,00000100,false,Rx,0,8,00,00,00,00,8E,01,C8,00,
29514132,00000101,false,Rx,0,8,00,FF,FE,00,00,00,00,00,
29514378,00000102,false,Rx,0,8,01,84,01,00,00,01,00,00,
29544219,00000524,false,Rx,0,6,03,05,F3,FF,FF,FF,00,00,
29613877,00000100,false,Rx,0,8,00,00,00,00,8E,01,C8,00,
29614130,00000101,false,Rx,0,8,00,FF,FE,00,00,00,00,00,
29614376,00000102,false,Rx,0,8,01,84,01,00,00,01,00,00,
29713876,00000100,false,Rx,0,8,00,00,00,00,8E,01,C8,00,
29714128,00000101,false,Rx,0,8,00,FF,FE,00,00,00,00,00,
29714374,00000102,false,Rx,0,8,01,84,01,00,00,01,00,00,
29745560,00000528,false,Rx,0,6,07,05,1D,07,00,00,00,00,
29813872,00000100,false,Rx,0,8,00,00,00,00,8E,01,C8,00,
29814124,00000101,false,Rx,0,8,00,FF,FE,00,00,00,00,00,
29814370,00000102,false,Rx,0,8,01,84,01,00,00,01,00,00,
29913870,00000100,false,Rx,0,8,00,00,00,00,8E,01,C8,00,
29914122,00000101,false,Rx,0,8,00,FF,FE,00,00,00,00,00,
29914368,00000102,false,Rx,0,8,01,84,01,00,00,01,00,00,
29917575,00000521,false,Rx,0,6,00,05,0E,00,00,00,00,00,
29924697,00000527,false,Rx,0,6,06,0E,EF,45,00,00,00,00,
29932699,00000525,false,Rx,0,6,04,06,C4,00,00,00,00,00,
29958837,00000522,false,Rx,0,6,01,0D,55,B5,05,00,00,00,
30013871,00000100,false,Rx,0,8,00,00,00,00,8E,01,C8,00,
30014123,00000101,false,Rx,0,8,00,FF,FE,00,00,00,00,00,
30014369,00000102,false,Rx,0,8,01,84,01,00,00,01,00,00,
30023604,00000526,false,Rx,0,6,05,09,07,00,00,00,00,00,
30045404,00000523,false,Rx,0,6,02,08,F2,FF,FF,FF,00,00,
30113870,00000100,false,Rx,0,8,00,00,00,00,8E,01,C8,00,
30114116,00000101,false,Rx,0,8,00,FF,FE,00,00,00,00,00,
30114364,00000102,false,Rx,0,8,01,84,01,00,00,01,00,00,
30210465,00000524,false,Rx,0,6,03,06,EB,FF,FF,FF,00,00,
30213864,00000100,false,Rx,0,8,00,00,00,00,8E,01,C8,00,
30214116,00000101,false,Rx,0,8,00,FF,FE,00,00,00,00,00,
30214360,00000102,false,Rx,0,8,01,84,01,00,00,01,00,00,
30313866,00000100,false,Rx,0,8,00,00,00,00,8E,01,C8,00,
30314112,00000101,false,Rx,0,8,00,FF,FE,00,00,00,00,00,
30314361,00000102,false,Rx,0,8,01,84,01,00,00,01,00,00,
30413864,00000100,false,Rx,0,8,00,00,00,00,8E,01,C8,00,
30414110,00000101,false,Rx,0,8,00,FF,FE,00,00,00,00,00,
30414359,00000102,false,Rx,0,8,01,84,01,00,00,01,00,00,
30484748,00000528,false,Rx,0,6,07,06,1D,07,00,00,00,00,
30513858,00000100,false,Rx,0,8,00,00,00,00,8E,01,C8,00,
30514109,00000101,false,Rx,0,8,00,FF,FE,00,00,00,00,00,
30514355,00000102,false,Rx,0,8,01,84,01,00,00,01,00,00,
30529480,00000521,false,Rx,0,6,00,06,03,00,00,00,00,00,
30588851,00000522,false,Rx,0,6,01,0E,57,B5,05,00,00,00,
30613853,00000100,false,Rx,0,8,00,00,00,00,8E,01,C8,00,
30614105,00000101,false,Rx,0,8,00,FF,FE,00,00,00,00,00,
30614350,00000102,false,Rx,0,8,01,84,01,00,00,01,00,00,
30617074,00000525,false,Rx,0,6,04,07,C4,00,00,00,00,00,
30645294,00000527,false,Rx,0,6,06,0F,EF,45,00,00,00,00,
30693537,00000523,false,Rx,0,6,02,09,F2,FF,FF,FF,00,00,
30713857,00000100,false,Rx,0,8,00,00,00,00,8E,01,C8,00,
30714102,00000101,false,Rx,0,8,00,FF,FE,00,00,00,00,00,
30714365,00000102,false,Rx,0,8,01,84,01,00,00,01,00,00,
30726303,00000526,false,Rx,0,6,05,0A,F9,FF,FF,FF,00,00,
30813854,00000100,false,Rx,0,8,00,00,00,00,8E,01,C8,00,
30814101,00000101,false,Rx,0,8,00,FF,FE,00,00,00,00,00,
30814349,00000102,false,Rx,0,8,01,84,01,00,00,01,00,00,
30876709,00000524,false,Rx,0,6,03,07,FC,FF,FF,FF,00,00,
30913852,00000100,false,Rx,0,8,00,00,00,00,8E,01,C8,00,
30914104,00000101,false,Rx,0,8,00,FF,FE,00,00,00,00,00,
30914349,00000102,false,Rx,0,8,01,84,01,00,00,01,00,00,
31013851,00000100,false,Rx,0,8,00,00,00,00,8E,01,C8,00,
31014103,00000101,false,Rx,0,8,00,FF,FE,00,00,00,00,00,
31014343,00000102,false,Rx,0,8,01,84,01,00,00,01,00,00,
31113845,00000100,false,Rx,0,8,00,00,00,00,8E,01,C8,00,
31114098,00000101,false,Rx,0,8,00,FF,FE,00,00,00,00,00,
31114344,00000102,false,Rx,0,8,01,84,01,00,00,01,00,00,
31141370,00000521,false,Rx,0,6,00,07,04,00,00,00,00,00,
31213845,00000100,false,Rx,0,8,00,00,00,00,8E,01,C8,00,
31214097,00000101,false,Rx,0,8,00,FF,FE,00,00,00,00,00,
31214343,00000102,false,Rx,0,8,01,84,01,00,00,01,00,00,
31218867,00000522,false,Rx,0,6,01,0F,65,B5,05,00,00,00,
31222987,00000528,false,Rx,0,6,07,07,1D,07,00,00,00,00,
31301431,00000525,false,Rx,0,6,04,08,C4,00,00,00,00,00,
31313841,00000100,false,Rx,0,8,00,00,00,00,8E,01,C8,00,
31314090,00000101,false,Rx,0,8,00,FF,FE,00,00,00,00,00,
31314342,00000102,false,Rx,0,8,01,84,01,00,00,01,00,00,
31341668,00000523,false,Rx,0,6,02,0A,FD,FF,FF,FF,00,00,
31365884,00000527,false,Rx,0,6,06,00,F0,45,00,00,00,00,
31413839,00000100,false,Rx,0,8,00,00,00,00,8E,01,C8,00,
31414094,00000101,false,Rx,0,8,00,FF,FE,00,00,00,00,00,
31414340,00000102,false,Rx,0,8,01,84,01,00,00,01,00,00,
31428530,00000526,false,Rx,0,6,05,0B,03,00,00,00,00,00,
31513841,00000100,false,Rx,0,8,00,00,00,00,8E,01,C8,00,
31514086,00000101,false,Rx,0,8,00,FF,FE,00,00,00,00,00,
31514333,00000102,false,Rx,0,8,01,84,01,00,00,01,00,00,
31542950,00000524,false,Rx,0,6,03,08,FD,FF,FF,FF,00,00,
31613833,00000100,false,Rx,0,8,00,00,00,00,8E,01,C8,00,
31614085,00000101,false,Rx,0,8,00,FF,FE,00,00,00,00,00,
31614334,00000102,false,Rx,0,8,01,84,01,00,00,01,00,00,
31713834,00000100,false,Rx,0,8,00,00,00,00,8E,01,C8,00,
31714087,00000101,false,Rx,0,8,00,FF,FE,00,00,00,00,00,
31714329,00000102,false,Rx,0,8,01,84,01,00,00,01,00,00,
31753588,00000521,false,Rx,0,6,00,08,08,00,00,00,00,00,
31813834,00000100,false,Rx,0,8,00,00,00,00,8E,01,C8,00,
31814080,00000101,false,Rx,0,8,00,FF,FE,00,00,00,00,00,
31814329,00000102,false,Rx,0,8,01,84,01,00,00,01,00,00,
31848885,00000522,false,Rx,0,6,01,00,5F,B5,05,00,00,00,
31913833,00000100,false,Rx,0,8,00,00,00,00,8E,01,C8,00,
31914079,00000101,false,Rx,0,8,00,FF,FE,00,00,00,00,00,
31914328,00000102,false,Rx,0,8,01,84,01,00,00,01,00,00,
31961677,00000528,false,Rx,0,6,07,08,1D,07,00,00,00,00,
31985789,00000525,false,Rx,0,6,04,09,C4,00,00,00,00,00,
31989779,00000523,false,Rx,0,6,02,0B,FD,FF,FF,FF,00,00,
32013826,00000100,false,Rx,0,8,00,00,00,00,8E,01,C8,00,
32014079,00000101,false,Rx,0,8,00,FF,FE,00,00,00,00,00,
32014327,00000102,false,Rx,0,8,01,84,01,00,00,01,00,00,
32086463,00000527,false,Rx,0,6,06,01,F0,45,00,00,00,00,
32113828,00000100,false,Rx,0,8,00,00,00,00,8E,01,C8,00,
32114073,00000101,false,Rx,0,8,00,FF,FE,00,00,00,00,00,
32114325,00000102,false,Rx,0,8,01,84,01,00,00,01,00,00,
32130820,00000526,false,Rx,0,6,05,0C,09,00,00,00,00,00,
32209187,00000524,false,Rx,0,6,03,09,F3,FF,FF,FF,00,00,
32213820,00000100,false,Rx,0,8,00,00,00,00,8E,01,C8,00,
32214072,00000101,false,Rx,0,8,00,FF,FE,00,00,00,00,00,
32214318,00000102,false,Rx,0,8,01,84,01,00,00,01,00,00,
32313825,00000100,false,Rx,0,8,00,00,00,00,8E,01,C8,00,
32314070,00000101,false,Rx,0,8,00,FF,FE,00,00,00,00,00,
32314316,00000102,false,Rx,0,8,01,84,01,00,00,01,00,00,
32365159,00000521,false,Rx,0,6,00,09,05,00,00,00,00,00,
32413818,00000100,false,Rx,0,8,00,00,00,00,8E,01,C8,00,
32414073,00000101,false,Rx,0,8,00,FF,FE,00,00,00,00,00,
32414319,00000102,false,Rx,0,8,01,84,01,00,00,01,00,00,
32478882,00000522,false,Rx,0,6,01,01,62,B5,05,00,00,00,
32513821,00000100,false,Rx,0,8,00,00,00,00,8E,01,C8,00,
32514069,00000101,false,Rx,0,8,00,FF,FE,00,00,00,00,00,
32514315,00000102,false,Rx,0,8,01,84,01,00,00,01,00,00,
32613818,00000100,false,Rx,0,8,00,00,00,00,8E,01,C8,00,
32614064,00000101,false,Rx,0,8,00,FF,FE,00,00,00,00,00,
32614309,00000102,false,Rx,0,8,01,84,01,00,00,01,00,00,
32637901,00000523,false,Rx,0,6,02,0C,FD,FF,FF,FF,00,00,
32670132,00000525,false,Rx,0,6,04,0A,C4,00,00,00,00,00,
32700379,00000528,false,Rx,0,6,07,09,1D,07,00,00,00,00,
32713812,00000100,false,Rx,0,8,00,00,00,00,8E,01,C8,00,
32714063,00000101,false,Rx,0,8,00,FF,FE,00,00,00,00,00,
32714308,00000102,false,Rx,0,8,01,84,01,00,00,01,00,00,
32807036,00000527,false,Rx,0,6,06,02,F0,45,00,00,00,00,
32813813,00000100,false,Rx,0,8,00,00,00,00,8E,01,C8,00,
32814061,00000101,false,Rx,0,8,00,FF,FE,00,00,00,00,00,
32814307,00000102,false,Rx,0,8,01,84,01,00,00,01,00,00,
32833479,00000526,false,Rx,0,6,05,0D,FB,FF,FF,FF,00,00,
32875425,00000524,false,Rx,0,6,03,0A,F1,FF,FF,FF,00,00,
32913812,00000100,false,Rx,0,8,00,00,00,00,8E,01,C8,00,
32914058,00000101,false,Rx,0,8,00,FF,FE,00,00,00,00,00,
32914302,00000102,false,Rx,0,8,01,84,01,00,00,01,00,00,
32977043,00000521,false,Rx,0,6,00,0A,03,00,00,00,00,00,
33013810,00000100,false,Rx,0,8,00,00,00,00,8E,01,C8,00,
33014055,00000101,false,Rx,0,8,00,FF,FE,00,00,00,00,00,
33014307,00000102,false,Rx,0,8,01,84,01,00,00,01,00,00,
33108889,00000522,false,Rx,0,6,01,02,6A,B5,05,00,00,00,
33113806,00000100,false,Rx,0,8,00,00,00,00,8E,01,C8,00,
33114058,00000101,false,Rx,0,8,00,FF,FE,00,00,00,00,00,
33114304,00000102,false,Rx,0,8,01,84,01,00,00,01,00,00,
33213802,00000100,false,Rx,0,8,00,00,00,00,8E,01,C8,00,
33214054,00000101,false,Rx,0,8,00,FF,FE,00,00,00,00,00,
33214303,00000102,false,Rx,0,8,01,84,01,00,00,01,00,00,
33286027,00000523,false,Rx,0,6,02,0D,F3,FF,FF,FF,00,00,
33313805,00000100,false,Rx,0,8,00,00,00,00,8E,01,C8,00,
33314050,00000101,false,Rx,0,8,00,FF,FE,00,00,00,00,00,
33314295,00000102,false,Rx,0,8,01,84,01,00,00,01,00,00,
33354478,00000525,false,Rx,0,6,04,0B,C4,00,00,00,00,00,
33413796,00000100,false,Rx,0,8,00,00,00,00,8E,01,C8,00,
33414047,00000101,false,Rx,0,8,00,FF,FE,00,00,00,00,00,
33414296,00000102,false,Rx,0,8,01,84,01,00,00,01,00,00,
33439070,00000528,false,Rx,0,6,07,0A,1D,07,00,00,00,00,
33513796,00000100,false,Rx,0,8,00,00,00,00,8E,01,C8,00,
33514048,00000101,false,Rx,0,8,00,FF,FE,00,00,00,00,00,
33514308,00000102,false,Rx,0,8,01,84,01,00,00,01,00,00,
33527622,00000527,false,Rx,0,6,06,03,F0,45,00,00,00,00,
33535657,00000526,false,Rx,0,6,05,0E,00,00,00,00,00,00,
33541669,00000524,false,Rx,0,6,03,0B,EE,FF,FF,FF,00,00,
33588931,00000521,false,Rx,0,6,00,0B,FD,FF,FF,FF,00,00,
33613796,00000100,false,Rx,0,8,00,00,00,00,8E,01,C8,00,
33614048,00000101,false,Rx,0,8,00,FF,FE,00,00,00,00,00,
33614294,00000102,false,Rx,0,8,01,84,01,00,00,01,00,00,
33713793,00000100,false,Rx,0,8,00,00,00,00,8E,01,C8,00,
33714046,00000101,false,Rx,0,8,00,FF,FE,00,00,00,00,00,
33714292,00000102,false,Rx,0,8,01,84,01,00,00,01,00,00,
33738894,00000522,false,Rx,0,6,01,03,5A,B5,05,00,00,00,
33813789,00000100,false,Rx,0,8,00,00,00,00,8E,01,C8,00,
33814042,00000101,false,Rx,0,8,00,FF,FE,00,00,00,00,00,
33814288,00000102,false,Rx,0,8,01,84,01,00,00,01,00,00,
33913789,00000100,false,Rx,0,8,00,00,00,00,8E,01,C8,00,
33914042,00000101,false,Rx,0,8,00,FF,FE,00,00,00,00,00,
33914288,00000102,false,Rx,0,8,01,84,01,00,00,01,00,00,
33934138,00000523,false,Rx,0,6,02,0E,ED,FF,FF,FF,00,00,
34013788,00000100,false,Rx,0,8,00,00,00,00,8E,01,C8,00,
34014034,00000101,false,Rx,0,8,00,FF,FE,00,00,00,00,00,
34014280,00000102,false,Rx,0,8,01,84,01,00,00,01,00,00,
34038822,00000525,false,Rx,0,6,04,0C,C4,00,00,00,00,00,
34113786,00000100,false,Rx,0,8,00,00,00,00,8E,01,C8,00,
34114038,00000101,false,Rx,0,8,00,FF,FE,00,00,00,00,00,
34114285,00000102,false,Rx,0,8,01,84,01,00,00,01,00,00,
34177762,00000528,false,Rx,0,6,07,0B,1D,07,00,00,00,00,
34200821,00000521,false,Rx,0,6,00,0C,00,00,00,00,00,00,
34207888,00000524,false,Rx,0,6,03,0C,EB,FF,FF,FF,00,00,
34213781,00000100,false,Rx,0,8,00,00,00,00,8E,01,C8,00,
34214034,00000101,false,Rx,0,8,00,FF,FE,00,00,00,00,00,
34214280,00000102,false,Rx,0,8,01,84,01,00,00,01,00,00,
34238416,00000526,false,Rx,0,6,05,0F,F9,FF,FF,FF,00,00,
34248195,00000527,false,Rx,0,6,06,04,F0,45,00,00,00,00,
34313784,00000100,false,Rx,0,8,00,00,00,00,8E,01,C8,00,
34314028,00000101,false,Rx,0,8,00,FF,FE,00,00,00,00,00,
34314275,00000102,false,Rx,0,8,01,84,01,00,00,01,00,00,
34368892,00000522,false,Rx,0,6,01,04,65,B5,05,00,00,00,
34413777,00000100,false,Rx,0,8,00,00,00,00,8E,01,C8,00,
34414042,00000101,false,Rx,0,8,00,FF,FE,00,00,00,00,00,
34414270,00000102,false,Rx,0,8,01,84,01,00,00,01,00,00,
34513776,00000100,false,Rx,0,8,00,00,00,00,8E,01,C8,00,
34514029,00000101,false,Rx,0,8,00,FF,FE,00,00,00,00,00,
34514272,00000102,false,Rx,0,8,01,84,01,00,00,01,00,00,
34582265,00000523,false,Rx,0,6,02,0F,ED,FF,FF,FF,00,00,
34613772,00000100,false,Rx,0,8,00,00,00,00,8E,01,C8,00,
34614023,00000101,false,Rx,0,8,00,FF,FE,00,00,00,00,00,
34614269,00000102,false,Rx,0,8,01,84,01,00,00,01,00,00,
34713773,00000100,false,Rx,0,8,00,00,00,00,8E,01,C8,00,
34714026,00000101,false,Rx,0,8,00,FF,FE,00,00,00,00,00,
34714269,00000102,false,Rx,0,8,01,84,01,00,00,01,00,00,
34723178,00000525,false,Rx,0,6,04,0D,C4,00,00,00,00,00,
34812712,00000521,false,Rx,0,6,00,0D,F9,FF,FF,FF,00,00,
34813767,00000100,false,Rx,0,8,00,00,00,00,8E,01,C8,00,
34814020,00000101,false,Rx,0,8,00,FF,FE,00,00,00,00,00,
34814264,00000102,false,Rx,0,8,01,84,01,00,00,01,00,00,
34874135,00000524,false,Rx,0,6,03,0D,F2,FF,FF,FF,00,00,
34913765,00000100,false,Rx,0,8,00,00,00,00,8E,01,C8,00,
34914017,00000101,false,Rx,0,8,00,FF,FE,00,00,00,00,00,
34914262,00000102,false,Rx,0,8,01,84,01,00,00,01,00,00,
34916468,00000528,false,Rx,0,6,07,0C,1D,07,00,00,00,00,
34940835,00000526,false,Rx,0,6,05,00,04,00,00,00,00,00,
34968790,00000527,false,Rx,0,6,06,05,F0,45,00,00,00,00,
34998914,00000522,false,Rx,0,6,01,05,64,B5,05,00,00,00,
35013766,00000100,false,Rx,0,8,00,00,00,00,8E,01,C8,00,
35014018,00000101,false,Rx,0,8,00,FF,FE,00,00,00,00,00,
35014283,00000102,false,Rx,0,8,01,84,01,00,00,01,00,00,
35113766,00000100,false,Rx,0,8,00,00,00,00,8E,01,C8,00,
35114011,00000101,false,Rx,0,8,00,FF,FE,00,00,00,00,00,
35114257,00000102,false,Rx,0,8,01,84,01,00,00,01,00,00,
35213764,00000100,false,Rx,0,8,00,00,00,00,8E,01,C8,00,
35214009,00000101,false,Rx,0,8,00,FF,FE,00,00,00,00,00,
35214254,00000102,false,Rx,0,8,01,84,01,00,00,01,00,00,
35230384,00000523,false,Rx,0,6,02,00,F0,FF,FF,FF,00,00,
35313759,00000100,false,Rx,0,8,00,00,00,00,8E,01,C8,00,
35314012,00000101,false,Rx,0,8,00,FF,FE,00,00,00,00,00,
35314258,00000102,false,Rx,0,8,01,84,01,00,00,01,00,00,
35407549,00000525,false,Rx,0,6,04,0E,C4,00,00,00,00,00,
35413759,00000100,false,Rx,0,8,00,00,00,00,8E,01,C8,00,
35414004,00000101,false,Rx,0,8,00,FF,FE,00,00,00,00,00,
35414250,00000102,false,Rx,0,8,01,84,01,00,00,01,00,00,
35424616,00000521,false,Rx,0,6,00,0E,0C,00,00,00,00,00,
35513751,00000100,false,Rx,0,8,00,00,00,00,8E,01,C8,00,
35514003,00000101,false,Rx,0,8,00,FF,FE,00,00,00,00,00,
35514249,00000102,false,Rx,0,8,01,84,01,00,00,01,00,00,
35540376,00000524,false,Rx,0,6,03,0E,F1,FF,FF,FF,00,00,
35613753,00000100,false,Rx,0,8,00,00,00,00,8E,01,C8,00,
35614005,00000101,false,Rx,0,8,00,FF,FE,00,00,00,00,00,
35614252,00000102,false,Rx,0,8,01,84,01,00,00,01,00,00,
35628919,00000522,false,Rx,0,6,01,06,68,B5,05,00,00,00,
35643334,00000526,false,Rx,0,6,05,01,0A,00,00,00,00,00,
35655166,00000528,false,Rx,0,6,07,0D,1D,07,00,00,00,00,
35689382,00000527,false,Rx,0,6,06,06,F0,45,00,00,00,00,
35713753,00000100,false,Rx,0,8,00,00,00,00,8E,01,C8,00,
35714002,00000101,false,Rx,0,8,00,FF,FE,00,00,00,00,00,
35714248,00000102,false,Rx,0,8,01,84,01,00,00,01,00,00,
35813746,00000100,false,Rx,0,8,00,00,00,00,8E,01,C8,00,
35813998,00000101,false,Rx,0,8,00,FF,FE,00,00,00,00,00,
35814244,00000102,false,Rx,0,8,01,84,01,00,00,01,00,00,
35878530,00000523,false,Rx,0,6,02,01,ED,FF,FF,FF,00,00,
35913744,00000100,false,Rx,0,8,00,00,00,00,8E,01,C8,00,
35913999,00000101,false,Rx,0,8,00,FF,FE,00,00,00,00,00,
35914246,00000102,false,Rx,0,8,01,84,01,00,00,01,00,00,
36013743,00000100,false,Rx,0,8,00,00,00,00,8E,01,C8,00,
36013995,00000101,false,Rx,0,8,00,FF,FE,00,00,00,00,00,
36014241,00000102,false,Rx,0,8,01,84,01,00,00,01,00,00,
36036513,00000521,false,Rx,0,6,00,0F,06,00,00,00,00,00,
36091908,00000525,false,Rx,0,6,04,0F,C4,00,00,00,00,00,
36113742,00000100,false,Rx,0,8,00,00,00,00,8E,01,C8,00,
36114001,00000101,false,Rx,0,8,00,FF,FE,00,00,00,00,00,
36114236,00000102,false,Rx,0,8,01,84,01,00,00,01,00,00,
36206629,00000524,false,Rx,0,6,03,0F,EC,FF,FF,FF,00,00,
36213741,00000100,false,Rx,0,8,00,00,00,00,8E,01,C8,00,
36213993,00000101,false,Rx,0,8,00,FF,FE,00,00,00,00,00,
36214239,00000102,false,Rx,0,8,01,84,01,00,00,01,00,00,
36258939,00000522,false,Rx,0,6,01,07,70,B5,05,00,00,00,
36313738,00000100,false,Rx,0,8,00,00,00,00,8E,01,C8,00,
36313990,00000101,false,Rx,0,8,00,FF,FE,00,00,00,00,00,
36314233,00000102,false,Rx,0,8,01,84,01,00,00,01,00,00,
36345536,00000526,false,Rx,0,6,05,02,00,00,00,00,00,00,
36393878,00000528,false,Rx,0,6,07,0E,1D,07,00,00,00,00,
36409983,00000527,false,Rx,0,6,06,07,F0,45,00,00,00,00,
36413740,00000100,false,Rx,0,8,00,00,00,00,8E,01,C8,00,
36413985,00000101,false,Rx,0,8,00,FF,FE,00,00,00,00,00,
36414233,00000102,false,Rx,0,8,01,84,01,00,00,01,00,00,
36513732,00000100,false,Rx,0,8,00,00,00,00,8E,01,C8,00,
36513985,00000101,false,Rx,0,8,00,FF,FE,00,00,00,00,00,
36514234,00000102,false,Rx,0,8,01,84,01,00,00,01,00,00,
36526671,00000523,false,Rx,0,6,02,02,ED,FF,FF,FF,00,00,
36613731,00000100,false,Rx,0,8,00,00,00,00,8E,01,C8,00,
36613983,00000101,false,Rx,0,8,00,FF,FE,00,00,00,00,00,
36614226,00000102,false,Rx,0,8,01,84,01,00,00,01,00,00,
36648426,00000521,false,Rx,0,6,00,00,0B,00,00,00,00,00,
36713729,00000100,false,Rx,0,8,00,00,00,00,8E,01,C8,00,
36713980,00000101,false,Rx,0,8,00,FF,FE,00,00,00,00,00,
36714227,00000102,false,Rx,0,8,01,84,01,00,00,01,00,00,
36776281,00000525,false,Rx,0,6,04,00,C4,00,00,00,00,00,
36813730,00000100,false,Rx,0,8,00,00,00,00,8E,01,C8,00,
36813976,00000101,false,Rx,0,8,00,FF,FE,00,00,00,00,00,
36814221,00000102,false,Rx,0,8,01,84,01,00,00,01,00,00,
36872873,00000524,false,Rx,0,6,03,00,EF,FF,FF,FF,00,00,
36888958,00000522,false,Rx,0,6,01,08,6F,B5,05,00,00,00,
36913723,00000100,false,Rx,0,8,00,00,00,00,8E,01,C8,00,
36913975,00000101,false,Rx,0,8,00,FF,FE,00,00,00,00,00,
36914221,00000102,false,Rx,0,8,01,84,01,00,00,01,00,00,
37013726,00000100,false,Rx,0,8,00,00,00,00,8E,01,C8,00,
37013971,00000101,false,Rx,0,8,00,FF,FE,00,00,00,00,00,
37014217,00000102,false,Rx,0,8,01,84,01,00,00,01,00,00,
37048296,00000526,false,Rx,0,6,05,03,10,00,00,00,00,00,
37113721,00000100,false,Rx,0,8,00,00,00,00,8E,01,C8,00,
37113973,00000101,false,Rx,0,8,00,FF,FE,00,00,00,00,00,
37114219,00000102,false,Rx,0,8,01,84,01,00,00,01,00,00,
37130641,00000527,false,Rx,0,6,06,08,F0,45,00,00,00,00,
37132852,00000528,false,Rx,0,6,07,0F,1D,07,00,00,00,00,
37174777,00000523,false,Rx,0,6,02,03,F2,FF,FF,FF,00,00,
37213717,00000100,false,Rx,0,8,00,00,00,00,8E,01,C8,00,
37213972,00000101,false,Rx,0,8,00,FF,FE,00,00,00,00,00,
37214218,00000102,false,Rx,0,8,01,84,01,00,00,01,00,00,
37260332,00000521,false,Rx,0,6,00,01,06,00,00,00,00,00,
37313718,00000100,false,Rx,0,8,00,00,00,00,8E,01,C8,00,
37313969,00000101,false,Rx,0,8,00,FF,FE,00,00,00,00,00,
37314215,00000102,false,Rx,0,8,01,84,01,00,00,01,00,00,
37413718,00000100,false,Rx,0,8,00,00,00,00,8E,01,C8,00,
37413965,00000101,false,Rx,0,8,00,FF,FE,00,00,00,00,00,
37414212,00000102,false,Rx,0,8,01,84,01,00,00,01,00,00,
37460639,00000525,false,Rx,0,6,04,01,C4,00,00,00,00,00,
37513717,00000100,false,Rx,0,8,00,00,00,00,8E,01,C8,00,
37513962,00000101,false,Rx,0,8,00,FF,FE,00,00,00,00,00,
37514207,00000102,false,Rx,0,8,01,84,01,00,00,01,00,00,
37518964,00000522,false,Rx,0,6,01,09,6D,B5,05,00,00,00,
37539117,00000524,false,Rx,0,6,03,01,F7,FF,FF,FF,00,00,
37613709,00000100,false,Rx,0,8,00,00,00,00,8E,01,C8,00,
37613972,00000101,false,Rx,0,8,00,FF,FE,00,00,00,00,00,
37614207,00000102,false,Rx,0,8,01,84,01,00,00,01,00,00,
37713709,00000100,false,Rx,0,8,00,00,00,00,8E,01,C8,00,
37713961,00000101,false,Rx,0,8,00,FF,FE,00,00,00,00,00,
37714203,00000102,false,Rx,0,8,01,84,01,00,00,01,00,00,
37750784,00000526,false,Rx,0,6,05,04,10,00,00,00,00,00,
37813708,00000100,false,Rx,0,8,00,00,00,00,8E,01,C8,00,
37813954,00000101,false,Rx,0,8,00,FF,FE,00,00,00,00,00,
37814202,00000102,false,Rx,0,8,01,84,01,00,00,01,00,00,
37822907,00000523,false,Rx,0,6,02,04,EC,FF,FF,FF,00,00,
37851147,00000527,false,Rx,0,6,06,09,F0,45,00,00,00,00,
37871280,00000528,false,Rx,0,6,07,00,1D,07,00,00,00,00,
37872546,00000521,false,Rx,0,6,00,02,07,00,00,00,00,00,
37913703,00000100,false,Rx,0,8,00,00,00,00,8E,01,C8,00,
37913955,00000101,false,Rx,0,8,00,FF,FE,00,00,00,00,00,
37914204,00000102,false,Rx,0,8,01,84,01,00,00,01,00,00,
38013705,00000100,false,Rx,0,8,00,00,00,00,8E,01,C8,00,
38013950,00000101,false,Rx,0,8,00,FF,FE,00,00,00,00,00,
38014199,00000102,false,Rx,0,8,01,84,01,00,00,01,00,00,
38113703,00000100,false,Rx,0,8,00,00,00,00,8E,01,C8,00,
38113949,00000101,false,Rx,0,8,00,FF,FE,00,00,00,00,00,
38114198,00000102,false,Rx,0,8,01,84,01,00,00,01,00,00,
38144975,00000525,false,Rx,0,6,04,02,C4,00,00,00,00,00,
38148965,00000522,false,Rx,0,6,01,0A,68,B5,05,00,00,00,
38205349,00000524,false,Rx,0,6,03,02,F0,FF,FF,FF,00,00,
38213702,00000100,false,Rx,0,8,00,00,00,00,8E,01,C8,00,
38213948,00000101,false,Rx,0,8,00,FF,FE,00,00,00,00,00,
38214210,00000102,false,Rx,0,8,01,84,01,00,00,01,00,00,
38313697,00000100,false,Rx,0,8,00,00,00,00,8E,01,C8,00,
38313948,00000101,false,Rx,0,8,00,FF,FE,00,00,00,00,00,
38314194,00000102,false,Rx,0,8,01,84,01,00,00,01,00,00,
38413695,00000100,false,Rx,0,8,00,00,00,00,8E,01,C8,00,
38413947,00000101,false,Rx,0,8,00,FF,FE,00,00,00,00,00,
38414193,00000102,false,Rx,0,8,01,84,01,00,00,01,00,00,
38453243,00000526,false,Rx,0,6,05,05,00,00,00,00,00,00,
38471029,00000523,false,Rx,0,6,02,05,EC,FF,FF,FF,00,00,
38484106,00000521,false,Rx,0,6,00,03,05,00,00,00,00,00,
38513691,00000100,false,Rx,0,8,00,00,00,00,8E,01,C8,00,
38513943,00000101,false,Rx,0,8,00,FF,FE,00,00,00,00,00,
38514189,00000102,false,Rx,0,8,01,84,01,00,00,01,00,00,
38571725,00000527,false,Rx,0,6,06,0A,F0,45,00,00,00,00,
38609981,00000528,false,Rx,0,6,07,01,1D,07,00,00,00,00,
38613699,00000100,false,Rx,0,8,00,00,00,00,8E,01,C8,00,
38613939,00000101,false,Rx,0,8,00,FF,FE,00,00,00,00,00,
38614184,00000102,false,Rx,0,8,01,84,01,00,00,01,00,00,
38713696,00000100,false,Rx,0,8,00,00,00,00,8E,01,C8,00,
38713936,00000101,false,Rx,0,8,00,FF,FE,00,00,00,00,00,
38714182,00000102,false,Rx,0,8,01,84,01,00,00,01,00,00,
38778981,00000522,false,Rx,0,6,01,0B,6C,B5,05,00,00,00,
38813692,00000100,false,Rx,0,8,00,00,00,00,8E,01,C8,00,
38813937,00000101,false,Rx,0,8,00,FF,FE,00,00,00,00,00,
38814183,00000102,false,Rx,0,8,01,84,01,00,00,01,00,00,
38829324,00000525,false,Rx,0,6,04,03,C4,00,00,00,00,00,
38871599,00000524,false,Rx,0,6,03,03,F3,FF,FF,FF,00,00,
38913694,00000100,false,Rx,0,8,00,00,00,00,8E,01,C8,00,
38913934,00000101,false,Rx,0,8,00,FF,FE,00,00,00,00,00,
38914179,00000102,false,Rx,0,8,01,84,01,00,00,01,00,00,
39013678,00000100,false,Rx,0,8,00,00,00,00,8E,01,C8,00,
39013938,00000101,false,Rx,0,8,00,FF,FE,00,00,00,00,00,
39014178,00000102,false,Rx,0,8,01,84,01,00,00,01,00,00,
39096014,00000521,false,Rx,0,6,00,04,08,00,00,00,00,00,
39113677,00000100,false,Rx,0,8,00,00,00,00,8E,01,C8,00,
39113940,00000101,false,Rx,0,8,00,FF,FE,00,00,00,00,00,
39114180,00000102,false,Rx,0,8,01,84,01,00,00,01,00,00,
39119184,00000523,false,Rx,0,6,02,06,EE,FF,FF,FF,00,00,
39155693,00000526,false,Rx,0,6,05,06,FB,FF,FF,FF,00,00,
39213676,00000100,false,Rx,0,8,00,00,00,00,8E,01,C8,00,
39213936,00000101,false,Rx,0,8,00,FF,FE,00,00,00,00,00,
39214175,00000102,false,Rx,0,8,01,84,01,00,00,01,00,00,
39292326,00000527,false,Rx,0,6,06,0B,F0,45,00,00,00,00,
39313679,00000100,false,Rx,0,8,00,00,00,00,8E,01,C8,00,
39313927,00000101,false,Rx,0,8,00,FF,FE,00,00,00,00,00,
39314173,00000102,false,Rx,0,8,01,84,01,00,00,01,00,00,
39348696,00000528,false,Rx,0,6,07,02,1D,07,00,00,00,00,
39408999,00000522,false,Rx,0,6,01,0C,78,B5,05,00,00,00,
39413680,00000100,false,Rx,0,8,00,00,00,00,8E,01,C8,00,
39413923,00000101,false,Rx,0,8,00,FF,FE,00,00,00,00,00,
39414169,00000102,false,Rx,0,8,01,84,01,00,00,01,00,00,
39513676,00000100,false,Rx,0,8,00,00,00,00,8E,01,C8,00,
39513922,00000101,false,Rx,0,8,00,FF,FE,00,00,00,00,00,
39514168,00000102,false,Rx,0,8,01,84,01,00,00,01,00,00,
39514371,00000525,false,Rx,0,6,04,04,C4,00,00,00,00,00,
39537840,00000524,false,Rx,0,6,03,04,F0,FF,FF,FF,00,00,
39613679,00000100,false,Rx,0,8,00,00,00,00,8E,01,C8,00,
39613918,00000101,false,Rx,0,8,00,FF,FE,00,00,00,00,00,
39614167,00000102,false,Rx,0,8,01,84,01,00,00,01,00,00,
39707907,00000521,false,Rx,0,6,00,05,0B,00,00,00,00,00,
39713678,00000100,false,Rx,0,8,00,00,00,00,8E,01,C8,00,
39713918,00000101,false,Rx,0,8,00,FF,FE,00,00,00,00,00,
39714162,00000102,false,Rx,0,8,01,84,01,00,00,01,00,00,
39767295,00000523,false,Rx,0,6,02,07,ED,FF,FF,FF,00,00,
39813670,00000100,false,Rx,0,8,00,00,00,00,8E,01,C8,00,
39813917,00000101,false,Rx,0,8,00,FF,FE,00,00,00,00,00,
39814162,00000102,false,Rx,0,8,01,84,01,00,00,01,00,00,
39858187,00000526,false,Rx,0,6,05,07,FB,FF,FF,FF,00,00,
39913668,00000100,false,Rx,0,8,00,00,00,00,8E,01,C8,00,
39913915,00000101,false,Rx,0,8,00,FF,FE,00,00,00,00,00,
39914157,00000102,false,Rx,0,8,01,84,01,00,00,01,00,00,
40012919,00000527,false,Rx,0,6,06,0C,F0,45,00,00,00,00,
40013658,00000100,false,Rx,0,8,00,00,00,00,8E,01,C8,00,
40013912,00000101,false,Rx,0,8,00,FF,FE,00,00,00,00,00,
40014157,00000102,false,Rx,0,8,01,84,01,00,00,01,00,00,
40039006,00000522,false,Rx,0,6,01,0D,72,B5,05,00,00,00,
40087406,00000528,false,Rx,0,6,07,03,1D,07,00,00,00,00,
40113660,00000100,false,Rx,0,8,00,00,00,00,8E,01,C8,00,
40113907,00000101,false,Rx,0,8,00,FF,FE,00,00,00,00,00,
40114159,00000102,false,Rx,0,8,01,84,01,00,00,01,00,00,
40198062,00000525,false,Rx,0,6,04,05,C4,00,00,00,00,00,
40204086,00000524,false,Rx,0,6,03,05,FC,FF,FF,FF,00,00,
40213659,00000100,false,Rx,0,8,00,00,00,00,8E,01,C8,00,
40213906,00000101,false,Rx,0,8,00,FF,FE,00,00,00,00,00,
40214152,00000102,false,Rx,0,8,01,84,01,00,00,01,00,00,
40313658,00000100,false,Rx,0,8,00,00,00,00,8E,01,C8,00,
40313905,00000101,false,Rx,0,8,00,FF,FE,00,00,00,00,00,
40314152,00000102,false,Rx,0,8,01,84,01,00,00,01,00,00,
40319810,00000521,false,Rx,0,6,00,06,0D,00,00,00,00,00,
40413655,00000100,false,Rx,0,8,00,00,00,00,8E,01,C8,00,
40413902,00000101,false,Rx,0,8,00,FF,FE,00,00,00,00,00,
40414148,00000102,false,Rx,0,8,01,84,01,00,00,01,00,00,
40415438,00000523,false,Rx,0,6,02,08,ED,FF,FF,FF,00,00,
40513654,00000100,false,Rx,0,8,00,00,00,00,8E,01,C8,00,
40513902,00000101,false,Rx,0,8,00,FF,FE,00,00,00,00,00,
40514148,00000102,false,Rx,0,8,01,84,01,00,00,01,00,00,
40560411,00000526,false,Rx,0,6,05,08,01,00,00,00,00,00,
40613648,00000100,false,Rx,0,8,00,00,00,00,8E,01,C8,00,
40613901,00000101,false,Rx,0,8,00,FF,FE,00,00,00,00,00,
40614147,00000102,false,Rx,0,8,01,84,01,00,00,01,00,00,
40669023,00000522,false,Rx,0,6,01,0E,7D,B5,05,00,00,00,
40713647,00000100,false,Rx,0,8,00,00,00,00,8E,01,C8,00,
40713898,00000101,false,Rx,0,8,00,FF,FE,00,00,00,00,00,
40714143,00000102,false,Rx,0,8,01,84,01,00,00,01,00,00,
40733505,00000527,false,Rx,0,6,06,0D,F0,45,00,00,00,00,
40813647,00000100,false,Rx,0,8,00,00,00,00,8E,01,C8,00,
40813894,00000101,false,Rx,0,8,00,FF,FE,00,00,00,00,00,
40814140,00000102,false,Rx,0,8,01,84,01,00,00,01,00,00,
40826100,00000528,false,Rx,0,6,07,04,1D,07,00,00,00,00,
40870348,00000524,false,Rx,0,6,03,06,F0,FF,FF,FF,00,00,
40882413,00000525,false,Rx,0,6,04,06,C4,00,00,00,00,00,
40913669,00000100,false,Rx,0,8,00,00,00,00,8E,01,C8,00,
40913900,00000101,false,Rx,0,8,00,FF,FE,00,00,00,00,00,
40914136,00000102,false,Rx,0,8,01,84,01,00,00,01,00,00,
40932009,00000521,false,Rx,0,6,00,07,08,00,00,00,00,00,
41013644,00000100,false,Rx,0,8,00,00,00,00,8E,01,C8,00,
41013892,00000101,false,Rx,0,8,00,FF,FE,00,00,00,00,00,
41014134,00000102,false,Rx,0,8,01,84,01,00,00,01,00,00,
41063542,00000523,false,Rx,0,6,02,09,EA,FF,FF,FF,00,00,
41113638,00000100,false,Rx,0,8,00,00,00,00,8E,01,C8,00,
41113885,00000101,false,Rx,0,8,00,FF,FE,00,00,00,00,00,
41114134,00000102,false,Rx,0,8,01,84,01,00,00,01,00,00,
41213635,00000100,false,Rx,0,8,00,00,00,00,8E,01,C8,00,
41213882,00000101,false,Rx,0,8,00,FF,FE,00,00,00,00,00,
41214132,00000102,false,Rx,0,8,01,84,01,00,00,01,00,00,
41263394,00000526,false,Rx,0,6,05,09,06,00,00,00,00,00,
41299034,00000522,false,Rx,0,6,01,0F,7E,B5,05,00,00,00,
41313634,00000100,false,Rx,0,8,00,00,00,00,8E,01,C8,00,
41313888,00000101,false,Rx,0,8,00,FF,FE,00,00,00,00,00,
41314133,00000102,false,Rx,0,8,01,84,01,00,00,01,00,00,
41413635,00000100,false,Rx,0,8,00,00,00,00,8E,01,C8,00,
41413883,00000101,false,Rx,0,8,00,FF,FE,00,00,00,00,00,
41414132,00000102,false,Rx,0,8,01,84,01,00,00,01,00,00,
41454088,00000527,false,Rx,0,6,06,0E,F0,45,00,00,00,00,
41513629,00000100,false,Rx,0,8,00,00,00,00,8E,01,C8,00,
41513883,00000101,false,Rx,0,8,00,FF,FE,00,00,00,00,00,
41514143,00000102,false,Rx,0,8,01,84,01,00,00,01,00,00,
41536558,00000524,false,Rx,0,6,03,07,E0,FF,FF,FF,00,00,
41543573,00000521,false,Rx,0,6,00,08,0A,00,00,00,00,00,
41564796,00000528,false,Rx,0,6,07,05,1D,07,00,00,00,00,
41567086,00000525,false,Rx,0,6,04,07,C4,00,00,00,00,00,
41613625,00000100,false,Rx,0,8,00,00,00,00,8E,01,C8,00,
41613880,00000101,false,Rx,0,8,00,FF,FE,00,00,00,00,00,
41614126,00000102,false,Rx,0,8,01,84,01,00,00,01,00,00,
41711654,00000523,false,Rx,0,6,02,0A,ED,FF,FF,FF,00,00,
41713623,00000100,false,Rx,0,8,00,00,00,00,8E,01,C8,00,
41713876,00000101,false,Rx,0,8,00,FF,FE,00,00,00,00,00,
41714122,00000102,false,Rx,0,8,01,84,01,00,00,01,00,00,
41813627,00000100,false,Rx,0,8,00,00,00,00,8E,01,C8,00,
41813874,00000101,false,Rx,0,8,00,FF,FE,00,00,00,00,00,
41814120,00000102,false,Rx,0,8,01,84,01,00,00,01,00,00,
41913622,00000100,false,Rx,0,8,00,00,00,00,8E,01,C8,00,
41913870,00000101,false,Rx,0,8,00,FF,FE,00,00,00,00,00,
41914116,00000102,false,Rx,0,8,01,84,01,00,00,01,00,00,
41929019,00000522,false,Rx,0,6,01,00,8D,B5,05,00,00,00,
41965592,00000526,false,Rx,0,6,05,0A,0A,00,00,00,00,00,
42013619,00000100,false,Rx,0,8,00,00,00,00,8E,01,C8,00,
42013868,00000101,false,Rx,0,8,00,FF,FE,00,00,00,00,00,
42014113,00000102,false,Rx,0,8,01,84,01,00,00,01,00,00,
42113617,00000100,false,Rx,0,8,00,00,00,00,8E,01,C8,00,
42113864,00000101,false,Rx,0,8,00,FF,FE,00,00,00,00,00,
42114110,00000102,false,Rx,0,8,01,84,01,00,00,01,00,00,
42155469,00000521,false,Rx,0,6,00,09,08,00,00,00,00,00,
42174655,00000527,false,Rx,0,6,06,0F,F0,45,00,00,00,00,
42202766,00000524,false,Rx,0,6,03,08,FA,FF,FF,FF,00,00,
42213612,00000100,false,Rx,0,8,00,00,00,00,8E,01,C8,00,
42213865,00000101,false,Rx,0,8,00,FF,FE,00,00,00,00,00,
42214111,00000102,false,Rx,0,8,01,84,01,00,00,01,00,00,
42251080,00000525,false,Rx,0,6,04,08,C4,00,00,00,00,00,
42303474,00000528,false,Rx,0,6,07,06,1D,07,00,00,00,00,
42313613,00000100,false,Rx,0,8,00,00,00,00,8E,01,C8,00,
42313860,00000101,false,Rx,0,8,00,FF,FE,00,00,00,00,00,
42314107,00000102,false,Rx,0,8,01,84,01,00,00,01,00,00,
42359758,00000523,false,Rx,0,6,02,0B,ED,FF,FF,FF,00,00,
42413613,00000100,false,Rx,0,8,00,00,00,00,8E,01,C8,00,
42413859,00000101,false,Rx,0,8,00,FF,FE,00,00,00,00,00,
42414108,00000102,false,Rx,0,8,01,84,01,00,00,01,00,00,
42513609,00000100,false,Rx,0,8,00,00,00,00,8E,01,C8,00,
42513857,00000101,false,Rx,0,8,00,FF,FE,00,00,00,00,00,
42514106,00000102,false,Rx,0,8,01,84,01,00,00,01,00,00,
42559015,00000522,false,Rx,0,6,01,01,7B,B5,05,00,00,00,
42613607,00000100,false,Rx,0,8,00,00,00,00,8E,01,C8,00,
42613854,00000101,false,Rx,0,8,00,FF,FE,00,00,00,00,00,
42614104,00000102,false,Rx,0,8,01,84,01,00,00,01,00,00,
42668049,00000526,false,Rx,0,6,05,0B,FE,FF,FF,FF,00,00,
42713604,00000100,false,Rx,0,8,00,00,00,00,8E,01,C8,00,
42713857,00000101,false,Rx,0,8,00,FF,FE,00,00,00,00,00,
42714103,00000102,false,Rx,0,8,01,84,01,00,00,01,00,00,
42767339,00000521,false,Rx,0,6,00,0A,07,00,00,00,00,00,
42813604,00000100,false,Rx,0,8,00,00,00,00,8E,01,C8,00,
42813852,00000101,false,Rx,0,8,00,FF,FE,00,00,00,00,00,
42814096,00000102,false,Rx,0,8,01,84,01,00,00,01,00,00,
42869006,00000524,false,Rx,0,6,03,09,F4,FF,FF,FF,00,00,
42895230,00000527,false,Rx,0,6,06,00,F0,45,00,00,00,00,
42913604,00000100,false,Rx,0,8,00,00,00,00,8E,01,C8,00,
42913850,00000101,false,Rx,0,8,00,FF,FE,00,00,00,00,00,
42914098,00000102,false,Rx,0,8,01,84,01,00,00,01,00,00,
42935437,00000525,false,Rx,0,6,04,09,C4,00,00,00,00,00,
43007873,00000523,false,Rx,0,6,02,0C,F6,FF,FF,FF,00,00,
43013600,00000100,false,Rx,0,8,00,00,00,00,8E,01,C8,00,
43013847,00000101,false,Rx,0,8,00,FF,FE,00,00,00,00,00,
43014093,00000102,false,Rx,0,8,01,84,01,00,00,01,00,00,
43042178,00000528,false,Rx,0,6,07,07,1D,07,00,00,00,00,
43113597,00000100,false,Rx,0,8,00,00,00,00,8E,01,C8,00,
43113844,00000101,false,Rx,0,8,00,FF,FE,00,00,00,00,00,
43114089,00000102,false,Rx,0,8,01,84,01,00,00,01,00,00,
43189016,00000522,false,Rx,0,6,01,02,7E,B5,05,00,00,00,
43213592,00000100,false,Rx,0,8,00,00,00,00,8E,01,C8,00,
43213846,00000101,false,Rx,0,8,00,FF,FE,00,00,00,00,00,
43214092,00000102,false,Rx,0,8,01,84,01,00,00,01,00,00,
43313594,00000100,false,Rx,0,8,00,00,00,00,8E,01,C8,00,
43313842,00000101,false,Rx,0,8,00,FF,FE,00,00,00,00,00,
43314085,00000102,false,Rx,0,8,01,84,01,00,00,01,00,00,
43370248,00000526,false,Rx,0,6,05,0C,05,00,00,00,00,00,
43379218,00000521,false,Rx,0,6,00,0B,08,00,00,00,00,00,
43413587,00000100,false,Rx,0,8,00,00,00,00,8E,01,C8,00,
43413838,00000101,false,Rx,0,8,00,FF,FE,00,00,00,00,00,
43414089,00000102,false,Rx,0,8,01,84,01,00,00,01,00,00,
43513584,00000100,false,Rx,0,8,00,00,00,00,8E,01,C8,00,
43513839,00000101,false,Rx,0,8,00,FF,FE,00,00,00,00,00,
43514085,00000102,false,Rx,0,8,01,84,01,00,00,01,00,00,
43535239,00000524,false,Rx,0,6,03,0A,E8,FF,FF,FF,00,00,
43613588,00000100,false,Rx,0,8,00,00,00,00,8E,01,C8,00,
43613836,00000101,false,Rx,0,8,00,FF,FE,00,00,00,00,00,
43614082,00000102,false,Rx,0,8,01,84,01,00,00,01,00,00,
43615812,00000527,false,Rx,0,6,06,01,F0,45,00,00,00,00,
43619783,00000525,false,Rx,0,6,04,0A,C4,00,00,00,00,00,
43656004,00000523,false,Rx,0,6,02,0D,EC,FF,FF,FF,00,00,
43713585,00000100,false,Rx,0,8,00,00,00,00,8E,01,C8,00,
43713833,00000101,false,Rx,0,8,00,FF,FE,00,00,00,00,00,
43714080,00000102,false,Rx,0,8,01,84,01,00,00,01,00,00,
43780869,00000528,false,Rx,0,6,07,08,1D,07,00,00,00,00,
43813581,00000100,false,Rx,0,8,00,00,00,00,8E,01,C8,00,
43813831,00000101,false,Rx,0,8,00,FF,FE,00,00,00,00,00,
43814077,00000102,false,Rx,0,8,01,84,01,00,00,01,00,00,
43819030,00000522,false,Rx,0,6,01,03,84,B5,05,00,00,00,
43913580,00000100,false,Rx,0,8,00,00,00,00,8E,01,C8,00,
43913827,00000101,false,Rx,0,8,00,FF,FE,00,00,00,00,00,
43914076,00000102,false,Rx,0,8,01,84,01,00,00,01,00,00,
43991108,00000521,false,Rx,0,6,00,0C,03,00,00,00,00,00,
44013578,00000100,false,Rx,0,8,00,00,00,00,8E,01,C8,00,
44013824,00000101,false,Rx,0,8,00,FF,FE,00,00,00,00,00,
44014068,00000102,false,Rx,0,8,01,84,01,00,00,01,00,00,
44072961,00000526,false,Rx,0,6,05,0D,FF,FF,FF,FF,00,00,
44113572,00000100,false,Rx,0,8,00,00,00,00,8E,01,C8,00,
44113826,00000101,false,Rx,0,8,00,FF,FE,00,00,00,00,00,
44114071,00000102,false,Rx,0,8,01,84,01,00,00,01,00,00,
44201477,00000524,false,Rx,0,6,03,0B,F1,FF,FF,FF,00,00,
44213573,00000100,false,Rx,0,8,00,00,00,00,8E,01,C8,00,
44213819,00000101,false,Rx,0,8,00,FF,FE,00,00,00,00,00,
44214071,00000102,false,Rx,0,8,01,84,01,00,00,01,00,00,
44304158,00000523,false,Rx,0,6,02,0E,EC,FF,FF,FF,00,00,
44304379,00000525,false,Rx,0,6,04,0B,C4,00,00,00,00,00,
44313573,00000100,false,Rx,0,8,00,00,00,00,8E,01,C8,00,
44313821,00000101,false,Rx,0,8,00,FF,FE,00,00,00,00,00,
44314068,00000102,false,Rx,0,8,01,84,01,00,00,01,00,00,
44336396,00000527,false,Rx,0,6,06,02,F0,45,00,00,00,00,
44413568,00000100,false,Rx,0,8,00,00,00,00,8E,01,C8,00,
44413821,00000101,false,Rx,0,8,00,FF,FE,00,00,00,00,00,
44414063,00000102,false,Rx,0,8,01,84,01,00,00,01,00,00,
44449036,00000522,false,Rx,0,6,01,04,7F,B5,05,00,00,00,
44513566,00000100,false,Rx,0,8,00,00,00,00,8E,01,C8,00,
44513820,00000101,false,Rx,0,8,00,FF,FE,00,00,00,00,00,
44514060,00000102,false,Rx,0,8,01,84,01,00,00,01,00,00,
44519556,00000528,false,Rx,0,6,07,09,1D,07,00,00,00,00,
44603011,00000521,false,Rx,0,6,00,0D,0A,00,00,00,00,00,
44613565,00000100,false,Rx,0,8,00,00,00,00,8E,01,C8,00,
44613813,00000101,false,Rx,0,8,00,FF,FE,00,00,00,00,00,
44614059,00000102,false,Rx,0,8,01,84,01,00,00,01,00,00,
44713562,00000100,false,Rx,0,8,00,00,00,00,8E,01,C8,00,
44713816,00000101,false,Rx,0,8,00,FF,FE,00,00,00,00,00,
44714062,00000102,false,Rx,0,8,01,84,01,00,00,01,00,00,
44775252,00000526,false,Rx,0,6,05,0E,05,00,00,00,00,00,
44813559,00000100,false,Rx,0,8,00,00,00,00,8E,01,C8,00,
44813813,00000101,false,Rx,0,8,00,FF,FE,00,00,00,00,00,
44814059,00000102,false,Rx,0,8,01,84,01,00,00,01,00,00,
44867710,00000524,false,Rx,0,6,03,0C,E7,FF,FF,FF,00,00,
44913560,00000100,false,Rx,0,8,00,00,00,00,8E,01,C8,00,
44913808,00000101,false,Rx,0,8,00,FF,FE,00,00,00,00,00,
44914054,00000102,false,Rx,0,8,01,84,01,00,00,01,00,00,
44952230,00000523,false,Rx,0,6,02,0F,F4,FF,FF,FF,00,00,
44988485,00000525,false,Rx,0,6,04,0C,C4,00,00,00,00,00,
45013558,00000100,false,Rx,0,8,00,00,00,00,8E,01,C8,00,
45013805,00000101,false,Rx,0,8,00,FF,FE,00,00,00,00,00,
45014051,00000102,false,Rx,0,8,01,84,01,00,00,01,00,00,
45057237,00000527,false,Rx,0,6,06,03,F0,45,00,00,00,00,
45079030,00000522,false,Rx,0,6,01,05,87,B5,05,00,00,00,
45113554,00000100,false,Rx,0,8,00,00,00,00,8E,01,C8,00,
45113801,00000101,false,Rx,0,8,00,FF,FE,00,00,00,00,00,
45114046,00000102,false,Rx,0,8,01,84,01,00,00,01,00,00,
45213553,00000100,false,Rx,0,8,00,00,00,00,8E,01,C8,00,
45213801,00000101,false,Rx,0,8,00,FF,FE,00,00,00,00,00,
45214048,00000102,false,Rx,0,8,01,84,01,00,00,01,00,00,
45214894,00000521,false,Rx,0,6,00,0E,07,00,00,00,00,00,
45258254,00000528,false,Rx,0,6,07,0A,1D,07,00,00,00,00,
45313547,00000100,false,Rx,0,8,00,00,00,00,8E,01,C8,00,
45313801,00000101,false,Rx,0,8,00,FF,FE,00,00,00,00,00,
45314048,00000102,false,Rx,0,8,01,84,01,00,00,01,00,00,
45413548,00000100,false,Rx,0,8,00,00,00,00,8E,01,C8,00,
45413795,00000101,false,Rx,0,8,00,FF,FE,00,00,00,00,00,
45414047,00000102,false,Rx,0,8,01,84,01,00,00,01,00,00,
45477906,00000526,false,Rx,0,6,05,0F,08,00,00,00,00,00,
45513547,00000100,false,Rx,0,8,00,00,00,00,8E,01,C8,00,
45513797,00000101,false,Rx,0,8,00,FF,FE,00,00,00,00,00,
45514043,00000102,false,Rx,0,8,01,84,01,00,00,01,00,00,
45533943,00000524,false,Rx,0,6,03,0D,EC,FF,FF,FF,00,00,
45600361,00000523,false,Rx,0,6,02,00,FF,FF,FF,FF,00,00,
45613541,00000100,false,Rx,0,8,00,00,00,00,8E,01,C8,00,
45613790,00000101,false,Rx,0,8,00,FF,FE,00,00,00,00,00,
45614036,00000102,false,Rx,0,8,01,84,01,00,00,01,00,00,
45672841,00000525,false,Rx,0,6,04,0D,C4,00,00,00,00,00,
45709041,00000522,false,Rx,0,6,01,06,81,B5,05,00,00,00,
45713541,00000100,false,Rx,0,8,00,00,00,00,8E,01,C8,00,
45713789,00000101,false,Rx,0,8,00,FF,FE,00,00,00,00,00,
45714034,00000102,false,Rx,0,8,01,84,01,00,00,01,00,00,
45777547,00000527,false,Rx,0,6,06,04,F0,45,00,00,00,00,
45813540,00000100,false,Rx,0,8,00,00,00,00,8E,01,C8,00,
45813790,00000101,false,Rx,0,8,00,FF,FE,00,00,00,00,00,
45814036,00000102,false,Rx,0,8,01,84,01,00,00,01,00,00,
45826789,00000521,false,Rx,0,6,00,0F,08,00,00,00,00,00,
45913537,00000100,false,Rx,0,8,00,00,00,00,8E,01,C8,00,
45913791,00000101,false,Rx,0,8,00,FF,FE,00,00,00,00,00,
45914037,00000102,false,Rx,0,8,01,84,01,00,00,01,00,00,
45996949,00000528,false,Rx,0,6,07,0B,1D,07,00,00,00,00,
46013535,00000100,false,Rx,0,8,00,00,00,00,8E,01,C8,00,
46013783,00000101,false,Rx,0,8,00,FF,FE,00,00,00,00,00,
46014034,00000102,false,Rx,0,8,01,84,01,00,00,01,00,00,
46113535,00000100,false,Rx,0,8,00,00,00,00,8E,01,C8,00,
46113784,00000101,false,Rx,0,8,00,FF,FE,00,00,00,00,00,
46114033,00000102,false,Rx,0,8,01,84,01,00,00,01,00,00,
46180387,00000526,false,Rx,0,6,05,00,00,00,00,00,00,00,
46200188,00000524,false,Rx,0,6,03,0E,F6,FF,FF,FF,00,00,
46213529,00000100,false,Rx,0,8,00,00,00,00,8E,01,C8,00,
46213783,00000101,false,Rx,0,8,00,FF,FE,00,00,00,00,00,
46214031,00000102,false,Rx,0,8,01,84,01,00,00,01,00,00,
46248488,00000523,false,Rx,0,6,02,01,FF,FF,FF,FF,00,00,
46313529,00000100,false,Rx,0,8,00,00,00,00,8E,01,C8,00,
46313777,00000101,false,Rx,0,8,00,FF,FE,00,00,00,00,00,
46314026,00000102,false,Rx,0,8,01,84,01,00,00,01,00,00,
46339048,00000522,false,Rx,0,6,01,07,8F,B5,05,00,00,00,
46357189,00000525,false,Rx,0,6,04,0E,C4,00,00,00,00,00,
46413529,00000100,false,Rx,0,8,00,00,00,00,8E,01,C8,00,
46413777,00000101,false,Rx,0,8,00,FF,FE,00,00,00,00,00,
46414026,00000102,false,Rx,0,8,01,84,01,00,00,01,00,00,
46438675,00000521,false,Rx,0,6,00,00,06,00,00,00,00,00,
46498369,00000527,false,Rx,0,6,06,05,F0,45,00,00,00,00,
46513525,00000100,false,Rx,0,8,00,00,00,00,8E,01,C8,00,
46513772,00000101,false,Rx,0,8,00,FF,FE,00,00,00,00,00,
46514023,00000102,false,Rx,0,8,01,84,01,00,00,01,00,00,
46613525,00000100,false,Rx,0,8,00,00,00,00,8E,01,C8,00,
46613771,00000101,false,Rx,0,8,00,FF,FE,00,00,00,00,00,
46614017,00000102,false,Rx,0,8,01,84,01,00,00,01,00,00,
46713519,00000100,false,Rx,0,8,00,00,00,00,8E,01,C8,00,
46713772,00000101,false,Rx,0,8,00,FF,FE,00,00,00,00,00,
46714018,00000102,false,Rx,0,8,01,84,01,00,00,01,00,00,
46735671,00000528,false,Rx,0,6,07,0C,1D,07,00,00,00,00,
46813519,00000100,false,Rx,0,8,00,00,00,00,8E,01,C8,00,
46813766,00000101,false,Rx,0,8,00,FF,FE,00,00,00,00,00,
46814011,00000102,false,Rx,0,8,01,84,01,00,00,01,00,00,
46866430,00000524,false,Rx,0,6,03,0F,ED,FF,FF,FF,00,00,
46882860,00000526,false,Rx,0,6,05,01,04,00,00,00,00,00,
46896610,00000523,false,Rx,0,6,02,02,EF,FF,FF,FF,00,00,
46913513,00000100,false,Rx,0,8,00,00,00,00,8E,01,C8,00,
46913769,00000101,false,Rx,0,8,00,FF,FE,00,00,00,00,00,
46914014,00000102,false,Rx,0,8,01,84,01,00,00,01,00,00,
46969087,00000522,false,Rx,0,6,01,08,8B,B5,05,00,00,00,
47013517,00000100,false,Rx,0,8,00,00,00,00,8E,01,C8,00,
47013768,00000101,false,Rx,0,8,00,FF,FE,00,00,00,00,00,
47014014,00000102,false,Rx,0,8,01,84,01,00,00,01,00,00,
47041562,00000525,false,Rx,0,6,04,0F,C4,00,00,00,00,00,
47050584,00000521,false,Rx,0,6,00,01,08,00,00,00,00,00,
47113515,00000100,false,Rx,0,8,00,00,00,00,8E,01,C8,00,
47113763,00000101,false,Rx,0,8,00,FF,FE,00,00,00,00,00,
47114008,00000102,false,Rx,0,8,01,84,01,00,00,01,00,00,
47213511,00000100,false,Rx,0,8,00,00,00,00,8E,01,C8,00,
47213759,00000101,false,Rx,0,8,00,FF,FE,00,00,00,00,00,
47214005,00000102,false,Rx,0,8,01,84,01,00,00,01,00,00,
47218731,00000527,false,Rx,0,6,06,06,F0,45,00,00,00,00,
47313511,00000100,false,Rx,0,8,00,00,00,00,8E,01,C8,00,
47313770,00000101,false,Rx,0,8,00,FF,FE,00,00,00,00,00,
47314005,00000102,false,Rx,0,8,01,84,01,00,00,01,00,00,
47413510,00000100,false,Rx,0,8,00,00,00,00,8E,01,C8,00,
47413757,00000101,false,Rx,0,8,00,FF,FE,00,00,00,00,00,
47414000,00000102,false,Rx,0,8,01,84,01,00,00,01,00,00,
47474359,00000528,false,Rx,0,6,07,0D,1D,07,00,00,00,00,
47513502,00000100,false,Rx,0,8,00,00,00,00,8E,01,C8,00,
47513756,00000101,false,Rx,0,8,00,FF,FE,00,00,00,00,00,
47514001,00000102,false,Rx,0,8,01,84,01,00,00,01,00,00,
47532672,00000524,false,Rx,0,6,03,00,EC,FF,FF,FF,00,00,
47544740,00000523,false,Rx,0,6,02,03,F0,FF,FF,FF,00,00,
47585284,00000526,false,Rx,0,6,05,02,03,00,00,00,00,00,
47599072,00000522,false,Rx,0,6,01,09,93,B5,05,00,00,00,
47613498,00000100,false,Rx,0,8,00,00,00,00,8E,01,C8,00,
47613752,00000101,false,Rx,0,8,00,FF,FE,00,00,00,00,00,
47614000,00000102,false,Rx,0,8,01,84,01,00,00,01,00,00,
47662487,00000521,false,Rx,0,6,00,02,09,00,00,00,00,00,
47713498,00000100,false,Rx,0,8,00,00,00,00,8E,01,C8,00,
47713752,00000101,false,Rx,0,8,00,FF,FE,00,00,00,00,00,
47713995,00000102,false,Rx,0,8,01,84,01,00,00,01,00,00,
47725918,00000525,false,Rx,0,6,04,00,C4,00,00,00,00,00,
47813495,00000100,false,Rx,0,8,00,00,00,00,8E,01,C8,00,
47813750,00000101,false,Rx,0,8,00,FF,FE,00,00,00,00,00,
47813992,00000102,false,Rx,0,8,01,84,01,00,00,01,00,00,
47913500,00000100,false,Rx,0,8,00,00,00,00,8E,01,C8,00,
47913748,00000101,false,Rx,0,8,00,FF,FE,00,00,00,00,00,
47914001,00000102,false,Rx,0,8,01,84,01,00,00,01,00,00,
47939312,00000527,false,Rx,0,6,06,07,F0,45,00,00,00,00,
48013497,00000100,false,Rx,0,8,00,00,00,00,8E,01,C8,00,
48013745,00000101,false,Rx,0,8,00,FF,FE,00,00,00,00,00,
48013991,00000102,false,Rx,0,8,01,84,01,00,00,01,00,00,
48113497,00000100,false,Rx,0,8,00,00,00,00,8E,01,C8,00,
48113744,00000101,false,Rx,0,8,00,FF,FE,00,00,00,00,00,
48113990,00000102,false,Rx,0,8,01,84,01,00,00,01,00,00,
48192858,00000523,false,Rx,0,6,02,04,F0,FF,FF,FF,00,00,
48198912,00000524,false,Rx,0,6,03,01,FD,FF,FF,FF,00,00,
48213281,00000528,false,Rx,0,6,07,0E,1D,07,00,00,00,00,
48213527,00000100,false,Rx,0,8,00,00,00,00,8E,01,C8,00,
48213781,00000101,false,Rx,0,8,00,FF,FE,00,00,00,00,00,
48214028,00000102,false,Rx,0,8,01,84,01,00,00,01,00,00,
48229084,00000522,false,Rx,0,6,01,0A,81,B5,05,00,00,00,
48274367,00000521,false,Rx,0,6,00,03,08,00,00,00,00,00,
48287781,00000526,false,Rx,0,6,05,03,04,00,00,00,00,00,
48313490,00000100,false,Rx,0,8,00,00,00,00,8E,01,C8,00,
48313737,00000101,false,Rx,0,8,00,FF,FE,00,00,00,00,00,
48313983,00000102,false,Rx,0,8,01,84,01,00,00,01,00,00,
48410264,00000525,false,Rx,0,6,04,01,C4,00,00,00,00,00,
48413489,00000100,false,Rx,0,8,00,00,00,00,8E,01,C8,00,
48413737,00000101,false,Rx,0,8,00,FF,FE,00,00,00,00,00,
48413983,00000102,false,Rx,0,8,01,84,01,00,00,01,00,00,
48513486,00000100,false,Rx,0,8,00,00,00,00,8E,01,C8,00,
48513733,00000101,false,Rx,0,8,00,FF,FE,00,00,00,00,00,
48513979,00000102,false,Rx,0,8,01,84,01,00,00,01,00,00,
48613486,00000100,false,Rx,0,8,00,00,00,00,8E,01,C8,00,
48613733,00000101,false,Rx,0,8,00,FF,FE,00,00,00,00,00,
48613979,00000102,false,Rx,0,8,01,84,01,00,00,01,00,00,
48660382,00000527,false,Rx,0,6,06,08,F0,45,00,00,00,00,
48713489,00000100,false,Rx,0,8,00,00,00,00,8E,01,C8,00,
48713730,00000101,false,Rx,0,8,00,FF,FE,00,00,00,00,00,
48713976,00000102,false,Rx,0,8,01,84,01,00,00,01,00,00,
48813478,00000100,false,Rx,0,8,00,00,00,00,8E,01,C8,00,
48813726,00000101,false,Rx,0,8,00,FF,FE,00,00,00,00,00,
48813972,00000102,false,Rx,0,8,01,84,01,00,00,01,00,00,
48841002,00000523,false,Rx,0,6,02,05,E5,FF,FF,FF,00,00,
48859084,00000522,false,Rx,0,6,01,0B,87,B5,05,00,00,00,
48865148,00000524,false,Rx,0,6,03,02,F4,FF,FF,FF,00,00,
48886260,00000521,false,Rx,0,6,00,04,04,00,00,00,00,00,
48913474,00000100,false,Rx,0,8,00,00,00,00,8E,01,C8,00,
48913727,00000101,false,Rx,0,8,00,FF,FE,00,00,00,00,00,
48913973,00000102,false,Rx,0,8,01,84,01,00,00,01,00,00,
48951752,00000528,false,Rx,0,6,07,0F,1D,07,00,00,00,00,
48990069,00000526,false,Rx,0,6,05,04,0A,00,00,00,00,00,
49013477,00000100,false,Rx,0,8,00,00,00,00,8E,01,C8,00,
49013719,00000101,false,Rx,0,8,00,FF,FE,00,00,00,00,00,
49013967,00000102,false,Rx,0,8,01,84,01,00,00,01,00,00,
49094607,00000525,false,Rx,0,6,04,02,C4,00,00,00,00,00,
49113474,00000100,false,Rx,0,8,00,00,00,00,8E,01,C8,00,
49113721,00000101,false,Rx,0,8,00,FF,FE,00,00,00,00,00,
49113967,00000102,false,Rx,0,8,01,84,01,00,00,01,00,00,
49213468,00000100,false,Rx,0,8,00,00,00,00,8E,01,C8,00,
49213715,00000101,false,Rx,0,8,00,FF,FE,00,00,00,00,00,
49213964,00000102,false,Rx,0,8,01,84,01,00,00,01,00,00,
49313470,00000100,false,Rx,0,8,00,00,00,00,8E,01,C8,00,
49313717,00000101,false,Rx,0,8,00,FF,FE,00,00,00,00,00,
49313959,00000102,false,Rx,0,8,01,84,01,00,00,01,00,00,
49380730,00000527,false,Rx,0,6,06,09,F0,45,00,00,00,00,
49413469,00000100,false,Rx,0,8,00,00,00,00,8E,01,C8,00,
49413716,00000101,false,Rx,0,8,00,FF,FE,00,00,00,00,00,
49413962,00000102,false,Rx,0,8,01,84,01,00,00,01,00,00,
49489115,00000522,false,Rx,0,6,01,0C,82,B5,05,00,00,00,
49489336,00000523,false,Rx,0,6,02,06,E6,FF,FF,FF,00,00,
49498127,00000521,false,Rx,0,6,00,05,0D,00,00,00,00,00,
49513462,00000100,false,Rx,0,8,00,00,00,00,8E,01,C8,00,
49513709,00000101,false,Rx,0,8,00,FF,FE,00,00,00,00,00,
49513960,00000102,false,Rx,0,8,01,84,01,00,00,01,00,00,
49531368,00000524,false,Rx,0,6,03,03,EF,FF,FF,FF,00,00,
49613460,00000100,false,Rx,0,8,00,00,00,00,8E,01,C8,00,
49613709,00000101,false,Rx,0,8,00,FF,FE,00,00,00,00,00,
49613957,00000102,false,Rx,0,8,01,84,01,00,00,01,00,00,
49690448,00000528,false,Rx,0,6,07,00,1D,07,00,00,00,00,
49692696,00000526,false,Rx,0,6,05,05,FE,FF,FF,FF,00,00,
49713458,00000100,false,Rx,0,8,00,00,00,00,8E,01,C8,00,
49713706,00000101,false,Rx,0,8,00,FF,FE,00,00,00,00,00,
49713971,00000102,false,Rx,0,8,01,84,01,00,00,01,00,00,
49778949,00000525,false,Rx,0,6,04,03,C4,00,00,00,00,00,
49813454,00000100,false,Rx,0,8,00,00,00,00,8E,01,C8,00,
49813709,00000101,false,Rx,0,8,00,FF,FE,00,00,00,00,00,
49813955,00000102,false,Rx,0,8,01,84,01,00,00,01,00,00,
49913457,00000100,false,Rx,0,8,00,00,00,00,8E,01,C8,00,
49913705,00000101,false,Rx,0,8,00,FF,FE,00,00,00,00,00,
49913951,00000102,false,Rx,0,8,01,84,01,00,00,01,00,00,
50013453,00000100,false,Rx,0,8,00,00,00,00,8E,01,C8,00,
50013725,00000101,false,Rx,0,8,00,FF,FE,00,00,00,00,00,
50013955,00000102,false,Rx,0,8,01,84,01,00,00,01,00,00,
50101043,00000527,false,Rx,0,6,06,0A,F0,45,00,00,00,00,
50110333,00000521,false,Rx,0,6,00,06,0A,00,00,00,00,00,
50113452,00000100,false,Rx,0,8,00,00,00,00,8E,01,C8,00,
50113699,00000101,false,Rx,0,8,00,FF,FE,00,00,00,00,00,
50113945,00000102,false,Rx,0,8,01,84,01,00,00,01,00,00,
50119081,00000522,false,Rx,0,6,01,0D,83,B5,05,00,00,00,
50137214,00000523,false,Rx,0,6,02,07,E6,FF,FF,FF,00,00,
50197597,00000524,false,Rx,0,6,03,04,FC,FF,FF,FF,00,00,
50213448,00000100,false,Rx,0,8,00,00,00,00,8E,01,C8,00,
50213698,00000101,false,Rx,0,8,00,FF,FE,00,00,00,00,00,
50213944,00000102,false,Rx,0,8,01,84,01,00,00,01,00,00,
50313448,00000100,false,Rx,0,8,00,00,00,00,8E,01,C8,00,
50313696,00000101,false,Rx,0,8,00,FF,FE,00,00,00,00,00,
50313941,00000102,false,Rx,0,8,01,84,01,00,00,01,00,00,
50395177,00000526,false,Rx,0,6,05,06,01,00,00,00,00,00,
50413442,00000100,false,Rx,0,8,00,00,00,00,8E,01,C8,00,
50413692,00000101,false,Rx,0,8,00,FF,FE,00,00,00,00,00,
50413938,00000102,false,Rx,0,8,01,84,01,00,00,01,00,00,
50429392,00000528,false,Rx,0,6,07,01,1D,07,00,00,00,00,
50463301,00000525,false,Rx,0,6,04,04,C4,00,00,00,00,00,
50513446,00000100,false,Rx,0,8,00,00,00,00,8E,01,C8,00,
50513693,00000101,false,Rx,0,8,00,FF,FE,00,00,00,00,00,
50513936,00000102,false,Rx,0,8,01,84,01,00,00,01,00,00,
50613444,00000100,false,Rx,0,8,00,00,00,00,8E,01,C8,00,
50613698,00000101,false,Rx,0,8,00,FF,FE,00,00,00,00,00,
50613934,00000102,false,Rx,0,8,01,84,01,00,00,01,00,00,
50713437,00000100,false,Rx,0,8,00,00,00,00,8E,01,C8,00,
50713691,00000101,false,Rx,0,8,00,FF,FE,00,00,00,00,00,
50713933,00000102,false,Rx,0,8,01,84,01,00,00,01,00,00,
50721912,00000521,false,Rx,0,6,00,07,08,00,00,00,00,00,
50749078,00000522,false,Rx,0,6,01,0E,8B,B5,05,00,00,00,
50785325,00000523,false,Rx,0,6,02,08,EE,FF,FF,FF,00,00,
50813433,00000100,false,Rx,0,8,00,00,00,00,8E,01,C8,00,
50813694,00000101,false,Rx,0,8,00,FF,FE,00,00,00,00,00,
50813933,00000102,false,Rx,0,8,01,84,01,00,00,01,00,00,
50821837,00000527,false,Rx,0,6,06,0B,F0,45,00,00,00,00,
50863828,00000524,false,Rx,0,6,03,05,ED,FF,FF,FF,00,00,
50913431,00000100,false,Rx,0,8,00,00,00,00,8E,01,C8,00,
50913692,00000101,false,Rx,0,8,00,FF,FE,00,00,00,00,00,
50913928,00000102,false,Rx,0,8,01,84,01,00,00,01,00,00,
51013430,00000100,false,Rx,0,8,00,00,00,00,8E,01,C8,00,
51013682,00000101,false,Rx,0,8,00,FF,FE,00,00,00,00,00,
51013938,00000102,false,Rx,0,8,01,84,01,00,00,01,00,00,
51097628,00000526,false,Rx,0,6,05,07,00,00,00,00,00,00,
51113430,00000100,false,Rx,0,8,00,00,00,00,8E,01,C8,00,
51113675,00000101,false,Rx,0,8,00,FF,FE,00,00,00,00,00,
51113936,00000102,false,Rx,0,8,01,84,01,00,00,01,00,00,
51147633,00000525,false,Rx,0,6,04,05,C4,00,00,00,00,00,
51168080,00000528,false,Rx,0,6,07,02,1D,07,00,00,00,00,
51213423,00000100,false,Rx,0,8,00,00,00,00,8E,01,C8,00,
51213677,00000101,false,Rx,0,8,00,FF,FE,00,00,00,00,00,
51213930,00000102,false,Rx,0,8,01,84,01,00,00,01,00,00,
51313422,00000100,false,Rx,0,8,00,00,00,00,8E,01,C8,00,
51313677,00000101,false,Rx,0,8,00,FF,FE,00,00,00,00,00,
51313923,00000102,false,Rx,0,8,01,84,01,00,00,01,00,00,
51333777,00000521,false,Rx,0,6,00,08,08,00,00,00,00,00,
51379072,00000522,false,Rx,0,6,01,0F,87,B5,05,00,00,00,
51413423,00000100,false,Rx,0,8,00,00,00,00,8E,01,C8,00,
51413678,00000101,false,Rx,0,8,00,FF,FE,00,00,00,00,00,
51413917,00000102,false,Rx,0,8,01,84,01,00,00,01,00,00,
51433423,00000523,false,Rx,0,6,02,09,F3,FF,FF,FF,00,00,
51513421,00000100,false,Rx,0,8,00,00,00,00,8E,01,C8,00,
51513681,00000101,false,Rx,0,8,00,FF,FE,00,00,00,00,00,
51513914,00000102,false,Rx,0,8,01,84,01,00,00,01,00,00,
51530051,00000524,false,Rx,0,6,03,06,FC,FF,FF,FF,00,00,
51542178,00000527,false,Rx,0,6,06,0C,F0,45,00,00,00,00,
51613418,00000100,false,Rx,0,8,00,00,00,00,8E,01,C8,00,
51613678,00000101,false,Rx,0,8,00,FF,FE,00,00,00,00,00,
51613911,00000102,false,Rx,0,8,01,84,01,00,00,01,00,00,
51713417,00000100,false,Rx,0,8,00,00,00,00,8E,01,C8,00,
51713670,00000101,false,Rx,0,8,00,FF,FE,00,00,00,00,00,
51713910,00000102,false,Rx,0,8,01,84,01,00,00,01,00,00,
51799789,00000526,false,Rx,0,6,05,08,00,00,00,00,00,00,
51813417,00000100,false,Rx,0,8,00,00,00,00,8E,01,C8,00,
51813675,00000101,false,Rx,0,8,00,FF,FE,00,00,00,00,00,
51813908,00000102,false,Rx,0,8,01,84,01,00,00,01,00,00,
51831966,00000525,false,Rx,0,6,04,06,C4,00,00,00,00,00,
51906487,00000528,false,Rx,0,6,07,03,1D,07,00,00,00,00,
51913412,00000100,false,Rx,0,8,00,00,00,00,8E,01,C8,00,
51913668,00000101,false,Rx,0,8,00,FF,FE,00,00,00,00,00,
51913908,00000102,false,Rx,0,8,01,84,01,00,00,01,00,00,
51945659,00000521,false,Rx,0,6,00,09,05,00,00,00,00,00,
52009056,00000522,false,Rx,0,6,01,00,8F,B5,05,00,00,00,
52013410,00000100,false,Rx,0,8,00,00,00,00,8E,01,C8,00,
52013659,00000101,false,Rx,0,8,00,FF,FE,00,00,00,00,00,
52013906,00000102,false,Rx,0,8,01,84,01,00,00,01,00,00,
52081535,00000523,false,Rx,0,6,02,0A,F3,FF,FF,FF,00,00,
52113411,00000100,false,Rx,0,8,00,00,00,00,8E,01,C8,00,
52113657,00000101,false,Rx,0,8,00,FF,FE,00,00,00,00,00,
52113904,00000102,false,Rx,0,8,01,84,01,00,00,01,00,00,
52196270,00000524,false,Rx,0,6,03,07,02,00,00,00,00,00,
52213405,00000100,false,Rx,0,8,00,00,00,00,8E,01,C8,00,
52213657,00000101,false,Rx,0,8,00,FF,FE,00,00,00,00,00,
52213905,00000102,false,Rx,0,8,01,84,01,00,00,01,00,00,
52262740,00000527,false,Rx,0,6,06,0D,F0,45,00,00,00,00,
52313407,00000100,false,Rx,0,8,00,00,00,00,8E,01,C8,00,
52313653,00000101,false,Rx,0,8,00,FF,FE,00,00,00,00,00,
52313903,00000102,false,Rx,0,8,01,84,01,00,00,01,00,00,
52413401,00000100,false,Rx,0,8,00,00,00,00,8E,01,C8,00,
52413654,00000101,false,Rx,0,8,00,FF,FE,00,00,00,00,00,
52413897,00000102,false,Rx,0,8,01,84,01,00,00,01,00,00,
52502508,00000526,false,Rx,0,6,05,09,02,00,00,00,00,00,
52513399,00000100,false,Rx,0,8,00,00,00,00,8E,01,C8,00,
52513651,00000101,false,Rx,0,8,00,FF,FE,00,00,00,00,00,
52513899,00000102,false,Rx,0,8,01,84,01,00,00,01,00,00,
52516306,00000525,false,Rx,0,6,04,07,C4,00,00,00,00,00,
52557522,00000521,false,Rx,0,6,00,0A,01,00,00,00,00,00,
52613398,00000100,false,Rx,0,8,00,00,00,00,8E,01,C8,00,
52613645,00000101,false,Rx,0,8,00,FF,FE,00,00,00,00,00,
52613895,00000102,false,Rx,0,8,01,84,01,00,00,01,00,00,
52639051,00000522,false,Rx,0,6,01,01,8E,B5,05,00,00,00,
52645668,00000528,false,Rx,0,6,07,04,1D,07,00,00,00,00,
52713399,00000100,false,Rx,0,8,00,00,00,00,8E,01,C8,00,
52713646,00000101,false,Rx,0,8,00,FF,FE,00,00,00,00,00,
52713908,00000102,false,Rx,0,8,01,84,01,00,00,01,00,00,
52729637,00000523,false,Rx,0,6,02,0B,EB,FF,FF,FF,00,00,
52813395,00000100,false,Rx,0,8,00,00,00,00,8E,01,C8,00,
52813641,00000101,false,Rx,0,8,00,FF,FE,00,00,00,00,00,
52813890,00000102,false,Rx,0,8,01,84,01,00,00,01,00,00,
52862486,00000524,false,Rx,0,6,03,08,F2,FF,FF,FF,00,00,
52913393,00000100,false,Rx,0,8,00,00,00,00,8E,01,C8,00,
52913639,00000101,false,Rx,0,8,00,FF,FE,00,00,00,00,00,
52913886,00000102,false,Rx,0,8,01,84,01,00,00,01,00,00,
52983534,00000527,false,Rx,0,6,06,0E,F0,45,00,00,00,00,
53013387,00000100,false,Rx,0,8,00,00,00,00,8E,01,C8,00,
53013640,00000101,false,Rx,0,8,00,FF,FE,00,00,00,00,00,
53013887,00000102,false,Rx,0,8,01,84,01,00,00,01,00,00,
53113388,00000100,false,Rx,0,8,00,00,00,00,8E,01,C8,00,
53113634,00000101,false,Rx,0,8,00,FF,FE,00,00,00,00,00,
53113881,00000102,false,Rx,0,8,01,84,01,00,00,01,00,00,
53169424,00000521,false,Rx,0,6,00,0B,01,00,00,00,00,00,
53200653,00000525,false,Rx,0,6,04,08,C4,00,00,00,00,00,
53204805,00000526,false,Rx,0,6,05,0A,04,00,00,00,00,00,
53213385,00000100,false,Rx,0,8,00,00,00,00,8E,01,C8,00,
53213632,00000101,false,Rx,0,8,00,FF,FE,00,00,00,00,00,
53213879,00000102,false,Rx,0,8,01,84,01,00,00,01,00,00,
53269054,00000522,false,Rx,0,6,01,02,93,B5,05,00,00,00,
53313380,00000100,false,Rx,0,8,00,00,00,00,8E,01,C8,00,
53313634,00000101,false,Rx,0,8,00,FF,FE,00,00,00,00,00,
53313881,00000102,false,Rx,0,8,01,84,01,00,00,01,00,00,
53377765,00000523,false,Rx,0,6,02,0C,F4,FF,FF,FF,00,00,
53383869,00000528,false,Rx,0,6,07,05,1D,07,00,00,00,00,
53413380,00000100,false,Rx,0,8,00,00,00,00,8E,01,C8,00,
53413633,00000101,false,Rx,0,8,00,FF,FE,00,00,00,00,00,
53413875,00000102,false,Rx,0,8,01,84,01,00,00,01,00,00,
53513379,00000100,false,Rx,0,8,00,00,00,00,8E,01,C8,00,
53513626,00000101,false,Rx,0,8,00,FF,FE,00,00,00,00,00,
53513875,00000102,false,Rx,0,8,01,84,01,00,00,01,00,00,
53528732,00000524,false,Rx,0,6,03,09,F3,FF,FF,FF,00,00,
53613380,00000100,false,Rx,0,8,00,00,00,00,8E,01,C8,00,
53613628,00000101,false,Rx,0,8,00,FF,FE,00,00,00,00,00,
53613876,00000102,false,Rx,0,8,01,84,01,00,00,01,00,00,
53703899,00000527,false,Rx,0,6,06,0F,F0,45,00,00,00,00,
53713374,00000100,false,Rx,0,8,00,00,00,00,8E,01,C8,00,
53713622,00000101,false,Rx,0,8,00,FF,FE,00,00,00,00,00,
53713870,00000102,false,Rx,0,8,01,84,01,00,00,01,00,00,
53781328,00000521,false,Rx,0,6,00,0C,0A,00,00,00,00,00,
53813375,00000100,false,Rx,0,8,00,00,00,00,8E,01,C8,00,
53813624,00000101,false,Rx,0,8,00,FF,FE,00,00,00,00,00,
53813872,00000102,false,Rx,0,8,01,84,01,00,00,01,00,00,
53884998,00000525,false,Rx,0,6,04,09,C4,00,00,00,00,00,
53899064,00000522,false,Rx,0,6,01,03,90,B5,05,00,00,00,
53907196,00000526,false,Rx,0,6,05,0B,07,00,00,00,00,00,
53913372,00000100,false,Rx,0,8,00,00,00,00,8E,01,C8,00,
53913620,00000101,false,Rx,0,8,00,FF,FE,00,00,00,00,00,
53913868,00000102,false,Rx,0,8,01,84,01,00,00,01,00,00,
54013372,00000100,false,Rx,0,8,00,00,00,00,8E,01,C8,00,
54013620,00000101,false,Rx,0,8,00,FF,FE,00,00,00,00,00,
54013866,00000102,false,Rx,0,8,01,84,01,00,00,01,00,00,
54025870,00000523,false,Rx,0,6,02,0D,F4,FF,FF,FF,00,00,
54113366,00000100,false,Rx,0,8,00,00,00,00,8E,01,C8,00,
54113631,00000101,false,Rx,0,8,00,FF,FE,00,00,00,00,00,
54113860,00000102,false,Rx,0,8,01,84,01,00,00,01,00,00,
54122563,00000528,false,Rx,0,6,07,06,1D,07,00,00,00,00,
54194955,00000524,false,Rx,0,6,03,0A,E2,FF,FF,FF,00,00,
54213364,00000100,false,Rx,0,8,00,00,00,00,8E,01,C8,00,
54213617,00000101,false,Rx,0,8,00,FF,FE,00,00,00,00,00,
54213863,00000102,false,Rx,0,8,01,84,01,00,00,01,00,00,
54313360,00000100,false,Rx,0,8,00,00,00,00,8E,01,C8,00,
54313614,00000101,false,Rx,0,8,00,FF,FE,00,00,00,00,00,
54313858,00000102,false,Rx,0,8,01,84,01,00,00,01,00,00,
54393208,00000521,false,Rx,0,6,00,0D,06,00,00,00,00,00,
54413362,00000100,false,Rx,0,8,00,00,00,00,8E,01,C8,00,
54413608,00000101,false,Rx,0,8,00,FF,FE,00,00,00,00,00,
54413854,00000102,false,Rx,0,8,01,84,01,00,00,01,00,00,
54424490,00000527,false,Rx,0,6,06,00,F0,45,00,00,00,00,
54513360,00000100,false,Rx,0,8,00,00,00,00,8E,01,C8,00,
54513607,00000101,false,Rx,0,8,00,FF,FE,00,00,00,00,00,
54513858,00000102,false,Rx,0,8,01,84,01,00,00,01,00,00,
54529066,00000522,false,Rx,0,6,01,04,8E,B5,05,00,00,00,
54569356,00000525,false,Rx,0,6,04,0A,C4,00,00,00,00,00,
54609930,00000526,false,Rx,0,6,05,0C,02,00,00,00,00,00,
54613357,00000100,false,Rx,0,8,00,00,00,00,8E,01,C8,00,
54613604,00000101,false,Rx,0,8,00,FF,FE,00,00,00,00,00,
54613854,00000102,false,Rx,0,8,01,84,01,00,00,01,00,00,
54674016,00000523,false,Rx,0,6,02,0E,E5,FF,FF,FF,00,00,
54713356,00000100,false,Rx,0,8,00,00,00,00,8E,01,C8,00,
54713603,00000101,false,Rx,0,8,00,FF,FE,00,00,00,00,00,
54713867,00000102,false,Rx,0,8,01,84,01,00,00,01,00,00,
54813349,00000100,false,Rx,0,8,00,00,00,00,8E,01,C8,00,
54813602,00000101,false,Rx,0,8,00,FF,FE,00,00,00,00,00,
54813849,00000102,false,Rx,0,8,01,84,01,00,00,01,00,00,
54861541,00000524,false,Rx,0,6,03,0B,F2,FF,FF,FF,00,00,
54861762,00000528,false,Rx,0,6,07,07,1D,07,00,00,00,00,
54913347,00000100,false,Rx,0,8,00,00,00,00,8E,01,C8,00,
54913599,00000101,false,Rx,0,8,00,FF,FE,00,00,00,00,00,
54913846,00000102,false,Rx,0,8,01,84,01,00,00,01,00,00,
55005101,00000521,false,Rx,0,6,00,0E,09,00,00,00,00,00,
55013347,00000100,false,Rx,0,8,00,00,00,00,8E,01,C8,00,
55013600,00000101,false,Rx,0,8,00,FF,FE,00,00,00,00,00,
55013841,00000102,false,Rx,0,8,01,84,01,00,00,01,00,00,
55113346,00000100,false,Rx,0,8,00,00,00,00,8E,01,C8,00,
55113592,00000101,false,Rx,0,8,00,FF,FE,00,00,00,00,00,
55113839,00000102,false,Rx,0,8,01,84,01,00,00,01,00,00,
55145060,00000527,false,Rx,0,6,06,01,F0,45,00,00,00,00,
55159079,00000522,false,Rx,0,6,01,05,98,B5,05,00,00,00,
55213344,00000100,false,Rx,0,8,00,00,00,00,8E,01,C8,00,
55213590,00000101,false,Rx,0,8,00,FF,FE,00,00,00,00,00,
55213837,00000102,false,Rx,0,8,01,84,01,00,00,01,00,00,
55253699,00000525,false,Rx,0,6,04,0B,C4,00,00,00,00,00,
55312389,00000526,false,Rx,0,6,05,0D,00,00,00,00,00,00,
55313340,00000100,false,Rx,0,8,00,00,00,00,8E,01,C8,00,
55313593,00000101,false,Rx,0,8,00,FF,FE,00,00,00,00,00,
55313840,00000102,false,Rx,0,8,01,84,01,00,00,01,00,00,
55322118,00000523,false,Rx,0,6,02,0F,F0,FF,FF,FF,00,00,
55413336,00000100,false,Rx,0,8,00,00,00,00,8E,01,C8,00,
55413589,00000101,false,Rx,0,8,00,FF,FE,00,00,00,00,00,
55413837,00000102,false,Rx,0,8,01,84,01,00,00,01,00,00,
55513337,00000100,false,Rx,0,8,00,00,00,00,8E,01,C8,00,
55513584,00000101,false,Rx,0,8,00,FF,FE,00,00,00,00,00,
55513831,00000102,false,Rx,0,8,01,84,01,00,00,01,00,00,
55527423,00000524,false,Rx,0,6,03,0C,F1,FF,FF,FF,00,00,
55599948,00000528,false,Rx,0,6,07,08,1D,07,00,00,00,00,
55613335,00000100,false,Rx,0,8,00,00,00,00,8E,01,C8,00,
55613585,00000101,false,Rx,0,8,00,FF,FE,00,00,00,00,00,
55613832,00000102,false,Rx,0,8,01,84,01,00,00,01,00,00,
55616975,00000521,false,Rx,0,6,00,0F,00,00,00,00,00,00,
55713331,00000100,false,Rx,0,8,00,00,00,00,8E,01,C8,00,
55713584,00000101,false,Rx,0,8,00,FF,FE,00,00,00,00,00,
55713826,00000102,false,Rx,0,8,01,84,01,00,00,01,00,00,
55789060,00000522,false,Rx,0,6,01,06,A2,B5,05,00,00,00,
