Time Stamp,ID,Extended,Dir,Bus,LEN,D1,D2,D3,D4,D5,D6,D7,D8
4858169,00000102,false,Rx,0,8,01,90,01,00,00,01,00,00,
4927997,00000528,false,Rx,0,6,07,0D,03,26,00,00,00,00,
4938010,00000523,false,Rx,0,6,02,0C,E3,FF,FF,FF,00,00,
4948097,00000521,false,Rx,0,6,00,09,F7,FF,FF,FF,00,00,
4957667,00000100,false,Rx,0,8,00,00,00,00,9A,01,C8,00,
4957919,00000101,false,Rx,0,8,00,FF,FE,00,00,00,00,00,
4958170,00000102,false,Rx,0,8,01,90,01,00,00,01,00,00,
5057666,00000100,false,Rx,0,8,00,00,00,00,9A,01,C8,00,
5057912,00000101,false,Rx,0,8,00,FF,FE,00,00,00,00,00,
5058186,00000102,false,Rx,0,8,01,90,01,00,00,01,00,00,
5087414,00000527,false,Rx,0,6,06,0B,B8,73,01,00,00,00,
5157667,00000100,false,Rx,0,8,00,00,00,00,9A,01,C8,00,
5157912,00000101,false,Rx,0,8,00,FF,FE,00,00,00,00,00,
5158166,00000102,false,Rx,0,8,01,90,01,00,00,01,00,00,
5257664,00000100,false,Rx,0,8,00,00,00,00,9A,01,C8,00,
5257910,00000101,false,Rx,0,8,00,FF,FE,00,00,00,00,00,
5258171,00000102,false,Rx,0,8,01,90,01,00,00,01,00,00,
5285415,00000525,false,Rx,0,6,04,05,65,00,00,00,00,00,
5317721,00000522,false,Rx,0,6,01,04,F6,AD,05,00,00,00,
5357659,00000100,false,Rx,0,8,00,00,00,00,9A,01,C8,00,
5357911,00000101,false,Rx,0,8,00,FF,FE,00,00,00,00,00,
5358165,00000102,false,Rx,0,8,01,90,01,00,00,01,00,00,
5363859,00000524,false,Rx,0,6,03,02,F3,FF,FF,FF,00,00,
5388216,00000526,false,Rx,0,6,05,03,04,00,00,00,00,00,
5457655,00000100,false,Rx,0,8,00,00,00,00,9A,01,C8,00,
5457908,00000101,false,Rx,0,8,00,FF,FE,00,00,00,00,00,
5458153,00000102,false,Rx,0,8,01,90,01,00,00,01,00,00,
5557667,00000100,false,Rx,0,8,00,00,00,00,9A,01,C8,00,
5557907,00000101,false,Rx,0,8,00,FF,FE,00,00,00,00,00,
5558153,00000102,false,Rx,0,8,01,90,01,00,00,01,00,00,
5561632,00000521,false,Rx,0,6,00,0A,F7,FF,FF,FF,00,00,
5587876,00000523,false,Rx,0,6,02,0D,E3,FF,FF,FF,00,00,
5657651,00000100,false,Rx,0,8,00,00,00,00,9A,01,C8,00,
5657904,00000101,false,Rx,0,8,00,FF,FE,00,00,00,00,00,
5658151,00000102,false,Rx,0,8,01,90,01,00,00,01,00,00,
5668667,00000528,false,Rx,0,6,07,0E,03,26,00,00,00,00,
5757649,00000100,false,Rx,0,8,00,00,00,00,9A,01,C8,00,
5757902,00000101,false,Rx,0,8,00,FF,FE,00,00,00,00,00,
5758149,00000102,false,Rx,0,8,01,90,01,00,00,01,00,00,
5809925,00000527,false,Rx,0,6,06,0C,B8,73,01,00,00,00,
5857652,00000100,false,Rx,0,8,00,00,00,00,9A,01,C8,00,
5857901,00000101,false,Rx,0,8,00,FF,FE,00,00,00,00,00,
5858155,00000102,false,Rx,0,8,01,90,01,00,00,01,00,00,
5949104,00000522,false,Rx,0,6,01,05,0F,AE,05,00,00,00,
5957648,00000100,false,Rx,0,8,00,00,00,00,9A,01,C8,00,
5957896,00000101,false,Rx,0,8,00,FF,FE,00,00,00,00,00,
5958149,00000102,false,Rx,0,8,01,90,01,00,00,01,00,00,
5971338,00000525,false,Rx,0,6,04,06,65,00,00,00,00,00,
6031868,00000524,false,Rx,0,6,03,03,F6,FF,FF,FF,00,00,
6057646,00000100,false,Rx,0,8,00,00,00,00,9A,01,C8,00,
6057906,00000101,false,Rx,0,8,00,FF,FE,00,00,00,00,00,
6058148,00000102,false,Rx,0,8,01,90,01,00,00,01,00,00,
6092740,00000526,false,Rx,0,6,05,04,09,00,00,00,00,00,
6157644,00000100,false,Rx,0,8,00,00,00,00,9A,01,C8,00,
6157896,00000101,false,Rx,0,8,00,FF,FE,00,00,00,00,00,
6158146,00000102,false,Rx,0,8,01,90,01,00,00,01,00,00,
6175153,00000521,false,Rx,0,6,00,0B,F7,FF,FF,FF,00,00,
6237711,00000523,false,Rx,0,6,02,0E,F5,FF,FF,FF,00,00,
6257640,00000100,false,Rx,0,8,00,00,00,00,9A,01,C8,00,
6257892,00000101,false,Rx,0,8,00,FF,FE,00,00,00,00,00,
6258146,00000102,false,Rx,0,8,01,90,01,00,00,01,00,00,
6357639,00000100,false,Rx,0,8,00,00,00,00,9A,01,C8,00,
6357892,00000101,false,Rx,0,8,00,FF,FE,00,00,00,00,00,
6358142,00000102,false,Rx,0,8,01,90,01,00,00,01,00,00,
6409327,00000528,false,Rx,0,6,07,0F,03,26,00,00,00,00,
6457640,00000100,false,Rx,0,8,00,00,00,00,9A,01,C8,00,
6457885,00000101,false,Rx,0,8,00,FF,FE,00,00,00,00,00,
6458146,00000102,false,Rx,0,8,01,90,01,00,00,01,00,00,
6532414,00000527,false,Rx,0,6,06,0D,B8,73,01,00,00,00,
6557633,00000100,false,Rx,0,8,00,00,00,00,9A,01,C8,00,
6557886,00000101,false,Rx,0,8,00,FF,FE,00,00,00,00,00,
6558132,00000102,false,Rx,0,8,01,90,01,00,00,01,00,00,
6580792,00000522,false,Rx,0,6,01,06,0C,AE,05,00,00,00,
6657508,00000525,false,Rx,0,6,04,07,65,00,00,00,00,00,
6657753,00000100,false,Rx,0,8,00,00,00,00,9A,01,C8,00,
6658006,00000101,false,Rx,0,8,00,FF,FE,00,00,00,00,00,
6658253,00000102,false,Rx,0,8,01,90,01,00,00,01,00,00,
6699874,00000524,false,Rx,0,6,03,04,EA,FF,FF,FF,00,00,
6757634,00000100,false,Rx,0,8,00,00,00,00,9A,01,C8,00,
6757879,00000101,false,Rx,0,8,00,FF,FE,00,00,00,00,00,
6758154,00000102,false,Rx,0,8,01,90,01,00,00,01,00,00,
6788662,00000521,false,Rx,0,6,00,0C,F7,FF,FF,FF,00,00,
6797078,00000526,false,Rx,0,6,05,05,05,00,00,00,00,00,
6857627,00000100,false,Rx,0,8,00,00,00,00,9A,01,C8,00,
6857878,00000101,false,Rx,0,8,00,FF,FE,00,00,00,00,00,
6858126,00000102,false,Rx,0,8,01,90,01,00,00,01,00,00,
6887559,00000523,false,Rx,0,6,02,0F,F9,FF,FF,FF,00,00,
6957628,00000100,false,Rx,0,8,00,00,00,00,9A,01,C8,00,
6957873,00000101,false,Rx,0,8,00,FF,FE,00,00,00,00,00,
6958126,00000102,false,Rx,0,8,01,90,01,00,00,01,00,00,
7057624,00000100,false,Rx,0,8,00,00,00,00,9A,01,C8,00,
7057876,00000101,false,Rx,0,8,00,FF,FE,00,00,00,00,00,
7058123,00000102,false,Rx,0,8,01,90,01,00,00,01,00,00,
7149995,00000528,false,Rx,0,6,07,00,03,26,00,00,00,00,
7157622,00000100,false,Rx,0,8,00,00,00,00,9A,01,C8,00,
7157874,00000101,false,Rx,0,8,00,FF,FE,00,00,00,00,00,
7158121,00000102,false,Rx,0,8,01,90,01,00,00,01,00,00,
7212474,00000522,false,Rx,0,6,01,07,02,AE,05,00,00,00,
7255239,00000527,false,Rx,0,6,06,0E,B8,73,01,00,00,00,
7257622,00000100,false,Rx,0,8,00,00,00,00,9A,01,C8,00,
7257867,00000101,false,Rx,0,8,00,FF,FE,00,00,00,00,00,
7258121,00000102,false,Rx,0,8,01,90,01,00,00,01,00,00,
7343937,00000525,false,Rx,0,6,04,08,65,00,00,00,00,00,
7357622,00000100,false,Rx,0,8,00,00,00,00,9A,01,C8,00,
7357867,00000101,false,Rx,0,8,00,FF,FE,00,00,00,00,00,
7358114,00000102,false,Rx,0,8,01,90,01,00,00,01,00,00,
7367899,00000524,false,Rx,0,6,03,05,EE,FF,FF,FF,00,00,
7402174,00000521,false,Rx,0,6,00,0D,F8,FF,FF,FF,00,00,
7457614,00000100,false,Rx,0,8,00,00,00,00,9A,01,C8,00,
7457866,00000101,false,Rx,0,8,00,FF,FE,00,00,00,00,00,
7458113,00000102,false,Rx,0,8,01,90,01,00,00,01,00,00,
7501384,00000526,false,Rx,0,6,05,06,06,00,00,00,00,00,
7537405,00000523,false,Rx,0,6,02,00,F9,FF,FF,FF,00,00,
7557616,00000100,false,Rx,0,8,00,00,00,00,9A,01,C8,00,
7557861,00000101,false,Rx,0,8,00,FF,FE,00,00,00,00,00,
7558115,00000102,false,Rx,0,8,01,90,01,00,00,01,00,00,
7657614,00000100,false,Rx,0,8,00,00,00,00,9A,01,C8,00,
7657860,00000101,false,Rx,0,8,00,FF,FE,00,00,00,00,00,
7658106,00000102,false,Rx,0,8,01,90,01,00,00,01,00,00,
7757609,00000100,false,Rx,0,8,00,00,00,00,9A,01,C8,00,
7757861,00000101,false,Rx,0,8,00,FF,FE,00,00,00,00,00,
7758107,00000102,false,Rx,0,8,01,90,01,00,00,01,00,00,
7844155,00000522,false,Rx,0,6,01,08,02,AE,05,00,00,00,
7857609,00000100,false,Rx,0,8,00,00,00,00,9A,01,C8,00,
7857859,00000101,false,Rx,0,8,00,FF,FE,00,00,00,00,00,
7858105,00000102,false,Rx,0,8,01,90,01,00,00,01,00,00,
7890818,00000528,false,Rx,0,6,07,01,03,26,00,00,00,00,
7957609,00000100,false,Rx,0,8,00,00,00,00,9A,01,C8,00,
7957854,00000101,false,Rx,0,8,00,FF,FE,00,00,00,00,00,
7958101,00000102,false,Rx,0,8,01,90,01,00,00,01,00,00,
7977413,00000527,false,Rx,0,6,06,0F,B8,73,01,00,00,00,
8015689,00000521,false,Rx,0,6,00,0E,F7,FF,FF,FF,00,00,
8029836,00000525,false,Rx,0,6,04,09,65,00,00,00,00,00,
8035889,00000524,false,Rx,0,6,03,06,EF,FF,FF,FF,00,00,
8057606,00000100,false,Rx,0,8,00,00,00,00,9A,01,C8,00,
8057853,00000101,false,Rx,0,8,00,FF,FE,00,00,00,00,00,
8058101,00000102,false,Rx,0,8,01,90,01,00,00,01,00,00,
8157603,00000100,false,Rx,0,8,00,00,00,00,9A,01,C8,00,
8157849,00000101,false,Rx,0,8,00,FF,FE,00,00,00,00,00,
8158102,00000102,false,Rx,0,8,01,90,01,00,00,01,00,00,
8187235,00000523,false,Rx,0,6,02,01,EA,FF,FF,FF,00,00,
8205546,00000526,false,Rx,0,6,05,07,FF,FF,FF,FF,00,00,
8257596,00000100,false,Rx,0,8,00,00,00,00,9A,01,C8,00,
8257849,00000101,false,Rx,0,8,00,FF,FE,00,00,00,00,00,
8258099,00000102,false,Rx,0,8,01,90,01,00,00,01,00,00,
8357599,00000100,false,Rx,0,8,00,00,00,00,9A,01,C8,00,
8357844,00000101,false,Rx,0,8,00,FF,FE,00,00,00,00,00,
8358095,00000102,false,Rx,0,8,01,90,01,00,00,01,00,00,
8457597,00000100,false,Rx,0,8,00,00,00,00,9A,01,C8,00,
8457843,00000101,false,Rx,0,8,00,FF,FE,00,00,00,00,00,
8458093,00000102,false,Rx,0,8,01,90,01,00,00,01,00,00,
8475824,00000522,false,Rx,0,6,01,09,F6,AD,05,00,00,00,
8557597,00000100,false,Rx,0,8,00,00,00,00,9A,01,C8,00,
8557842,00000101,false,Rx,0,8,00,FF,FE,00,00,00,00,00,
8558092,00000102,false,Rx,0,8,01,90,01,00,00,01,00,00,
8629204,00000521,false,Rx,0,6,00,0F,F8,FF,FF,FF,00,00,
8631309,00000528,false,Rx,0,6,07,02,03,26,00,00,00,00,
8657591,00000100,false,Rx,0,8,00,00,00,00,9A,01,C8,00,
8657843,00000101,false,Rx,0,8,00,FF,FE,00,00,00,00,00,
8658092,00000102,false,Rx,0,8,01,90,01,00,00,01,00,00,
8699904,00000527,false,Rx,0,6,06,00,B8,73,01,00,00,00,
8703898,00000524,false,Rx,0,6,03,07,F5,FF,FF,FF,00,00,
8716005,00000525,false,Rx,0,6,04,0A,65,00,00,00,00,00,
8757592,00000100,false,Rx,0,8,00,00,00,00,9A,01,C8,00,
8757837,00000101,false,Rx,0,8,00,FF,FE,00,00,00,00,00,
8758089,00000102,false,Rx,0,8,01,90,01,00,00,01,00,00,
8837077,00000523,false,Rx,0,6,02,02,EE,FF,FF,FF,00,00,
8857591,00000100,false,Rx,0,8,00,00,00,00,9A,01,C8,00,
8857836,00000101,false,Rx,0,8,00,FF,FE,00,00,00,00,00,
8858093,00000102,false,Rx,0,8,01,90,01,00,00,01,00,00,
8910053,00000526,false,Rx,0,6,05,08,07,00,00,00,00,00,
8957588,00000100,false,Rx,0,8,00,00,00,00,9A,01,C8,00,
8957834,00000101,false,Rx,0,8,00,FF,FE,00,00,00,00,00,
8958087,00000102,false,Rx,0,8,01,90,01,00,00,01,00,00,
9057579,00000100,false,Rx,0,8,00,00,00,00,9A,01,C8,00,
9057830,00000101,false,Rx,0,8,00,FF,FE,00,00,00,00,00,
9058077,00000102,false,Rx,0,8,01,90,01,00,00,01,00,00,
9107499,00000522,false,Rx,0,6,01,0A,05,AE,05,00,00,00,
9157579,00000100,false,Rx,0,8,00,00,00,00,9A,01,C8,00,
9157831,00000101,false,Rx,0,8,00,FF,FE,00,00,00,00,00,
9158077,00000102,false,Rx,0,8,01,90,01,00,00,01,00,00,
9242729,00000521,false,Rx,0,6,00,00,F5,FF,FF,FF,00,00,
9257577,00000100,false,Rx,0,8,00,00,00,00,9A,01,C8,00,
9257826,00000101,false,Rx,0,8,00,FF,FE,00,00,00,00,00,
9258079,00000102,false,Rx,0,8,01,90,01,00,00,01,00,00,
9357575,00000100,false,Rx,0,8,00,00,00,00,9A,01,C8,00,
9357828,00000101,false,Rx,0,8,00,FF,FE,00,00,00,00,00,
9358075,00000102,false,Rx,0,8,01,90,01,00,00,01,00,00,
9372127,00000524,false,Rx,0,6,03,08,F3,FF,FF,FF,00,00,
9372349,00000528,false,Rx,0,6,07,03,03,26,00,00,00,00,
9402466,00000525,false,Rx,0,6,04,0B,65,00,00,00,00,00,
9422420,00000527,false,Rx,0,6,06,01,B8,73,01,00,00,00,
9457573,00000100,false,Rx,0,8,00,00,00,00,9A,01,C8,00,
9457827,00000101,false,Rx,0,8,00,FF,FE,00,00,00,00,00,
9458074,00000102,false,Rx,0,8,01,90,01,00,00,01,00,00,
9486938,00000523,false,Rx,0,6,02,03,EE,FF,FF,FF,00,00,
9557573,00000100,false,Rx,0,8,00,00,00,00,9A,01,C8,00,
9557824,00000101,false,Rx,0,8,00,FF,FE,00,00,00,00,00,
9558070,00000102,false,Rx,0,8,01,90,01,00,00,01,00,00,
9614226,00000526,false,Rx,0,6,05,09,02,00,00,00,00,00,
9657572,00000100,false,Rx,0,8,00,00,00,00,9A,01,C8,00,
9657826,00000101,false,Rx,0,8,00,FF,FE,00,00,00,00,00,
9658067,00000102,false,Rx,0,8,01,90,01,00,00,01,00,00,
9739196,00000522,false,Rx,0,6,01,0B,10,AE,05,00,00,00,
9757569,00000100,false,Rx,0,8,00,00,00,00,9A,01,C8,00,
9757821,00000101,false,Rx,0,8,00,FF,FE,00,00,00,00,00,
9758067,00000102,false,Rx,0,8,01,90,01,00,00,01,00,00,
9856289,00000521,false,Rx,0,6,00,01,F5,FF,FF,FF,00,00,
9857566,00000100,false,Rx,0,8,00,00,00,00,9A,01,C8,00,
9857819,00000101,false,Rx,0,8,00,FF,FE,00,00,00,00,00,
9858065,00000102,false,Rx,0,8,01,90,01,00,00,01,00,00,
9957566,00000100,false,Rx,0,8,00,00,00,00,9A,01,C8,00,
9957812,00000101,false,Rx,0,8,00,FF,FE,00,00,00,00,00,
9958062,00000102,false,Rx,0,8,01,90,01,00,00,01,00,00,
10040420,00000524,false,Rx,0,6,03,09,F8,FF,FF,FF,00,00,
10057559,00000100,false,Rx,0,8,00,00,00,00,9A,01,C8,00,
10057811,00000101,false,Rx,0,8,00,FF,FE,00,00,00,00,00,
10058063,00000102,false,Rx,0,8,01,90,01,00,00,01,00,00,
10088373,00000525,false,Rx,0,6,04,0C,65,00,00,00,00,00,
10112646,00000528,false,Rx,0,6,07,04,03,26,00,00,00,00,
10136794,00000523,false,Rx,0,6,02,04,F1,FF,FF,FF,00,00,
10144929,00000527,false,Rx,0,6,06,02,B8,73,01,00,00,00,
10157557,00000100,false,Rx,0,8,00,00,00,00,9A,01,C8,00,
10157808,00000101,false,Rx,0,8,00,FF,FE,00,00,00,00,00,
10158059,00000102,false,Rx,0,8,01,90,01,00,00,01,00,00,
10257561,00000100,false,Rx,0,8,00,00,00,00,9A,01,C8,00,
10257806,00000101,false,Rx,0,8,00,FF,FE,00,00,00,00,00,
10258055,00000102,false,Rx,0,8,01,90,01,00,00,01,00,00,
10318766,00000526,false,Rx,0,6,05,0A,00,00,00,00,00,00,
10357557,00000100,false,Rx,0,8,00,00,00,00,9A,01,C8,00,
10357809,00000101,false,Rx,0,8,00,FF,FE,00,00,00,00,00,
10358055,00000102,false,Rx,0,8,01,90,01,00,00,01,00,00,
10371273,00000522,false,Rx,0,6,01,0C,0A,AE,05,00,00,00,
10457555,00000100,false,Rx,0,8,00,00,00,00,9A,01,C8,00,
10457801,00000101,false,Rx,0,8,00,FF,FE,00,00,00,00,00,
10458054,00000102,false,Rx,0,8,01,90,01,00,00,01,00,00,
10469772,00000521,false,Rx,0,6,00,02,FA,FF,FF,FF,00,00,
10557554,00000100,false,Rx,0,8,00,00,00,00,9A,01,C8,00,
10557799,00000101,false,Rx,0,8,00,FF,FE,00,00,00,00,00,
10558053,00000102,false,Rx,0,8,01,90,01,00,00,01,00,00,
10657550,00000100,false,Rx,0,8,00,00,00,00,9A,01,C8,00,
10657802,00000101,false,Rx,0,8,00,FF,FE,00,00,00,00,00,
10658049,00000102,false,Rx,0,8,01,90,01,00,00,01,00,00,
10707925,00000524,false,Rx,0,6,03,0A,E3,FF,FF,FF,00,00,
10757550,00000100,false,Rx,0,8,00,00,00,00,9A,01,C8,00,
10757795,00000101,false,Rx,0,8,00,FF,FE,00,00,00,00,00,
10758042,00000102,false,Rx,0,8,01,90,01,00,00,01,00,00,
10774534,00000525,false,Rx,0,6,04,0D,65,00,00,00,00,00,
10786630,00000523,false,Rx,0,6,02,05,FC,FF,FF,FF,00,00,
10853301,00000528,false,Rx,0,6,07,05,03,26,00,00,00,00,
10857543,00000100,false,Rx,0,8,00,00,00,00,9A,01,C8,00,
10857795,00000101,false,Rx,0,8,00,FF,FE,00,00,00,00,00,
10858041,00000102,false,Rx,0,8,01,90,01,00,00,01,00,00,
10867635,00000527,false,Rx,0,6,06,03,B8,73,01,00,00,00,
10957544,00000100,false,Rx,0,8,00,00,00,00,9A,01,C8,00,
10957797,00000101,false,Rx,0,8,00,FF,FE,00,00,00,00,00,
10958044,00000102,false,Rx,0,8,01,90,01,00,00,01,00,00,
11002561,00000522,false,Rx,0,6,01,0D,06,AE,05,00,00,00,
11023070,00000526,false,Rx,0,6,05,0B,07,00,00,00,00,00,
11057543,00000100,false,Rx,0,8,00,00,00,00,9A,01,C8,00,
11057792,00000101,false,Rx,0,8,00,FF,FE,00,00,00,00,00,
11058038,00000102,false,Rx,0,8,01,90,01,00,00,01,00,00,
11083290,00000521,false,Rx,0,6,00,03,F1,FF,FF,FF,00,00,
11157542,00000100,false,Rx,0,8,00,00,00,00,9A,01,C8,00,
11157789,00000101,false,Rx,0,8,00,FF,FE,00,00,00,00,00,
11158035,00000102,false,Rx,0,8,01,90,01,00,00,01,00,00,
11257539,00000100,false,Rx,0,8,00,00,00,00,9A,01,C8,00,
11257784,00000101,false,Rx,0,8,00,FF,FE,00,00,00,00,00,
11258037,00000102,false,Rx,0,8,01,90,01,00,00,01,00,00,
11357535,00000100,false,Rx,0,8,00,00,00,00,9A,01,C8,00,
11357788,00000101,false,Rx,0,8,00,FF,FE,00,00,00,00,00,
11358034,00000102,false,Rx,0,8,01,90,01,00,00,01,00,00,
11375937,00000524,false,Rx,0,6,03,0B,F8,FF,FF,FF,00,00,
11436461,00000523,false,Rx,0,6,02,06,FC,FF,FF,FF,00,00,
11457534,00000100,false,Rx,0,8,00,00,00,00,9A,01,C8,00,
11457782,00000101,false,Rx,0,8,00,FF,FE,00,00,00,00,00,
11458035,00000102,false,Rx,0,8,01,90,01,00,00,01,00,00,
11460975,00000525,false,Rx,0,6,04,0E,65,00,00,00,00,00,
11557528,00000100,false,Rx,0,8,00,00,00,00,9A,01,C8,00,
11557791,00000101,false,Rx,0,8,00,FF,FE,00,00,00,00,00,
11558028,00000102,false,Rx,0,8,01,90,01,00,00,01,00,00,
11589898,00000527,false,Rx,0,6,06,04,B8,73,01,00,00,00,
11593945,00000528,false,Rx,0,6,07,06,03,26,00,00,00,00,
11634224,00000522,false,Rx,0,6,01,0E,0E,AE,05,00,00,00,
11657529,00000100,false,Rx,0,8,00,00,00,00,9A,01,C8,00,
11657781,00000101,false,Rx,0,8,00,FF,FE,00,00,00,00,00,
11658027,00000102,false,Rx,0,8,01,90,01,00,00,01,00,00,
11696788,00000521,false,Rx,0,6,00,04,F8,FF,FF,FF,00,00,
11727356,00000526,false,Rx,0,6,05,0C,04,00,00,00,00,00,
11757523,00000100,false,Rx,0,8,00,00,00,00,9A,01,C8,00,
11757776,00000101,false,Rx,0,8,00,FF,FE,00,00,00,00,00,
11758021,00000102,false,Rx,0,8,01,90,01,00,00,01,00,00,
11857524,00000100,false,Rx,0,8,00,00,00,00,9A,01,C8,00,
11857776,00000101,false,Rx,0,8,00,FF,FE,00,00,00,00,00,
11858020,00000102,false,Rx,0,8,01,90,01,00,00,01,00,00,
11957519,00000100,false,Rx,0,8,00,00,00,00,9A,01,C8,00,
11957771,00000101,false,Rx,0,8,00,FF,FE,00,00,00,00,00,
11958020,00000102,false,Rx,0,8,01,90,01,00,00,01,00,00,
12043923,00000524,false,Rx,0,6,03,0C,F6,FF,FF,FF,00,00,
12057522,00000100,false,Rx,0,8,00,00,00,00,9A,01,C8,00,
12057774,00000101,false,Rx,0,8,00,FF,FE,00,00,00,00,00,
12058020,00000102,false,Rx,0,8,01,90,01,00,00,01,00,00,
12086301,00000523,false,Rx,0,6,02,07,F4,FF,FF,FF,00,00,
12146858,00000525,false,Rx,0,6,04,0F,65,00,00,00,00,00,
12157516,00000100,false,Rx,0,8,00,00,00,00,9A,01,C8,00,
12157769,00000101,false,Rx,0,8,00,FF,FE,00,00,00,00,00,
12158033,00000102,false,Rx,0,8,01,90,01,00,00,01,00,00,
12257517,00000100,false,Rx,0,8,00,00,00,00,9A,01,C8,00,
12257769,00000101,false,Rx,0,8,00,FF,FE,00,00,00,00,00,
12258015,00000102,false,Rx,0,8,01,90,01,00,00,01,00,00,
12265898,00000522,false,Rx,0,6,01,0F,08,AE,05,00,00,00,
12310579,00000521,false,Rx,0,6,00,05,FB,FF,FF,FF,00,00,
12312382,00000527,false,Rx,0,6,06,05,B8,73,01,00,00,00,
12334604,00000528,false,Rx,0,6,07,07,03,26,00,00,00,00,
12357514,00000100,false,Rx,0,8,00,00,00,00,9A,01,C8,00,
12357766,00000101,false,Rx,0,8,00,FF,FE,00,00,00,00,00,
12358013,00000102,false,Rx,0,8,01,90,01,00,00,01,00,00,
12431646,00000526,false,Rx,0,6,05,0D,02,00,00,00,00,00,
12457515,00000100,false,Rx,0,8,00,00,00,00,9A,01,C8,00,
12457760,00000101,false,Rx,0,8,00,FF,FE,00,00,00,00,00,
12458013,00000102,false,Rx,0,8,01,90,01,00,00,01,00,00,
12557509,00000100,false,Rx,0,8,00,00,00,00,9A,01,C8,00,
12557761,00000101,false,Rx,0,8,00,FF,FE,00,00,00,00,00,
12558008,00000102,false,Rx,0,8,01,90,01,00,00,01,00,00,
12657511,00000100,false,Rx,0,8,00,00,00,00,9A,01,C8,00,
12657757,00000101,false,Rx,0,8,00,FF,FE,00,00,00,00,00,
12658010,00000102,false,Rx,0,8,01,90,01,00,00,01,00,00,
12711929,00000524,false,Rx,0,6,03,0D,EC,FF,FF,FF,00,00,
12736142,00000523,false,Rx,0,6,02,08,E4,FF,FF,FF,00,00,
12757506,00000100,false,Rx,0,8,00,00,00,00,9A,01,C8,00,
12757757,00000101,false,Rx,0,8,00,FF,FE,00,00,00,00,00,
12758003,00000102,false,Rx,0,8,01,90,01,00,00,01,00,00,
12833036,00000525,false,Rx,0,6,04,00,65,00,00,00,00,00,
12857503,00000100,false,Rx,0,8,00,00,00,00,9A,01,C8,00,
12857758,00000101,false,Rx,0,8,00,FF,FE,00,00,00,00,00,
12858005,00000102,false,Rx,0,8,01,90,01,00,00,01,00,00,
12897575,00000522,false,Rx,0,6,01,00,0F,AE,05,00,00,00,
12923825,00000521,false,Rx,0,6,00,06,F8,FF,FF,FF,00,00,
12957502,00000100,false,Rx,0,8,00,00,00,00,9A,01,C8,00,
12957751,00000101,false,Rx,0,8,00,FF,FE,00,00,00,00,00,
12957997,00000102,false,Rx,0,8,01,90,01,00,00,01,00,00,
13035154,00000527,false,Rx,0,6,06,06,B8,73,01,00,00,00,
13057498,00000100,false,Rx,0,8,00,00,00,00,9A,01,C8,00,
13057753,00000101,false,Rx,0,8,00,FF,FE,00,00,00,00,00,
13058000,00000102,false,Rx,0,8,01,90,01,00,00,01,00,00,
13075251,00000528,false,Rx,0,6,07,08,03,26,00,00,00,00,
13136047,00000526,false,Rx,0,6,05,0E,08,00,00,00,00,00,
13157498,00000100,false,Rx,0,8,00,00,00,00,9A,01,C8,00,
13157764,00000101,false,Rx,0,8,00,FF,FE,00,00,00,00,00,
13157993,00000102,false,Rx,0,8,01,90,01,00,00,01,00,00,
13257496,00000100,false,Rx,0,8,00,00,00,00,9A,01,C8,00,
13257748,00000101,false,Rx,0,8,00,FF,FE,00,00,00,00,00,
13257991,00000102,false,Rx,0,8,01,90,01,00,00,01,00,00,
13357491,00000100,false,Rx,0,8,00,00,00,00,9A,01,C8,00,
13357744,00000101,false,Rx,0,8,00,FF,FE,00,00,00,00,00,
13357994,00000102,false,Rx,0,8,01,90,01,00,00,01,00,00,
13379943,00000524,false,Rx,0,6,03,0E,E8,FF,FF,FF,00,00,
13385985,00000523,false,Rx,0,6,02,09,E4,FF,FF,FF,00,00,
13457494,00000100,false,Rx,0,8,00,00,00,00,9A,01,C8,00,
13457740,00000101,false,Rx,0,8,00,FF,FE,00,00,00,00,00,
13457990,00000102,false,Rx,0,8,01,90,01,00,00,01,00,00,
13519470,00000525,false,Rx,0,6,04,01,65,00,00,00,00,00,
13529275,00000522,false,Rx,0,6,01,01,18,AE,05,00,00,00,
13537336,00000521,false,Rx,0,6,00,07,F9,FF,FF,FF,00,00,
13557490,00000100,false,Rx,0,8,00,00,00,00,9A,01,C8,00,
13557742,00000101,false,Rx,0,8,00,FF,FE,00,00,00,00,00,
13557986,00000102,false,Rx,0,8,01,90,01,00,00,01,00,00,
13657486,00000100,false,Rx,0,8,00,00,00,00,9A,01,C8,00,
13657738,00000101,false,Rx,0,8,00,FF,FE,00,00,00,00,00,
13657988,00000102,false,Rx,0,8,01,90,01,00,00,01,00,00,
13757398,00000527,false,Rx,0,6,06,07,B8,73,01,00,00,00,
13757643,00000100,false,Rx,0,8,00,00,00,00,9A,01,C8,00,
13757895,00000101,false,Rx,0,8,00,FF,FE,00,00,00,00,00,
13758148,00000102,false,Rx,0,8,01,90,01,00,00,01,00,00,
13815944,00000528,false,Rx,0,6,07,09,03,26,00,00,00,00,
13840226,00000526,false,Rx,0,6,05,0F,00,00,00,00,00,00,
13857483,00000100,false,Rx,0,8,00,00,00,00,9A,01,C8,00,
13857735,00000101,false,Rx,0,8,00,FF,FE,00,00,00,00,00,
13857982,00000102,false,Rx,0,8,01,90,01,00,00,01,00,00,
13957481,00000100,false,Rx,0,8,00,00,00,00,9A,01,C8,00,
13957733,00000101,false,Rx,0,8,00,FF,FE,00,00,00,00,00,
13957978,00000102,false,Rx,0,8,01,90,01,00,00,01,00,00,
14036169,00000523,false,Rx,0,6,02,0A,F3,FF,FF,FF,00,00,
14047975,00000524,false,Rx,0,6,03,0F,ED,FF,FF,FF,00,00,
14057483,00000100,false,Rx,0,8,00,00,00,00,9A,01,C8,00,
14057729,00000101,false,Rx,0,8,00,FF,FE,00,00,00,00,00,
14057975,00000102,false,Rx,0,8,01,90,01,00,00,01,00,00,
14150881,00000521,false,Rx,0,6,00,08,FD,FF,FF,FF,00,00,
14157474,00000100,false,Rx,0,8,00,00,00,00,9A,01,C8,00,
14157725,00000101,false,Rx,0,8,00,FF,FE,00,00,00,00,00,
14157979,00000102,false,Rx,0,8,01,90,01,00,00,01,00,00,
14160969,00000522,false,Rx,0,6,01,02,10,AE,05,00,00,00,
14205402,00000525,false,Rx,0,6,04,02,65,00,00,00,00,00,
14257477,00000100,false,Rx,0,8,00,00,00,00,9A,01,C8,00,
14257723,00000101,false,Rx,0,8,00,FF,FE,00,00,00,00,00,
14257976,00000102,false,Rx,0,8,01,90,01,00,00,01,00,00,
14357474,00000100,false,Rx,0,8,00,00,00,00,9A,01,C8,00,
14357727,00000101,false,Rx,0,8,00,FF,FE,00,00,00,00,00,
14357974,00000102,false,Rx,0,8,01,90,01,00,00,01,00,00,
14457470,00000100,false,Rx,0,8,00,00,00,00,9A,01,C8,00,
14457722,00000101,false,Rx,0,8,00,FF,FE,00,00,00,00,00,
14457972,00000102,false,Rx,0,8,01,90,01,00,00,01,00,00,
14479904,00000527,false,Rx,0,6,06,08,B8,73,01,00,00,00,
14544757,00000526,false,Rx,0,6,05,00,06,00,00,00,00,00,
14556611,00000528,false,Rx,0,6,07,0A,03,26,00,00,00,00,
14557469,00000100,false,Rx,0,8,00,00,00,00,9A,01,C8,00,
14557720,00000101,false,Rx,0,8,00,FF,FE,00,00,00,00,00,
14557970,00000102,false,Rx,0,8,01,90,01,00,00,01,00,00,
14657465,00000100,false,Rx,0,8,00,00,00,00,9A,01,C8,00,
14657718,00000101,false,Rx,0,8,00,FF,FE,00,00,00,00,00,
14657969,00000102,false,Rx,0,8,01,90,01,00,00,01,00,00,
14685701,00000523,false,Rx,0,6,02,0B,F6,FF,FF,FF,00,00,
14715978,00000524,false,Rx,0,6,03,00,F4,FF,FF,FF,00,00,
14757465,00000100,false,Rx,0,8,00,00,00,00,9A,01,C8,00,
14757713,00000101,false,Rx,0,8,00,FF,FE,00,00,00,00,00,
14757968,00000102,false,Rx,0,8,01,90,01,00,00,01,00,00,
14764393,00000521,false,Rx,0,6,00,09,F9,FF,FF,FF,00,00,
14792693,00000522,false,Rx,0,6,01,03,09,AE,05,00,00,00,
14857463,00000100,false,Rx,0,8,00,00,00,00,9A,01,C8,00,
14857715,00000101,false,Rx,0,8,00,FF,FE,00,00,00,00,00,
14857962,00000102,false,Rx,0,8,01,90,01,00,00,01,00,00,
14891565,00000525,false,Rx,0,6,04,03,65,00,00,00,00,00,
14957462,00000100,false,Rx,0,8,00,00,00,00,9A,01,C8,00,
14957707,00000101,false,Rx,0,8,00,FF,FE,00,00,00,00,00,
14957961,00000102,false,Rx,0,8,01,90,01,00,00,01,00,00,
15057455,00000100,false,Rx,0,8,00,00,00,00,9A,01,C8,00,
15057706,00000101,false,Rx,0,8,00,FF,FE,00,00,00,00,00,
15057962,00000102,false,Rx,0,8,01,90,01,00,00,01,00,00,
15157454,00000100,false,Rx,0,8,00,00,00,00,9A,01,C8,00,
15157707,00000101,false,Rx,0,8,00,FF,FE,00,00,00,00,00,
15157963,00000102,false,Rx,0,8,01,90,01,00,00,01,00,00,
15202404,00000527,false,Rx,0,6,06,09,B8,73,01,00,00,00,
15248831,00000526,false,Rx,0,6,05,01,09,00,00,00,00,00,
15257454,00000100,false,Rx,0,8,00,00,00,00,9A,01,C8,00,
15257706,00000101,false,Rx,0,8,00,FF,FE,00,00,00,00,00,
15257951,00000102,false,Rx,0,8,01,90,01,00,00,01,00,00,
15297529,00000528,false,Rx,0,6,07,0B,03,26,00,00,00,00,
15335549,00000523,false,Rx,0,6,02,0C,F6,FF,FF,FF,00,00,
15357454,00000100,false,Rx,0,8,00,00,00,00,9A,01,C8,00,
15357700,00000101,false,Rx,0,8,00,FF,FE,00,00,00,00,00,
15357952,00000102,false,Rx,0,8,01,90,01,00,00,01,00,00,
15377911,00000521,false,Rx,0,6,00,0A,F6,FF,FF,FF,00,00,
15383984,00000524,false,Rx,0,6,03,01,F1,FF,FF,FF,00,00,
15424332,00000522,false,Rx,0,6,01,04,15,AE,05,00,00,00,
15457449,00000100,false,Rx,0,8,00,00,00,00,9A,01,C8,00,
15457701,00000101,false,Rx,0,8,00,FF,FE,00,00,00,00,00,
15457949,00000102,false,Rx,0,8,01,90,01,00,00,01,00,00,
15557448,00000100,false,Rx,0,8,00,00,00,00,9A,01,C8,00,
15557694,00000101,false,Rx,0,8,00,FF,FE,00,00,00,00,00,
15557961,00000102,false,Rx,0,8,01,90,01,00,00,01,00,00,
15578008,00000525,false,Rx,0,6,04,04,65,00,00,00,00,00,
15657446,00000100,false,Rx,0,8,00,00,00,00,9A,01,C8,00,
15657699,00000101,false,Rx,0,8,00,FF,FE,00,00,00,00,00,
15657946,00000102,false,Rx,0,8,01,90,01,00,00,01,00,00,
15757442,00000100,false,Rx,0,8,00,00,00,00,9A,01,C8,00,
15757694,00000101,false,Rx,0,8,00,FF,FE,00,00,00,00,00,
15757942,00000102,false,Rx,0,8,01,90,01,00,00,01,00,00,
15857439,00000100,false,Rx,0,8,00,00,00,00,9A,01,C8,00,
15857690,00000101,false,Rx,0,8,00,FF,FE,00,00,00,00,00,
15857943,00000102,false,Rx,0,8,01,90,01,00,00,01,00,00,
15924903,00000527,false,Rx,0,6,06,0A,B8,73,01,00,00,00,
15953399,00000526,false,Rx,0,6,05,02,08,00,00,00,00,00,
15957438,00000100,false,Rx,0,8,00,00,00,00,9A,01,C8,00,
15957688,00000101,false,Rx,0,8,00,FF,FE,00,00,00,00,00,
15957941,00000102,false,Rx,0,8,01,90,01,00,00,01,00,00,
15985393,00000523,false,Rx,0,6,02,0D,F2,FF,FF,FF,00,00,
15991433,00000521,false,Rx,0,6,00,0B,F5,FF,FF,FF,00,00,
16037929,00000528,false,Rx,0,6,07,0C,03,26,00,00,00,00,
16051995,00000524,false,Rx,0,6,03,02,E6,FF,FF,FF,00,00,
16056010,00000522,false,Rx,0,6,01,05,0C,AE,05,00,00,00,
16057437,00000100,false,Rx,0,8,00,00,00,00,9A,01,C8,00,
16057684,00000101,false,Rx,0,8,00,FF,FE,00,00,00,00,00,
16057937,00000102,false,Rx,0,8,01,90,01,00,00,01,00,00,
16157437,00000100,false,Rx,0,8,00,00,00,00,9A,01,C8,00,
16157683,00000101,false,Rx,0,8,00,FF,FE,00,00,00,00,00,
16157936,00000102,false,Rx,0,8,01,90,01,00,00,01,00,00,
16257430,00000100,false,Rx,0,8,00,00,00,00,9A,01,C8,00,
16257682,00000101,false,Rx,0,8,00,FF,FE,00,00,00,00,00,
16257935,00000102,false,Rx,0,8,01,90,01,00,00,01,00,00,
16263913,00000525,false,Rx,0,6,04,05,65,00,00,00,00,00,
16357430,00000100,false,Rx,0,8,00,00,00,00,9A,01,C8,00,
16357681,00000101,false,Rx,0,8,00,FF,FE,00,00,00,00,00,
16357927,00000102,false,Rx,0,8,01,90,01,00,00,01,00,00,
16457428,00000100,false,Rx,0,8,00,00,00,00,9A,01,C8,00,
16457679,00000101,false,Rx,0,8,00,FF,FE,00,00,00,00,00,
16457927,00000102,false,Rx,0,8,01,90,01,00,00,01,00,00,
16557430,00000100,false,Rx,0,8,00,00,00,00,9A,01,C8,00,
16557676,00000101,false,Rx,0,8,00,FF,FE,00,00,00,00,00,
16557924,00000102,false,Rx,0,8,01,90,01,00,00,01,00,00,
16604964,00000521,false,Rx,0,6,00,0C,F9,FF,FF,FF,00,00,
16635241,00000523,false,Rx,0,6,02,0E,ED,FF,FF,FF,00,00,
16647399,00000527,false,Rx,0,6,06,0B,B8,73,01,00,00,00,
16657423,00000100,false,Rx,0,8,00,00,00,00,9A,01,C8,00,
16657675,00000101,false,Rx,0,8,00,FF,FE,00,00,00,00,00,
16657923,00000102,false,Rx,0,8,01,90,01,00,00,01,00,00,
16658133,00000526,false,Rx,0,6,05,03,07,00,00,00,00,00,
16687700,00000522,false,Rx,0,6,01,06,14,AE,05,00,00,00,
16720010,00000524,false,Rx,0,6,03,03,E5,FF,FF,FF,00,00,
16757424,00000100,false,Rx,0,8,00,00,00,00,9A,01,C8,00,
16757676,00000101,false,Rx,0,8,00,FF,FE,00,00,00,00,00,
16757922,00000102,false,Rx,0,8,01,90,01,00,00,01,00,00,
16778658,00000528,false,Rx,0,6,07,0D,03,26,00,00,00,00,
16857423,00000100,false,Rx,0,8,00,00,00,00,9A,01,C8,00,
16857669,00000101,false,Rx,0,8,00,FF,FE,00,00,00,00,00,
16857917,00000102,false,Rx,0,8,01,90,01,00,00,01,00,00,
16950078,00000525,false,Rx,0,6,04,06,65,00,00,00,00,00,
16957418,00000100,false,Rx,0,8,00,00,00,00,9A,01,C8,00,
16957670,00000101,false,Rx,0,8,00,FF,FE,00,00,00,00,00,
16957921,00000102,false,Rx,0,8,01,90,01,00,00,01,00,00,
17057414,00000100,false,Rx,0,8,00,00,00,00,9A,01,C8,00,
17057666,00000101,false,Rx,0,8,00,FF,FE,00,00,00,00,00,
17057926,00000102,false,Rx,0,8,01,90,01,00,00,01,00,00,
17157418,00000100,false,Rx,0,8,00,00,00,00,9A,01,C8,00,
17157664,00000101,false,Rx,0,8,00,FF,FE,00,00,00,00,00,
17157916,00000102,false,Rx,0,8,01,90,01,00,00,01,00,00,
17218458,00000521,false,Rx,0,6,00,0D,FA,FF,FF,FF,00,00,
17257413,00000100,false,Rx,0,8,00,00,00,00,9A,01,C8,00,
17257665,00000101,false,Rx,0,8,00,FF,FE,00,00,00,00,00,
17257911,00000102,false,Rx,0,8,01,90,01,00,00,01,00,00,
17285076,00000523,false,Rx,0,6,02,0F,ED,FF,FF,FF,00,00,
17319369,00000522,false,Rx,0,6,01,07,11,AE,05,00,00,00,
17357410,00000100,false,Rx,0,8,00,00,00,00,9A,01,C8,00,
17357662,00000101,false,Rx,0,8,00,FF,FE,00,00,00,00,00,
17357909,00000102,false,Rx,0,8,01,90,01,00,00,01,00,00,
17362085,00000526,false,Rx,0,6,05,04,04,00,00,00,00,00,
17369887,00000527,false,Rx,0,6,06,0C,B8,73,01,00,00,00,
17388007,00000524,false,Rx,0,6,03,04,F0,FF,FF,FF,00,00,
17457405,00000100,false,Rx,0,8,00,00,00,00,9A,01,C8,00,
17457657,00000101,false,Rx,0,8,00,FF,FE,00,00,00,00,00,
17457909,00000102,false,Rx,0,8,01,90,01,00,00,01,00,00,
17519248,00000528,false,Rx,0,6,07,0E,03,26,00,00,00,00,
17557404,00000100,false,Rx,0,8,00,00,00,00,9A,01,C8,00,
17557657,00000101,false,Rx,0,8,00,FF,FE,00,00,00,00,00,
17557902,00000102,false,Rx,0,8,01,90,01,00,00,01,00,00,
17636528,00000525,false,Rx,0,6,04,07,65,00,00,00,00,00,
17657403,00000100,false,Rx,0,8,00,00,00,00,9A,01,C8,00,
17657656,00000101,false,Rx,0,8,00,FF,FE,00,00,00,00,00,
17657902,00000102,false,Rx,0,8,01,90,01,00,00,01,00,00,
17757399,00000100,false,Rx,0,8,00,00,00,00,9A,01,C8,00,
17757652,00000101,false,Rx,0,8,00,FF,FE,00,00,00,00,00,
17757897,00000102,false,Rx,0,8,01,90,01,00,00,01,00,00,
17831973,00000521,false,Rx,0,6,00,0E,FD,FF,FF,FF,00,00,
17857398,00000100,false,Rx,0,8,00,00,00,00,9A,01,C8,00,
17857651,00000101,false,Rx,0,8,00,FF,FE,00,00,00,00,00,
17857898,00000102,false,Rx,0,8,01,90,01,00,00,01,00,00,
17934917,00000523,false,Rx,0,6,02,00,E3,FF,FF,FF,00,00,
17951053,00000522,false,Rx,0,6,01,08,1A,AE,05,00,00,00,
17957397,00000100,false,Rx,0,8,00,00,00,00,9A,01,C8,00,
17957649,00000101,false,Rx,0,8,00,FF,FE,00,00,00,00,00,
17957894,00000102,false,Rx,0,8,01,90,01,00,00,01,00,00,
18056024,00000524,false,Rx,0,6,03,05,F6,FF,FF,FF,00,00,
18057395,00000100,false,Rx,0,8,00,00,00,00,9A,01,C8,00,
18057648,00000101,false,Rx,0,8,00,FF,FE,00,00,00,00,00,
18057893,00000102,false,Rx,0,8,01,90,01,00,00,01,00,00,
18066245,00000526,false,Rx,0,6,05,05,02,00,00,00,00,00,
18092708,00000527,false,Rx,0,6,06,0D,B8,73,01,00,00,00,
18157392,00000100,false,Rx,0,8,00,00,00,00,9A,01,C8,00,
18157645,00000101,false,Rx,0,8,00,FF,FE,00,00,00,00,00,
18157891,00000102,false,Rx,0,8,01,90,01,00,00,01,00,00,
18257389,00000100,false,Rx,0,8,00,00,00,00,9A,01,C8,00,
18257641,00000101,false,Rx,0,8,00,FF,FE,00,00,00,00,00,
18257892,00000102,false,Rx,0,8,01,90,01,00,00,01,00,00,
18259912,00000528,false,Rx,0,6,07,0F,03,26,00,00,00,00,
18322420,00000525,false,Rx,0,6,04,08,65,00,00,00,00,00,
18357394,00000100,false,Rx,0,8,00,00,00,00,9A,01,C8,00,
18357639,00000101,false,Rx,0,8,00,FF,FE,00,00,00,00,00,
18357891,00000102,false,Rx,0,8,01,90,01,00,00,01,00,00,
18445490,00000521,false,Rx,0,6,00,0F,F9,FF,FF,FF,00,00,
18457389,00000100,false,Rx,0,8,00,00,00,00,9A,01,C8,00,
18457641,00000101,false,Rx,0,8,00,FF,FE,00,00,00,00,00,
18457887,00000102,false,Rx,0,8,01,90,01,00,00,01,00,00,
18557385,00000100,false,Rx,0,8,00,00,00,00,9A,01,C8,00,
18557637,00000101,false,Rx,0,8,00,FF,FE,00,00,00,00,00,
18557882,00000102,false,Rx,0,8,01,90,01,00,00,01,00,00,
18582727,00000522,false,Rx,0,6,01,09,12,AE,05,00,00,00,
18584753,00000523,false,Rx,0,6,02,01,ED,FF,FF,FF,00,00,
18657384,00000100,false,Rx,0,8,00,00,00,00,9A,01,C8,00,
18657636,00000101,false,Rx,0,8,00,FF,FE,00,00,00,00,00,
18657882,00000102,false,Rx,0,8,01,90,01,00,00,01,00,00,
18724009,00000524,false,Rx,0,6,03,06,F4,FF,FF,FF,00,00,
18757379,00000100,false,Rx,0,8,00,00,00,00,9A,01,C8,00,
18757635,00000101,false,Rx,0,8,00,FF,FE,00,00,00,00,00,
18757881,00000102,false,Rx,0,8,01,90,01,00,00,01,00,00,
18770750,00000526,false,Rx,0,6,05,06,04,00,00,00,00,00,
18814874,00000527,false,Rx,0,6,06,0E,B8,73,01,00,00,00,
18857381,00000100,false,Rx,0,8,00,00,00,00,9A,01,C8,00,
18857628,00000101,false,Rx,0,8,00,FF,FE,00,00,00,00,00,
18857881,00000102,false,Rx,0,8,01,90,01,00,00,01,00,00,
18957379,00000100,false,Rx,0,8,00,00,00,00,9A,01,C8,00,
18957631,00000101,false,Rx,0,8,00,FF,FE,00,00,00,00,00,
18957877,00000102,false,Rx,0,8,01,90,01,00,00,01,00,00,
19000873,00000528,false,Rx,0,6,07,00,03,26,00,00,00,00,
19008572,00000525,false,Rx,0,6,04,09,65,00,00,00,00,00,
19057374,00000100,false,Rx,0,8,00,00,00,00,9A,01,C8,00,
19057629,00000101,false,Rx,0,8,00,FF,FE,00,00,00,00,00,
19057875,00000102,false,Rx,0,8,01,90,01,00,00,01,00,00,
19059048,00000521,false,Rx,0,6,00,00,FB,FF,FF,FF,00,00,
19157375,00000100,false,Rx,0,8,00,00,00,00,9A,01,C8,00,
19157638,00000101,false,Rx,0,8,00,FF,FE,00,00,00,00,00,
19157873,00000102,false,Rx,0,8,01,90,01,00,00,01,00,00,
19214396,00000522,false,Rx,0,6,01,0A,0B,AE,05,00,00,00,
19234583,00000523,false,Rx,0,6,02,02,ED,FF,FF,FF,00,00,
19257368,00000100,false,Rx,0,8,00,00,00,00,9A,01,C8,00,
19257624,00000101,false,Rx,0,8,00,FF,FE,00,00,00,00,00,
19257872,00000102,false,Rx,0,8,01,90,01,00,00,01,00,00,
19357369,00000100,false,Rx,0,8,00,00,00,00,9A,01,C8,00,
19357622,00000101,false,Rx,0,8,00,FF,FE,00,00,00,00,00,
19357871,00000102,false,Rx,0,8,01,90,01,00,00,01,00,00,
19392018,00000524,false,Rx,0,6,03,07,F8,FF,FF,FF,00,00,
19457369,00000100,false,Rx,0,8,00,00,00,00,9A,01,C8,00,
19457615,00000101,false,Rx,0,8,00,FF,FE,00,00,00,00,00,
19457863,00000102,false,Rx,0,8,01,90,01,00,00,01,00,00,
19475075,00000526,false,Rx,0,6,05,07,FD,FF,FF,FF,00,00,
19537373,00000527,false,Rx,0,6,06,0F,B8,73,01,00,00,00,
19557364,00000100,false,Rx,0,8,00,00,00,00,9A,01,C8,00,
19557616,00000101,false,Rx,0,8,00,FF,FE,00,00,00,00,00,
19557860,00000102,false,Rx,0,8,01,90,01,00,00,01,00,00,
19657362,00000100,false,Rx,0,8,00,00,00,00,9A,01,C8,00,
19657614,00000101,false,Rx,0,8,00,FF,FE,00,00,00,00,00,
19657863,00000102,false,Rx,0,8,01,90,01,00,00,01,00,00,
19672518,00000521,false,Rx,0,6,00,01,FB,FF,FF,FF,00,00,
19694997,00000525,false,Rx,0,6,04,0A,65,00,00,00,00,00,
19741467,00000528,false,Rx,0,6,07,01,03,26,00,00,00,00,
19757363,00000100,false,Rx,0,8,00,00,00,00,9A,01,C8,00,
19757609,00000101,false,Rx,0,8,00,FF,FE,00,00,00,00,00,
19757871,00000102,false,Rx,0,8,01,90,01,00,00,01,00,00,
19846106,00000522,false,Rx,0,6,01,0B,09,AE,05,00,00,00,
19857357,00000100,false,Rx,0,8,00,00,00,00,9A,01,C8,00,
19857609,00000101,false,Rx,0,8,00,FF,FE,00,00,00,00,00,
19857855,00000102,false,Rx,0,8,01,90,01,00,00,01,00,00,
19884427,00000523,false,Rx,0,6,02,03,ED,FF,FF,FF,00,00,
19957355,00000100,false,Rx,0,8,00,00,00,00,9A,01,C8,00,
19957608,00000101,false,Rx,0,8,00,FF,FE,00,00,00,00,00,
19957854,00000102,false,Rx,0,8,01,90,01,00,00,01,00,00,
20057356,00000100,false,Rx,0,8,00,00,00,00,9A,01,C8,00,
20057608,00000101,false,Rx,0,8,00,FF,FE,00,00,00,00,00,
20057854,00000102,false,Rx,0,8,01,90,01,00,00,01,00,00,
20060264,00000524,false,Rx,0,6,03,08,EE,FF,FF,FF,00,00,
20157350,00000100,false,Rx,0,8,00,00,00,00,9A,01,C8,00,
20157602,00000101,false,Rx,0,8,00,FF,FE,00,00,00,00,00,
20157848,00000102,false,Rx,0,8,01,90,01,00,00,01,00,00,
20179415,00000526,false,Rx,0,6,05,08,06,00,00,00,00,00,
20257349,00000100,false,Rx,0,8,00,00,00,00,9A,01,C8,00,
20257601,00000101,false,Rx,0,8,00,FF,FE,00,00,00,00,00,
20257846,00000102,false,Rx,0,8,01,90,01,00,00,01,00,00,
20260113,00000527,false,Rx,0,6,06,00,B8,73,01,00,00,00,
20286029,00000521,false,Rx,0,6,00,02,F6,FF,FF,FF,00,00,
20357347,00000100,false,Rx,0,8,00,00,00,00,9A,01,C8,00,
20357599,00000101,false,Rx,0,8,00,FF,FE,00,00,00,00,00,
20357844,00000102,false,Rx,0,8,01,90,01,00,00,01,00,00,
20380894,00000525,false,Rx,0,6,04,0B,65,00,00,00,00,00,
20457350,00000100,false,Rx,0,8,00,00,00,00,9A,01,C8,00,
20457596,00000101,false,Rx,0,8,00,FF,FE,00,00,00,00,00,
20457848,00000102,false,Rx,0,8,01,90,01,00,00,01,00,00,
20477748,00000522,false,Rx,0,6,01,0C,1D,AE,05,00,00,00,
20482133,00000528,false,Rx,0,6,07,02,03,26,00,00,00,00,
20534264,00000523,false,Rx,0,6,02,04,EE,FF,FF,FF,00,00,
20557344,00000100,false,Rx,0,8,00,00,00,00,9A,01,C8,00,
20557597,00000101,false,Rx,0,8,00,FF,FE,00,00,00,00,00,
20557843,00000102,false,Rx,0,8,01,90,01,00,00,01,00,00,
20657343,00000100,false,Rx,0,8,00,00,00,00,9A,01,C8,00,
20657595,00000101,false,Rx,0,8,00,FF,FE,00,00,00,00,00,
20657841,00000102,false,Rx,0,8,01,90,01,00,00,01,00,00,
20728022,00000524,false,Rx,0,6,03,09,FD,FF,FF,FF,00,00,
20757344,00000100,false,Rx,0,8,00,00,00,00,9A,01,C8,00,
20757593,00000101,false,Rx,0,8,00,FF,FE,00,00,00,00,00,
20757839,00000102,false,Rx,0,8,01,90,01,00,00,01,00,00,
20857341,00000100,false,Rx,0,8,00,00,00,00,9A,01,C8,00,
20857587,00000101,false,Rx,0,8,00,FF,FE,00,00,00,00,00,
20857839,00000102,false,Rx,0,8,01,90,01,00,00,01,00,00,
20883542,00000526,false,Rx,0,6,05,09,00,00,00,00,00,00,
20899542,00000521,false,Rx,0,6,00,03,FA,FF,FF,FF,00,00,
20957337,00000100,false,Rx,0,8,00,00,00,00,9A,01,C8,00,
20957589,00000101,false,Rx,0,8,00,FF,FE,00,00,00,00,00,
20957835,00000102,false,Rx,0,8,01,90,01,00,00,01,00,00,
20982358,00000527,false,Rx,0,6,06,01,B8,73,01,00,00,00,
21057335,00000100,false,Rx,0,8,00,00,00,00,9A,01,C8,00,
21057587,00000101,false,Rx,0,8,00,FF,FE,00,00,00,00,00,
21057833,00000102,false,Rx,0,8,01,90,01,00,00,01,00,00,
21067075,00000525,false,Rx,0,6,04,0C,65,00,00,00,00,00,
21109423,00000522,false,Rx,0,6,01,0D,21,AE,05,00,00,00,
21157332,00000100,false,Rx,0,8,00,00,00,00,9A,01,C8,00,
21157580,00000101,false,Rx,0,8,00,FF,FE,00,00,00,00,00,
21157832,00000102,false,Rx,0,8,01,90,01,00,00,01,00,00,
21184101,00000523,false,Rx,0,6,02,05,EE,FF,FF,FF,00,00,
21222523,00000528,false,Rx,0,6,07,03,03,26,00,00,00,00,
21257328,00000100,false,Rx,0,8,00,00,00,00,9A,01,C8,00,
21257580,00000101,false,Rx,0,8,00,FF,FE,00,00,00,00,00,
21257831,00000102,false,Rx,0,8,01,90,01,00,00,01,00,00,
21357325,00000100,false,Rx,0,8,00,00,00,00,9A,01,C8,00,
21357576,00000101,false,Rx,0,8,00,FF,FE,00,00,00,00,00,
21357825,00000102,false,Rx,0,8,01,90,01,00,00,01,00,00,
21396024,00000524,false,Rx,0,6,03,0A,EA,FF,FF,FF,00,00,
21457329,00000100,false,Rx,0,8,00,00,00,00,9A,01,C8,00,
21457574,00000101,false,Rx,0,8,00,FF,FE,00,00,00,00,00,
21457822,00000102,false,Rx,0,8,01,90,01,00,00,01,00,00,
21513319,00000521,false,Rx,0,6,00,04,F7,FF,FF,FF,00,00,
21557326,00000100,false,Rx,0,8,00,00,00,00,9A,01,C8,00,
21557572,00000101,false,Rx,0,8,00,FF,FE,00,00,00,00,00,
21557823,00000102,false,Rx,0,8,01,90,01,00,00,01,00,00,
21588054,00000526,false,Rx,0,6,05,0A,05,00,00,00,00,00,
21657326,00000100,false,Rx,0,8,00,00,00,00,9A,01,C8,00,
21657571,00000101,false,Rx,0,8,00,FF,FE,00,00,00,00,00,
21657819,00000102,false,Rx,0,8,01,90,01,00,00,01,00,00,
21704847,00000527,false,Rx,0,6,06,02,B8,73,01,00,00,00,
21741104,00000522,false,Rx,0,6,01,0E,16,AE,05,00,00,00,
21753503,00000525,false,Rx,0,6,04,0D,65,00,00,00,00,00,
21757319,00000100,false,Rx,0,8,00,00,00,00,9A,01,C8,00,
21757571,00000101,false,Rx,0,8,00,FF,FE,00,00,00,00,00,
21757819,00000102,false,Rx,0,8,01,90,01,00,00,01,00,00,
21833948,00000523,false,Rx,0,6,02,06,FD,FF,FF,FF,00,00,
21857319,00000100,false,Rx,0,8,00,00,00,00,9A,01,C8,00,
21857565,00000101,false,Rx,0,8,00,FF,FE,00,00,00,00,00,
21857834,00000102,false,Rx,0,8,01,90,01,00,00,01,00,00,
21957314,00000100,false,Rx,0,8,00,00,00,00,9A,01,C8,00,
21957566,00000101,false,Rx,0,8,00,FF,FE,00,00,00,00,00,
21957812,00000102,false,Rx,0,8,01,90,01,00,00,01,00,00,
21963181,00000528,false,Rx,0,6,07,04,03,26,00,00,00,00,
22057317,00000100,false,Rx,0,8,00,00,00,00,9A,01,C8,00,
22057562,00000101,false,Rx,0,8,00,FF,FE,00,00,00,00,00,
22057815,00000102,false,Rx,0,8,01,90,01,00,00,01,00,00,
22064035,00000524,false,Rx,0,6,03,0B,F5,FF,FF,FF,00,00,
22126569,00000521,false,Rx,0,6,00,05,FA,FF,FF,FF,00,00,
22157313,00000100,false,Rx,0,8,00,00,00,00,9A,01,C8,00,
22157565,00000101,false,Rx,0,8,00,FF,FE,00,00,00,00,00,
22157811,00000102,false,Rx,0,8,01,90,01,00,00,01,00,00,
22257310,00000100,false,Rx,0,8,00,00,00,00,9A,01,C8,00,
22257562,00000101,false,Rx,0,8,00,FF,FE,00,00,00,00,00,
22257808,00000102,false,Rx,0,8,01,90,01,00,00,01,00,00,
22292204,00000526,false,Rx,0,6,05,0B,05,00,00,00,00,00,
22357310,00000100,false,Rx,0,8,00,00,00,00,9A,01,C8,00,
22357556,00000101,false,Rx,0,8,00,FF,FE,00,00,00,00,00,
22357807,00000102,false,Rx,0,8,01,90,01,00,00,01,00,00,
22372775,00000522,false,Rx,0,6,01,0F,1B,AE,05,00,00,00,
22427339,00000527,false,Rx,0,6,06,03,B8,73,01,00,00,00,
22439411,00000525,false,Rx,0,6,04,0E,65,00,00,00,00,00,
22457307,00000100,false,Rx,0,8,00,00,00,00,9A,01,C8,00,
22457552,00000101,false,Rx,0,8,00,FF,FE,00,00,00,00,00,
22457805,00000102,false,Rx,0,8,01,90,01,00,00,01,00,00,
22483787,00000523,false,Rx,0,6,02,07,F4,FF,FF,FF,00,00,
22557300,00000100,false,Rx,0,8,00,00,00,00,9A,01,C8,00,
22557552,00000101,false,Rx,0,8,00,FF,FE,00,00,00,00,00,
22557805,00000102,false,Rx,0,8,01,90,01,00,00,01,00,00,
22657300,00000100,false,Rx,0,8,00,00,00,00,9A,01,C8,00,
22657552,00000101,false,Rx,0,8,00,FF,FE,00,00,00,00,00,
22657798,00000102,false,Rx,0,8,01,90,01,00,00,01,00,00,
22703831,00000528,false,Rx,0,6,07,05,03,26,00,00,00,00,
22732029,00000524,false,Rx,0,6,03,0C,F1,FF,FF,FF,00,00,
22740077,00000521,false,Rx,0,6,00,06,F8,FF,FF,FF,00,00,
22757301,00000100,false,Rx,0,8,00,00,00,00,9A,01,C8,00,
22757552,00000101,false,Rx,0,8,00,FF,FE,00,00,00,00,00,
22757798,00000102,false,Rx,0,8,01,90,01,00,00,01,00,00,
22857297,00000100,false,Rx,0,8,00,00,00,00,9A,01,C8,00,
22857549,00000101,false,Rx,0,8,00,FF,FE,00,00,00,00,00,
22857795,00000102,false,Rx,0,8,01,90,01,00,00,01,00,00,
22957295,00000100,false,Rx,0,8,00,00,00,00,9A,01,C8,00,
22957558,00000101,false,Rx,0,8,00,FF,FE,00,00,00,00,00,
22957793,00000102,false,Rx,0,8,01,90,01,00,00,01,00,00,
22996770,00000526,false,Rx,0,6,05,0C,06,00,00,00,00,00,
23004448,00000522,false,Rx,0,6,01,00,0F,AE,05,00,00,00,
23057295,00000100,false,Rx,0,8,00,00,00,00,9A,01,C8,00,
23057541,00000101,false,Rx,0,8,00,FF,FE,00,00,00,00,00,
23057789,00000102,false,Rx,0,8,01,90,01,00,00,01,00,00,
23125556,00000525,false,Rx,0,6,04,0F,65,00,00,00,00,00,
23133620,00000523,false,Rx,0,6,02,08,F4,FF,FF,FF,00,00,
23149818,00000527,false,Rx,0,6,06,04,B8,73,01,00,00,00,
23157288,00000100,false,Rx,0,8,00,00,00,00,9A,01,C8,00,
23157541,00000101,false,Rx,0,8,00,FF,FE,00,00,00,00,00,
23157791,00000102,false,Rx,0,8,01,90,01,00,00,01,00,00,
23257289,00000100,false,Rx,0,8,00,00,00,00,9A,01,C8,00,
23257541,00000101,false,Rx,0,8,00,FF,FE,00,00,00,00,00,
23257783,00000102,false,Rx,0,8,01,90,01,00,00,01,00,00,
23353587,00000521,false,Rx,0,6,00,07,F9,FF,FF,FF,00,00,
23357289,00000100,false,Rx,0,8,00,00,00,00,9A,01,C8,00,
23357534,00000101,false,Rx,0,8,00,FF,FE,00,00,00,00,00,
23357786,00000102,false,Rx,0,8,01,90,01,00,00,01,00,00,
23400016,00000524,false,Rx,0,6,03,0D,EF,FF,FF,FF,00,00,
23444477,00000528,false,Rx,0,6,07,06,03,26,00,00,00,00,
23457285,00000100,false,Rx,0,8,00,00,00,00,9A,01,C8,00,
23457538,00000101,false,Rx,0,8,00,FF,FE,00,00,00,00,00,
23457783,00000102,false,Rx,0,8,01,90,01,00,00,01,00,00,
23557281,00000100,false,Rx,0,8,00,00,00,00,9A,01,C8,00,
23557534,00000101,false,Rx,0,8,00,FF,FE,00,00,00,00,00,
23557794,00000102,false,Rx,0,8,01,90,01,00,00,01,00,00,
23636129,00000522,false,Rx,0,6,01,01,22,AE,05,00,00,00,
23657282,00000100,false,Rx,0,8,00,00,00,00,9A,01,C8,00,
23657528,00000101,false,Rx,0,8,00,FF,FE,00,00,00,00,00,
23657781,00000102,false,Rx,0,8,01,90,01,00,00,01,00,00,
23700746,00000526,false,Rx,0,6,05,0D,00,00,00,00,00,00,
23757276,00000100,false,Rx,0,8,00,00,00,00,9A,01,C8,00,
23757528,00000101,false,Rx,0,8,00,FF,FE,00,00,00,00,00,
23757774,00000102,false,Rx,0,8,01,90,01,00,00,01,00,00,
23783760,00000523,false,Rx,0,6,02,09,E9,FF,FF,FF,00,00,
23811766,00000525,false,Rx,0,6,04,00,65,00,00,00,00,00,
23857276,00000100,false,Rx,0,8,00,00,00,00,9A,01,C8,00,
23857528,00000101,false,Rx,0,8,00,FF,FE,00,00,00,00,00,
23857774,00000102,false,Rx,0,8,01,90,01,00,00,01,00,00,
23872567,00000527,false,Rx,0,6,06,05,B8,73,01,00,00,00,
23957276,00000100,false,Rx,0,8,00,00,00,00,9A,01,C8,00,
23957522,00000101,false,Rx,0,8,00,FF,FE,00,00,00,00,00,
23957773,00000102,false,Rx,0,8,01,90,01,00,00,01,00,00,
23967090,00000521,false,Rx,0,6,00,08,FA,FF,FF,FF,00,00,
24057270,00000100,false,Rx,0,8,00,00,00,00,9A,01,C8,00,
24057521,00000101,false,Rx,0,8,00,FF,FE,00,00,00,00,00,
24057773,00000102,false,Rx,0,8,01,90,01,00,00,01,00,00,
24068004,00000524,false,Rx,0,6,03,0E,DD,FF,FF,FF,00,00,
24157270,00000100,false,Rx,0,8,00,00,00,00,9A,01,C8,00,
24157522,00000101,false,Rx,0,8,00,FF,FE,00,00,00,00,00,
24157768,00000102,false,Rx,0,8,01,90,01,00,00,01,00,00,
24185132,00000528,false,Rx,0,6,07,07,03,26,00,00,00,00,
24257270,00000100,false,Rx,0,8,00,00,00,00,9A,01,C8,00,
24257515,00000101,false,Rx,0,8,00,FF,FE,00,00,00,00,00,
24257768,00000102,false,Rx,0,8,01,90,01,00,00,01,00,00,
24267837,00000522,false,Rx,0,6,01,02,1C,AE,05,00,00,00,
24357268,00000100,false,Rx,0,8,00,00,00,00,9A,01,C8,00,
24357513,00000101,false,Rx,0,8,00,FF,FE,00,00,00,00,00,
24357765,00000102,false,Rx,0,8,01,90,01,00,00,01,00,00,
24405339,00000526,false,Rx,0,6,05,0E,01,00,00,00,00,00,
24433288,00000523,false,Rx,0,6,02,0A,FB,FF,FF,FF,00,00,
24457264,00000100,false,Rx,0,8,00,00,00,00,9A,01,C8,00,
24457516,00000101,false,Rx,0,8,00,FF,FE,00,00,00,00,00,
24457762,00000102,false,Rx,0,8,01,90,01,00,00,01,00,00,
24497885,00000525,false,Rx,0,6,04,01,65,00,00,00,00,00,
24557260,00000100,false,Rx,0,8,00,00,00,00,9A,01,C8,00,
24557511,00000101,false,Rx,0,8,00,FF,FE,00,00,00,00,00,
24557757,00000102,false,Rx,0,8,01,90,01,00,00,01,00,00,
24580608,00000521,false,Rx,0,6,00,09,FB,FF,FF,FF,00,00,
24594806,00000527,false,Rx,0,6,06,06,B8,73,01,00,00,00,
24657260,00000100,false,Rx,0,8,00,00,00,00,9A,01,C8,00,
24657506,00000101,false,Rx,0,8,00,FF,FE,00,00,00,00,00,
24657758,00000102,false,Rx,0,8,01,90,01,00,00,01,00,00,
24736022,00000524,false,Rx,0,6,03,0F,F2,FF,FF,FF,00,00,
24757256,00000100,false,Rx,0,8,00,00,00,00,9A,01,C8,00,
24757508,00000101,false,Rx,0,8,00,FF,FE,00,00,00,00,00,
24757754,00000102,false,Rx,0,8,01,90,01,00,00,01,00,00,
24857259,00000100,false,Rx,0,8,00,00,00,00,9A,01,C8,00,
24857504,00000101,false,Rx,0,8,00,FF,FE,00,00,00,00,00,
24857756,00000102,false,Rx,0,8,01,90,01,00,00,01,00,00,
24899479,00000522,false,Rx,0,6,01,03,27,AE,05,00,00,00,
24925797,00000528,false,Rx,0,6,07,08,03,26,00,00,00,00,
24957251,00000100,false,Rx,0,8,00,00,00,00,9A,01,C8,00,
24957502,00000101,false,Rx,0,8,00,FF,FE,00,00,00,00,00,
24957748,00000102,false,Rx,0,8,01,90,01,00,00,01,00,00,
25057249,00000100,false,Rx,0,8,00,00,00,00,9A,01,C8,00,
25057501,00000101,false,Rx,0,8,00,FF,FE,00,00,00,00,00,
25057747,00000102,false,Rx,0,8,01,90,01,00,00,01,00,00,
25083424,00000523,false,Rx,0,6,02,0B,FB,FF,FF,FF,00,00,
25109525,00000526,false,Rx,0,6,05,0F,F9,FF,FF,FF,00,00,
25157252,00000100,false,Rx,0,8,00,00,00,00,9A,01,C8,00,
25157500,00000101,false,Rx,0,8,00,FF,FE,00,00,00,00,00,
25157745,00000102,false,Rx,0,8,01,90,01,00,00,01,00,00,
25184066,00000525,false,Rx,0,6,04,02,65,00,00,00,00,00,
25194143,00000521,false,Rx,0,6,00,0A,F6,FF,FF,FF,00,00,
25257245,00000100,false,Rx,0,8,00,00,00,00,9A,01,C8,00,
25257496,00000101,false,Rx,0,8,00,FF,FE,00,00,00,00,00,
25257742,00000102,false,Rx,0,8,01,90,01,00,00,01,00,00,
25317312,00000527,false,Rx,0,6,06,07,B8,73,01,00,00,00,
25357243,00000100,false,Rx,0,8,00,00,00,00,9A,01,C8,00,
25357491,00000101,false,Rx,0,8,00,FF,FE,00,00,00,00,00,
25357744,00000102,false,Rx,0,8,01,90,01,00,00,01,00,00,
25404044,00000524,false,Rx,0,6,03,00,ED,FF,FF,FF,00,00,
25457239,00000100,false,Rx,0,8,00,00,00,00,9A,01,C8,00,
25457490,00000101,false,Rx,0,8,00,FF,FE,00,00,00,00,00,
25457742,00000102,false,Rx,0,8,01,90,01,00,00,01,00,00,
25531173,00000522,false,Rx,0,6,01,04,21,AE,05,00,00,00,
25557239,00000100,false,Rx,0,8,00,00,00,00,9A,01,C8,00,
25557494,00000101,false,Rx,0,8,00,FF,FE,00,00,00,00,00,
25557740,00000102,false,Rx,0,8,01,90,01,00,00,01,00,00,
25657239,00000100,false,Rx,0,8,00,00,00,00,9A,01,C8,00,
25657496,00000101,false,Rx,0,8,00,FF,FE,00,00,00,00,00,
25657737,00000102,false,Rx,0,8,01,90,01,00,00,01,00,00,
25666467,00000528,false,Rx,0,6,07,09,03,26,00,00,00,00,
25732993,00000523,false,Rx,0,6,02,0C,F3,FF,FF,FF,00,00,
25757239,00000100,false,Rx,0,8,00,00,00,00,9A,01,C8,00,
25757491,00000101,false,Rx,0,8,00,FF,FE,00,00,00,00,00,
25757736,00000102,false,Rx,0,8,01,90,01,00,00,01,00,00,
25807659,00000521,false,Rx,0,6,00,0B,F6,FF,FF,FF,00,00,
25814040,00000526,false,Rx,0,6,05,00,09,00,00,00,00,00,
25857234,00000100,false,Rx,0,8,00,00,00,00,9A,01,C8,00,
25857486,00000101,false,Rx,0,8,00,FF,FE,00,00,00,00,00,
25857734,00000102,false,Rx,0,8,01,90,01,00,00,01,00,00,
25870522,00000525,false,Rx,0,6,04,03,65,00,00,00,00,00,
25957234,00000100,false,Rx,0,8,00,00,00,00,9A,01,C8,00,
25957480,00000101,false,Rx,0,8,00,FF,FE,00,00,00,00,00,
25957729,00000102,false,Rx,0,8,01,90,01,00,00,01,00,00,
26039816,00000527,false,Rx,0,6,06,08,B8,73,01,00,00,00,
26057233,00000100,false,Rx,0,8,00,00,00,00,9A,01,C8,00,
26057479,00000101,false,Rx,0,8,00,FF,FE,00,00,00,00,00,
26057730,00000102,false,Rx,0,8,01,90,01,00,00,01,00,00,
26072050,00000524,false,Rx,0,6,03,01,E5,FF,FF,FF,00,00,
26157226,00000100,false,Rx,0,8,00,00,00,00,9A,01,C8,00,
26157478,00000101,false,Rx,0,8,00,FF,FE,00,00,00,00,00,
26157726,00000102,false,Rx,0,8,01,90,01,00,00,01,00,00,
26162853,00000522,false,Rx,0,6,01,05,1E,AE,05,00,00,00,
26257224,00000100,false,Rx,0,8,00,00,00,00,9A,01,C8,00,
26257477,00000101,false,Rx,0,8,00,FF,FE,00,00,00,00,00,
26257730,00000102,false,Rx,0,8,01,90,01,00,00,01,00,00,
26357224,00000100,false,Rx,0,8,00,00,00,00,9A,01,C8,00,
26357476,00000101,false,Rx,0,8,00,FF,FE,00,00,00,00,00,
26357722,00000102,false,Rx,0,8,01,90,01,00,00,01,00,00,
26382842,00000523,false,Rx,0,6,02,0D,FC,FF,FF,FF,00,00,
26407378,00000528,false,Rx,0,6,07,0A,03,26,00,00,00,00,
26421180,00000521,false,Rx,0,6,00,0C,F7,FF,FF,FF,00,00,
26457224,00000100,false,Rx,0,8,00,00,00,00,9A,01,C8,00,
26457470,00000101,false,Rx,0,8,00,FF,FE,00,00,00,00,00,
26457722,00000102,false,Rx,0,8,01,90,01,00,00,01,00,00,
26518204,00000526,false,Rx,0,6,05,01,05,00,00,00,00,00,
26556424,00000525,false,Rx,0,6,04,04,65,00,00,00,00,00,
26557221,00000100,false,Rx,0,8,00,00,00,00,9A,01,C8,00,
26557473,00000101,false,Rx,0,8,00,FF,FE,00,00,00,00,00,
26557719,00000102,false,Rx,0,8,01,90,01,00,00,01,00,00,
26657217,00000100,false,Rx,0,8,00,00,00,00,9A,01,C8,00,
26657469,00000101,false,Rx,0,8,00,FF,FE,00,00,00,00,00,
26657715,00000102,false,Rx,0,8,01,90,01,00,00,01,00,00,
26740078,00000524,false,Rx,0,6,03,02,E8,FF,FF,FF,00,00,
26757215,00000100,false,Rx,0,8,00,00,00,00,9A,01,C8,00,
26757467,00000101,false,Rx,0,8,00,FF,FE,00,00,00,00,00,
26757714,00000102,false,Rx,0,8,01,90,01,00,00,01,00,00,
26762316,00000527,false,Rx,0,6,06,09,B8,73,01,00,00,00,
26794535,00000522,false,Rx,0,6,01,06,30,AE,05,00,00,00,
26857217,00000100,false,Rx,0,8,00,00,00,00,9A,01,C8,00,
26857463,00000101,false,Rx,0,8,00,FF,FE,00,00,00,00,00,
26857715,00000102,false,Rx,0,8,01,90,01,00,00,01,00,00,
26957215,00000100,false,Rx,0,8,00,00,00,00,9A,01,C8,00,
26957460,00000101,false,Rx,0,8,00,FF,FE,00,00,00,00,00,
26957713,00000102,false,Rx,0,8,01,90,01,00,00,01,00,00,
27032689,00000523,false,Rx,0,6,02,0E,FC,FF,FF,FF,00,00,
27034695,00000521,false,Rx,0,6,00,0D,F8,FF,FF,FF,00,00,
27057208,00000100,false,Rx,0,8,00,00,00,00,9A,01,C8,00,
27057458,00000101,false,Rx,0,8,00,FF,FE,00,00,00,00,00,
27057709,00000102,false,Rx,0,8,01,90,01,00,00,01,00,00,
27147791,00000528,false,Rx,0,6,07,0B,03,26,00,00,00,00,
27157208,00000100,false,Rx,0,8,00,00,00,00,9A,01,C8,00,
27157457,00000101,false,Rx,0,8,00,FF,FE,00,00,00,00,00,
27157703,00000102,false,Rx,0,8,01,90,01,00,00,01,00,00,
27222724,00000526,false,Rx,0,6,05,02,0D,00,00,00,00,00,
27242581,00000525,false,Rx,0,6,04,05,65,00,00,00,00,00,
27257208,00000100,false,Rx,0,8,00,00,00,00,9A,01,C8,00,
27257460,00000101,false,Rx,0,8,00,FF,FE,00,00,00,00,00,
27257706,00000102,false,Rx,0,8,01,90,01,00,00,01,00,00,
27357202,00000100,false,Rx,0,8,00,00,00,00,9A,01,C8,00,
27357454,00000101,false,Rx,0,8,00,FF,FE,00,00,00,00,00,
27357700,00000102,false,Rx,0,8,01,90,01,00,00,01,00,00,
27408085,00000524,false,Rx,0,6,03,03,F3,FF,FF,FF,00,00,
27426216,00000522,false,Rx,0,6,01,07,1E,AE,05,00,00,00,
27457199,00000100,false,Rx,0,8,00,00,00,00,9A,01,C8,00,
27457450,00000101,false,Rx,0,8,00,FF,FE,00,00,00,00,00,
27457702,00000102,false,Rx,0,8,01,90,01,00,00,01,00,00,
27484811,00000527,false,Rx,0,6,06,0A,B8,73,01,00,00,00,
27557203,00000100,false,Rx,0,8,00,00,00,00,9A,01,C8,00,
27557448,00000101,false,Rx,0,8,00,FF,FE,00,00,00,00,00,
27557696,00000102,false,Rx,0,8,01,90,01,00,00,01,00,00,
27648195,00000521,false,Rx,0,6,00,0E,F4,FF,FF,FF,00,00,
27657195,00000100,false,Rx,0,8,00,00,00,00,9A,01,C8,00,
27657447,00000101,false,Rx,0,8,00,FF,FE,00,00,00,00,00,
27657692,00000102,false,Rx,0,8,01,90,01,00,00,01,00,00,
27682532,00000523,false,Rx,0,6,02,0F,0A,00,00,00,00,00,
27757199,00000100,false,Rx,0,8,00,00,00,00,9A,01,C8,00,
27757444,00000101,false,Rx,0,8,00,FF,FE,00,00,00,00,00,
27757693,00000102,false,Rx,0,8,01,90,01,00,00,01,00,00,
27857196,00000100,false,Rx,0,8,00,00,00,00,9A,01,C8,00,
27857442,00000101,false,Rx,0,8,00,FF,FE,00,00,00,00,00,
27857690,00000102,false,Rx,0,8,01,90,01,00,00,01,00,00,
27888440,00000528,false,Rx,0,6,07,0C,03,26,00,00,00,00,
27927062,00000526,false,Rx,0,6,05,03,02,00,00,00,00,00,
27929042,00000525,false,Rx,0,6,04,06,65,00,00,00,00,00,
27957191,00000100,false,Rx,0,8,00,00,00,00,9A,01,C8,00,
27957443,00000101,false,Rx,0,8,00,FF,FE,00,00,00,00,00,
27957691,00000102,false,Rx,0,8,01,90,01,00,00,01,00,00,
28057190,00000100,false,Rx,0,8,00,00,00,00,9A,01,C8,00,
28057442,00000101,false,Rx,0,8,00,FF,FE,00,00,00,00,00,
28057684,00000102,false,Rx,0,8,01,90,01,00,00,01,00,00,
28057892,00000522,false,Rx,0,6,01,08,16,AE,05,00,00,00,
28076077,00000524,false,Rx,0,6,03,04,E1,FF,FF,FF,00,00,
28157190,00000100,false,Rx,0,8,00,00,00,00,9A,01,C8,00,
28157436,00000101,false,Rx,0,8,00,FF,FE,00,00,00,00,00,
28157703,00000102,false,Rx,0,8,01,90,01,00,00,01,00,00,
28207313,00000527,false,Rx,0,6,06,0B,B8,73,01,00,00,00,
28257186,00000100,false,Rx,0,8,00,00,00,00,9A,01,C8,00,
28257438,00000101,false,Rx,0,8,00,FF,FE,00,00,00,00,00,
28257684,00000102,false,Rx,0,8,01,90,01,00,00,01,00,00,
28261726,00000521,false,Rx,0,6,00,0F,F9,FF,FF,FF,00,00,
28332362,00000523,false,Rx,0,6,02,00,E9,FF,FF,FF,00,00,
28357185,00000100,false,Rx,0,8,00,00,00,00,9A,01,C8,00,
28357430,00000101,false,Rx,0,8,00,FF,FE,00,00,00,00,00,
28357683,00000102,false,Rx,0,8,01,90,01,00,00,01,00,00,
28457184,00000100,false,Rx,0,8,00,00,00,00,9A,01,C8,00,
28457429,00000101,false,Rx,0,8,00,FF,FE,00,00,00,00,00,
28457681,00000102,false,Rx,0,8,01,90,01,00,00,01,00,00,
28557183,00000100,false,Rx,0,8,00,00,00,00,9A,01,C8,00,
28557429,00000101,false,Rx,0,8,00,FF,FE,00,00,00,00,00,
28557675,00000102,false,Rx,0,8,01,90,01,00,00,01,00,00,
28614931,00000525,false,Rx,0,6,04,07,65,00,00,00,00,00,
28629114,00000528,false,Rx,0,6,07,0D,03,26,00,00,00,00,
28631351,00000526,false,Rx,0,6,05,04,07,00,00,00,00,00,
28657182,00000100,false,Rx,0,8,00,00,00,00,9A,01,C8,00,
28657429,00000101,false,Rx,0,8,00,FF,FE,00,00,00,00,00,
28657675,00000102,false,Rx,0,8,01,90,01,00,00,01,00,00,
28689577,00000522,false,Rx,0,6,01,09,26,AE,05,00,00,00,
28744098,00000524,false,Rx,0,6,03,05,E7,FF,FF,FF,00,00,
28757172,00000100,false,Rx,0,8,00,00,00,00,9A,01,C8,00,
28757426,00000101,false,Rx,0,8,00,FF,FE,00,00,00,00,00,
28757671,00000102,false,Rx,0,8,01,90,01,00,00,01,00,00,
28857174,00000100,false,Rx,0,8,00,00,00,00,9A,01,C8,00,
28857427,00000101,false,Rx,0,8,00,FF,FE,00,00,00,00,00,
28857673,00000102,false,Rx,0,8,01,90,01,00,00,01,00,00,
28875245,00000521,false,Rx,0,6,00,00,F8,FF,FF,FF,00,00,
28930109,00000527,false,Rx,0,6,06,0C,B8,73,01,00,00,00,
28957170,00000100,false,Rx,0,8,00,00,00,00,9A,01,C8,00,
28957418,00000101,false,Rx,0,8,00,FF,FE,00,00,00,00,00,
28957671,00000102,false,Rx,0,8,01,90,01,00,00,01,00,00,
28982215,00000523,false,Rx,0,6,02,01,E9,FF,FF,FF,00,00,
29057168,00000100,false,Rx,0,8,00,00,00,00,9A,01,C8,00,
29057420,00000101,false,Rx,0,8,00,FF,FE,00,00,00,00,00,
29057666,00000102,false,Rx,0,8,01,90,01,00,00,01,00,00,
29157170,00000100,false,Rx,0,8,00,00,00,00,9A,01,C8,00,
29157416,00000101,false,Rx,0,8,00,FF,FE,00,00,00,00,00,
29157665,00000102,false,Rx,0,8,01,90,01,00,00,01,00,00,
29257171,00000100,false,Rx,0,8,00,00,00,00,9A,01,C8,00,
29257410,00000101,false,Rx,0,8,00,FF,FE,00,00,00,00,00,
29257659,00000102,false,Rx,0,8,01,90,01,00,00,01,00,00,
29301109,00000525,false,Rx,0,6,04,08,65,00,00,00,00,00,
29321623,00000522,false,Rx,0,6,01,0A,1A,AE,05,00,00,00,
29335542,00000526,false,Rx,0,6,05,05,05,00,00,00,00,00,
29357171,00000100,false,Rx,0,8,00,00,00,00,9A,01,C8,00,
29357411,00000101,false,Rx,0,8,00,FF,FE,00,00,00,00,00,
29357658,00000102,false,Rx,0,8,01,90,01,00,00,01,00,00,
29369781,00000528,false,Rx,0,6,07,0E,03,26,00,00,00,00,
29412107,00000524,false,Rx,0,6,03,06,EA,FF,FF,FF,00,00,
29457165,00000100,false,Rx,0,8,00,00,00,00,9A,01,C8,00,
29457411,00000101,false,Rx,0,8,00,FF,FE,00,00,00,00,00,
29457657,00000102,false,Rx,0,8,01,90,01,00,00,01,00,00,
29488776,00000521,false,Rx,0,6,00,01,F6,FF,FF,FF,00,00,
29557168,00000100,false,Rx,0,8,00,00,00,00,9A,01,C8,00,
29557408,00000101,false,Rx,0,8,00,FF,FE,00,00,00,00,00,
29557657,00000102,false,Rx,0,8,01,90,01,00,00,01,00,00,
29632075,00000523,false,Rx,0,6,02,02,E4,FF,FF,FF,00,00,
29652322,00000527,false,Rx,0,6,06,0D,B8,73,01,00,00,00,
29657152,00000100,false,Rx,0,8,00,00,00,00,9A,01,C8,00,
29657413,00000101,false,Rx,0,8,00,FF,FE,00,00,00,00,00,
29657654,00000102,false,Rx,0,8,01,90,01,00,00,01,00,00,
29757151,00000100,false,Rx,0,8,00,00,00,00,9A,01,C8,00,
29757411,00000101,false,Rx,0,8,00,FF,FE,00,00,00,00,00,
29757650,00000102,false,Rx,0,8,01,90,01,00,00,01,00,00,
29857150,00000100,false,Rx,0,8,00,00,00,00,9A,01,C8,00,
29857409,00000101,false,Rx,0,8,00,FF,FE,00,00,00,00,00,
29857650,00000102,false,Rx,0,8,01,90,01,00,00,01,00,00,
29952965,00000522,false,Rx,0,6,01,0B,1A,AE,05,00,00,00,
29957153,00000100,false,Rx,0,8,00,00,00,00,9A,01,C8,00,
29957402,00000101,false,Rx,0,8,00,FF,FE,00,00,00,00,00,
29957648,00000102,false,Rx,0,8,01,90,01,00,00,01,00,00,
29987330,00000525,false,Rx,0,6,04,09,65,00,00,00,00,00,
30040072,00000526,false,Rx,0,6,05,06,05,00,00,00,00,00,
30057150,00000100,false,Rx,0,8,00,00,00,00,9A,01,C8,00,
30057399,00000101,false,Rx,0,8,00,FF,FE,00,00,00,00,00,
30057644,00000102,false,Rx,0,8,01,90,01,00,00,01,00,00,
30080603,00000524,false,Rx,0,6,03,07,EB,FF,FF,FF,00,00,
30102307,00000521,false,Rx,0,6,00,02,F5,FF,FF,FF,00,00,
30110455,00000528,false,Rx,0,6,07,0F,03,26,00,00,00,00,
30157154,00000100,false,Rx,0,8,00,00,00,00,9A,01,C8,00,
30157397,00000101,false,Rx,0,8,00,FF,FE,00,00,00,00,00,
30157643,00000102,false,Rx,0,8,01,90,01,00,00,01,00,00,
30257153,00000100,false,Rx,0,8,00,00,00,00,9A,01,C8,00,
30257393,00000101,false,Rx,0,8,00,FF,FE,00,00,00,00,00,
30257639,00000102,false,Rx,0,8,01,90,01,00,00,01,00,00,
30281929,00000523,false,Rx,0,6,02,03,00,00,00,00,00,00,
30357146,00000100,false,Rx,0,8,00,00,00,00,9A,01,C8,00,
30357392,00000101,false,Rx,0,8,00,FF,FE,00,00,00,00,00,
30357637,00000102,false,Rx,0,8,01,90,01,00,00,01,00,00,
30374837,00000527,false,Rx,0,6,06,0E,B8,73,01,00,00,00,
30457144,00000100,false,Rx,0,8,00,00,00,00,9A,01,C8,00,
30457402,00000101,false,Rx,0,8,00,FF,FE,00,00,00,00,00,
30457636,00000102,false,Rx,0,8,01,90,01,00,00,01,00,00,
30557144,00000100,false,Rx,0,8,00,00,00,00,9A,01,C8,00,
30557384,00000101,false,Rx,0,8,00,FF,FE,00,00,00,00,00,
30557633,00000102,false,Rx,0,8,01,90,01,00,00,01,00,00,
30584657,00000522,false,Rx,0,6,01,0C,22,AE,05,00,00,00,
30657143,00000100,false,Rx,0,8,00,00,00,00,9A,01,C8,00,
30657383,00000101,false,Rx,0,8,00,FF,FE,00,00,00,00,00,
30657632,00000102,false,Rx,0,8,01,90,01,00,00,01,00,00,
30673487,00000525,false,Rx,0,6,04,0A,65,00,00,00,00,00,
30716083,00000521,false,Rx,0,6,00,03,F7,FF,FF,FF,00,00,
30744251,00000526,false,Rx,0,6,05,07,08,00,00,00,00,00,
30748155,00000524,false,Rx,0,6,03,08,F9,FF,FF,FF,00,00,
30757143,00000100,false,Rx,0,8,00,00,00,00,9A,01,C8,00,
30757384,00000101,false,Rx,0,8,00,FF,FE,00,00,00,00,00,
30757633,00000102,false,Rx,0,8,01,90,01,00,00,01,00,00,
30851147,00000528,false,Rx,0,6,07,00,03,26,00,00,00,00,
30857131,00000100,false,Rx,0,8,00,00,00,00,9A,01,C8,00,
30857384,00000101,false,Rx,0,8,00,FF,FE,00,00,00,00,00,
30857629,00000102,false,Rx,0,8,01,90,01,00,00,01,00,00,
30931800,00000523,false,Rx,0,6,02,04,00,00,00,00,00,00,
30957132,00000100,false,Rx,0,8,00,00,00,00,9A,01,C8,00,
30957379,00000101,false,Rx,0,8,00,FF,FE,00,00,00,00,00,
30957629,00000102,false,Rx,0,8,01,90,01,00,00,01,00,00,
31057130,00000100,false,Rx,0,8,00,00,00,00,9A,01,C8,00,
31057375,00000101,false,Rx,0,8,00,FF,FE,00,00,00,00,00,
31057627,00000102,false,Rx,0,8,01,90,01,00,00,01,00,00,
31097356,00000527,false,Rx,0,6,06,0F,B8,73,01,00,00,00,
31157122,00000100,false,Rx,0,8,00,00,00,00,9A,01,C8,00,
31157375,00000101,false,Rx,0,8,00,FF,FE,00,00,00,00,00,
31157620,00000102,false,Rx,0,8,01,90,01,00,00,01,00,00,
31216354,00000522,false,Rx,0,6,01,0D,1D,AE,05,00,00,00,
31257123,00000100,false,Rx,0,8,00,00,00,00,9A,01,C8,00,
31257370,00000101,false,Rx,0,8,00,FF,FE,00,00,00,00,00,
31257622,00000102,false,Rx,0,8,01,90,01,00,00,01,00,00,
31329379,00000521,false,Rx,0,6,00,04,F9,FF,FF,FF,00,00,
31357118,00000100,false,Rx,0,8,00,00,00,00,9A,01,C8,00,
31357372,00000101,false,Rx,0,8,00,FF,FE,00,00,00,00,00,
31357618,00000102,false,Rx,0,8,01,90,01,00,00,01,00,00,
31359669,00000525,false,Rx,0,6,04,0B,65,00,00,00,00,00,
31416170,00000524,false,Rx,0,6,03,09,FA,FF,FF,FF,00,00,
31448522,00000526,false,Rx,0,6,05,08,04,00,00,00,00,00,
31457118,00000100,false,Rx,0,8,00,00,00,00,9A,01,C8,00,
31457371,00000101,false,Rx,0,8,00,FF,FE,00,00,00,00,00,
31457618,00000102,false,Rx,0,8,01,90,01,00,00,01,00,00,
31557117,00000100,false,Rx,0,8,00,00,00,00,9A,01,C8,00,
31557370,00000101,false,Rx,0,8,00,FF,FE,00,00,00,00,00,
31557616,00000102,false,Rx,0,8,01,90,01,00,00,01,00,00,
31581647,00000523,false,Rx,0,6,02,05,F7,FF,FF,FF,00,00,
31591811,00000528,false,Rx,0,6,07,01,03,26,00,00,00,00,
31657117,00000100,false,Rx,0,8,00,00,00,00,9A,01,C8,00,
31657363,00000101,false,Rx,0,8,00,FF,FE,00,00,00,00,00,
31657615,00000102,false,Rx,0,8,01,90,01,00,00,01,00,00,
31757110,00000100,false,Rx,0,8,00,00,00,00,9A,01,C8,00,
31757365,00000101,false,Rx,0,8,00,FF,FE,00,00,00,00,00,
31757611,00000102,false,Rx,0,8,01,90,01,00,00,01,00,00,
31819850,00000527,false,Rx,0,6,06,00,B8,73,01,00,00,00,
31848037,00000522,false,Rx,0,6,01,0E,22,AE,05,00,00,00,
31857112,00000100,false,Rx,0,8,00,00,00,00,9A,01,C8,00,
31857358,00000101,false,Rx,0,8,00,FF,FE,00,00,00,00,00,
31857611,00000102,false,Rx,0,8,01,90,01,00,00,01,00,00,
31942892,00000521,false,Rx,0,6,00,05,F7,FF,FF,FF,00,00,
31957109,00000100,false,Rx,0,8,00,00,00,00,9A,01,C8,00,
31957359,00000101,false,Rx,0,8,00,FF,FE,00,00,00,00,00,
31957604,00000102,false,Rx,0,8,01,90,01,00,00,01,00,00,
32046107,00000525,false,Rx,0,6,04,0C,65,00,00,00,00,00,
32057109,00000100,false,Rx,0,8,00,00,00,00,9A,01,C8,00,
32057359,00000101,false,Rx,0,8,00,FF,FE,00,00,00,00,00,
32057605,00000102,false,Rx,0,8,01,90,01,00,00,01,00,00,
32084171,00000524,false,Rx,0,6,03,0A,E6,FF,FF,FF,00,00,
32153116,00000526,false,Rx,0,6,05,09,0D,00,00,00,00,00,
32157108,00000100,false,Rx,0,8,00,00,00,00,9A,01,C8,00,
32157355,00000101,false,Rx,0,8,00,FF,FE,00,00,00,00,00,
32157600,00000102,false,Rx,0,8,01,90,01,00,00,01,00,00,
32231495,00000523,false,Rx,0,6,02,06,EB,FF,FF,FF,00,00,
32257102,00000100,false,Rx,0,8,00,00,00,00,9A,01,C8,00,
32257349,00000101,false,Rx,0,8,00,FF,FE,00,00,00,00,00,
32257601,00000102,false,Rx,0,8,01,90,01,00,00,01,00,00,
32332482,00000528,false,Rx,0,6,07,02,03,26,00,00,00,00,
32357103,00000100,false,Rx,0,8,00,00,00,00,9A,01,C8,00,
32357350,00000101,false,Rx,0,8,00,FF,FE,00,00,00,00,00,
32357595,00000102,false,Rx,0,8,01,90,01,00,00,01,00,00,
32457100,00000100,false,Rx,0,8,00,00,00,00,9A,01,C8,00,
32457348,00000101,false,Rx,0,8,00,FF,FE,00,00,00,00,00,
32457597,00000102,false,Rx,0,8,01,90,01,00,00,01,00,00,
32479720,00000522,false,Rx,0,6,01,0F,27,AE,05,00,00,00,
32542361,00000527,false,Rx,0,6,06,01,B8,73,01,00,00,00,
32556428,00000521,false,Rx,0,6,00,06,FA,FF,FF,FF,00,00,
32557094,00000100,false,Rx,0,8,00,00,00,00,9A,01,C8,00,
32557346,00000101,false,Rx,0,8,00,FF,FE,00,00,00,00,00,
32557593,00000102,false,Rx,0,8,01,90,01,00,00,01,00,00,
32657092,00000100,false,Rx,0,8,00,00,00,00,9A,01,C8,00,
32657346,00000101,false,Rx,0,8,00,FF,FE,00,00,00,00,00,
32657595,00000102,false,Rx,0,8,01,90,01,00,00,01,00,00,
32732032,00000525,false,Rx,0,6,04,0D,65,00,00,00,00,00,
32752206,00000524,false,Rx,0,6,03,0B,EE,FF,FF,FF,00,00,
32757090,00000100,false,Rx,0,8,00,00,00,00,9A,01,C8,00,
32757343,00000101,false,Rx,0,8,00,FF,FE,00,00,00,00,00,
32757589,00000102,false,Rx,0,8,01,90,01,00,00,01,00,00,
32857089,00000100,false,Rx,0,8,00,00,00,00,9A,01,C8,00,
32857337,00000101,false,Rx,0,8,00,FF,FE,00,00,00,00,00,
32857589,00000102,false,Rx,0,8,01,90,01,00,00,01,00,00,
32857792,00000526,false,Rx,0,6,05,0A,04,00,00,00,00,00,
32881362,00000523,false,Rx,0,6,02,07,EB,FF,FF,FF,00,00,
32957088,00000100,false,Rx,0,8,00,00,00,00,9A,01,C8,00,
32957335,00000101,false,Rx,0,8,00,FF,FE,00,00,00,00,00,
32957588,00000102,false,Rx,0,8,01,90,01,00,00,01,00,00,
33057084,00000100,false,Rx,0,8,00,00,00,00,9A,01,C8,00,
33057338,00000101,false,Rx,0,8,00,FF,FE,00,00,00,00,00,
33057585,00000102,false,Rx,0,8,01,90,01,00,00,01,00,00,
33073418,00000528,false,Rx,0,6,07,03,03,26,00,00,00,00,
33111719,00000522,false,Rx,0,6,01,00,2F,AE,05,00,00,00,
33157085,00000100,false,Rx,0,8,00,00,00,00,9A,01,C8,00,
33157335,00000101,false,Rx,0,8,00,FF,FE,00,00,00,00,00,
33157581,00000102,false,Rx,0,8,01,90,01,00,00,01,00,00,
33169964,00000521,false,Rx,0,6,00,07,F2,FF,FF,FF,00,00,
33257081,00000100,false,Rx,0,8,00,00,00,00,9A,01,C8,00,
33257332,00000101,false,Rx,0,8,00,FF,FE,00,00,00,00,00,
33257577,00000102,false,Rx,0,8,01,90,01,00,00,01,00,00,
33264874,00000527,false,Rx,0,6,06,02,B8,73,01,00,00,00,
33357077,00000100,false,Rx,0,8,00,00,00,00,9A,01,C8,00,
33357331,00000101,false,Rx,0,8,00,FF,FE,00,00,00,00,00,
33357576,00000102,false,Rx,0,8,01,90,01,00,00,01,00,00,
33418220,00000525,false,Rx,0,6,04,0E,65,00,00,00,00,00,
33420229,00000524,false,Rx,0,6,03,0C,F7,FF,FF,FF,00,00,
33457080,00000100,false,Rx,0,8,00,00,00,00,9A,01,C8,00,
33457326,00000101,false,Rx,0,8,00,FF,FE,00,00,00,00,00,
33457573,00000102,false,Rx,0,8,01,90,01,00,00,01,00,00,
33531537,00000523,false,Rx,0,6,02,08,EA,FF,FF,FF,00,00,
33557078,00000100,false,Rx,0,8,00,00,00,00,9A,01,C8,00,
33557326,00000101,false,Rx,0,8,00,FF,FE,00,00,00,00,00,
33557571,00000102,false,Rx,0,8,01,90,01,00,00,01,00,00,
33561732,00000526,false,Rx,0,6,05,0B,06,00,00,00,00,00,
33657074,00000100,false,Rx,0,8,00,00,00,00,9A,01,C8,00,
33657321,00000101,false,Rx,0,8,00,FF,FE,00,00,00,00,00,
33657569,00000102,false,Rx,0,8,01,90,01,00,00,01,00,00,
33743171,00000522,false,Rx,0,6,01,01,1A,AE,05,00,00,00,
33757067,00000100,false,Rx,0,8,00,00,00,00,9A,01,C8,00,
33757321,00000101,false,Rx,0,8,00,FF,FE,00,00,00,00,00,
33757566,00000102,false,Rx,0,8,01,90,01,00,00,01,00,00,
33783489,00000521,false,Rx,0,6,00,08,F9,FF,FF,FF,00,00,
33813846,00000528,false,Rx,0,6,07,04,03,26,00,00,00,00,
33857072,00000100,false,Rx,0,8,00,00,00,00,9A,01,C8,00,
33857320,00000101,false,Rx,0,8,00,FF,FE,00,00,00,00,00,
33857565,00000102,false,Rx,0,8,01,90,01,00,00,01,00,00,
33957067,00000100,false,Rx,0,8,00,00,00,00,9A,01,C8,00,
33957314,00000101,false,Rx,0,8,00,FF,FE,00,00,00,00,00,
33957563,00000102,false,Rx,0,8,01,90,01,00,00,01,00,00,
33987387,00000527,false,Rx,0,6,06,03,B8,73,01,00,00,00,
34057065,00000100,false,Rx,0,8,00,00,00,00,9A,01,C8,00,
34057312,00000101,false,Rx,0,8,00,FF,FE,00,00,00,00,00,
34057579,00000102,false,Rx,0,8,01,90,01,00,00,01,00,00,
34088237,00000524,false,Rx,0,6,03,0D,DC,FF,FF,FF,00,00,
34104442,00000525,false,Rx,0,6,04,0F,65,00,00,00,00,00,
34157059,00000100,false,Rx,0,8,00,00,00,00,9A,01,C8,00,
34157312,00000101,false,Rx,0,8,00,FF,FE,00,00,00,00,00,
34157558,00000102,false,Rx,0,8,01,90,01,00,00,01,00,00,
34181066,00000523,false,Rx,0,6,02,09,E8,FF,FF,FF,00,00,
34257064,00000100,false,Rx,0,8,00,00,00,00,9A,01,C8,00,
34257311,00000101,false,Rx,0,8,00,FF,FE,00,00,00,00,00,
34257557,00000102,false,Rx,0,8,01,90,01,00,00,01,00,00,
34266152,00000526,false,Rx,0,6,05,0C,04,00,00,00,00,00,
34357061,00000100,false,Rx,0,8,00,00,00,00,9A,01,C8,00,
34357309,00000101,false,Rx,0,8,00,FF,FE,00,00,00,00,00,
34357554,00000102,false,Rx,0,8,01,90,01,00,00,01,00,00,
34374806,00000522,false,Rx,0,6,01,02,35,AE,05,00,00,00,
34397010,00000521,false,Rx,0,6,00,09,F6,FF,FF,FF,00,00,
34428701,00000108,false,Rx,0,8,01,58,02,7D,9A,01,00,00,
34428949,00000109,false,Rx,0,8,02,05,00,00,00,20,FF,FE,
34457060,00000100,false,Rx,0,8,00,00,00,00,9A,01,C8,00,
34457307,00000101,false,Rx,0,8,00,FF,FE,00,00,00,00,00,
34457553,00000102,false,Rx,0,8,01,90,01,00,00,01,00,00,
34528798,00000108,false,Rx,0,8,01,58,02,7D,9A,01,00,00,
34529038,00000109,false,Rx,0,8,02,01,00,00,00,20,FF,FE,
34554498,00000528,false,Rx,0,6,07,05,03,26,00,00,00,00,
34557055,00000100,false,Rx,0,8,00,00,00,00,9A,01,C8,00,
34557302,00000101,false,Rx,0,8,00,FF,FE,00,00,00,00,00,
34557554,00000102,false,Rx,0,8,01,90,01,00,00,01,00,00,
34638650,00000108,false,Rx,0,8,01,58,02,7D,9A,01,00,00,
34638890,00000109,false,Rx,0,8,02,01,00,00,00,20,FF,FE,
34657053,00000100,false,Rx,0,8,00,00,00,00,9A,01,C8,00,
34657301,00000101,false,Rx,0,8,00,FF,FE,00,00,00,00,00,
34657552,00000102,false,Rx,0,8,01,90,01,00,00,01,00,00,
34710175,00000527,false,Rx,0,6,06,04,B8,73,01,00,00,00,
34738619,00000108,false,Rx,0,8,01,58,02,7D,9A,01,00,00,
34738861,00000109,false,Rx,0,8,02,01,00,00,00,24,FF,FE,
34756247,00000524,false,Rx,0,6,03,0E,F8,FF,FF,FF,00,00,
34757049,00000100,false,Rx,0,8,00,00,00,00,9A,01,C8,00,
34757302,00000101,false,Rx,0,8,00,FF,FE,00,00,00,00,00,
34757549,00000102,false,Rx,0,8,01,90,01,00,00,01,00,00,
34790582,00000525,false,Rx,0,6,04,00,65,00,00,00,00,00,
34830961,00000523,false,Rx,0,6,02,0A,E8,FF,FF,FF,00,00,
34836514,00000108,false,Rx,0,8,01,58,02,7D,9A,01,00,00,
34836754,00000109,false,Rx,0,8,02,01,00,00,00,24,FF,FE,
34857046,00000100,false,Rx,0,8,00,00,00,00,9A,01,C8,00,
34857300,00000101,false,Rx,0,8,00,FF,FE,00,00,00,00,00,
34857546,00000102,false,Rx,0,8,01,90,01,00,00,01,00,00,
34938973,00000108,false,Rx,0,8,01,58,02,7D,9A,01,00,00,
34939208,00000109,false,Rx,0,8,02,01,00,00,00,24,FF,FE,
34957048,00000100,false,Rx,0,8,00,00,00,00,9A,01,C8,00,
34957296,00000101,false,Rx,0,8,00,FF,FE,00,00,00,00,00,
34957541,00000102,false,Rx,0,8,01,90,01,00,00,01,00,00,
34970318,00000526,false,Rx,0,6,05,0D,05,00,00,00,00,00,
35006490,00000522,false,Rx,0,6,01,03,26,AE,05,00,00,00,
35010529,00000521,false,Rx,0,6,00,0A,FA,FF,FF,FF,00,00,
35039098,00000108,false,Rx,0,8,01,58,02,7D,9A,01,00,00,
35039346,00000109,false,Rx,0,8,02,01,00,00,00,24,FF,FE,
35057045,00000100,false,Rx,0,8,00,00,00,00,9A,01,C8,00,
35057292,00000101,false,Rx,0,8,00,FF,FE,00,00,00,00,00,
35057544,00000102,false,Rx,0,8,01,90,01,00,00,01,00,00,
35138760,00000108,false,Rx,0,8,01,58,02,7D,9A,01,00,00,
35139007,00000109,false,Rx,0,8,02,01,00,00,00,24,FF,FE,
35157042,00000100,false,Rx,0,8,00,00,00,00,9A,01,C8,00,
35157289,00000101,false,Rx,0,8,00,FF,FE,00,00,00,00,00,
35157542,00000102,false,Rx,0,8,01,90,01,00,00,01,00,00,
35238763,00000108,false,Rx,0,8,01,58,02,7D,9A,01,00,00,
35239010,00000109,false,Rx,0,8,02,01,00,00,00,24,FF,FE,
35257039,00000100,false,Rx,0,8,00,00,00,00,9A,01,C8,00,
35257287,00000101,false,Rx,0,8,00,FF,FE,00,00,00,00,00,
35257539,00000102,false,Rx,0,8,01,90,01,00,00,01,00,00,
35295175,00000528,false,Rx,0,6,07,06,03,26,00,00,00,00,
35348672,00000108,false,Rx,0,8,01,58,02,7D,9A,01,00,00,
35348918,00000109,false,Rx,0,8,02,01,00,00,00,24,FF,FE,
35357035,00000100,false,Rx,0,8,00,00,00,00,9A,01,C8,00,
35357289,00000101,false,Rx,0,8,00,FF,FE,00,00,00,00,00,
35357535,00000102,false,Rx,0,8,01,90,01,00,00,01,00,00,
35424274,00000524,false,Rx,0,6,03,0F,F5,FF,FF,FF,00,00,
35432399,00000527,false,Rx,0,6,06,05,B8,73,01,00,00,00,
35457033,00000100,false,Rx,0,8,00,00,00,00,9A,01,C8,00,
35457287,00000101,false,Rx,0,8,00,FF,FE,00,00,00,00,00,
35457532,00000102,false,Rx,0,8,01,90,01,00,00,01,00,00,
35458945,00000108,false,Rx,0,8,01,58,02,7D,9A,01,00,00,
35459193,00000109,false,Rx,0,8,02,01,00,00,00,24,FF,FE,
35476747,00000525,false,Rx,0,6,04,01,65,00,00,00,00,00,
35480768,00000523,false,Rx,0,6,02,0B,ED,FF,FF,FF,00,00,
35557035,00000100,false,Rx,0,8,00,00,00,00,9A,01,C8,00,
35557283,00000101,false,Rx,0,8,00,FF,FE,00,00,00,00,00,
35557529,00000102,false,Rx,0,8,01,90,01,00,00,01,00,00,
35562606,00000108,false,Rx,0,8,01,58,02,7D,9A,01,00,00,
35562852,00000109,false,Rx,0,8,02,01,00,00,00,24,FF,FE,
35624047,00000521,false,Rx,0,6,00,0B,F3,FF,FF,FF,00,00,
35638170,00000522,false,Rx,0,6,01,04,27,AE,05,00,00,00,
35657029,00000100,false,Rx,0,8,00,00,00,00,9A,01,C8,00,
35657282,00000101,false,Rx,0,8,00,FF,FE,00,00,00,00,00,
35657526,00000102,false,Rx,0,8,01,90,01,00,00,01,00,00,
35662786,00000108,false,Rx,0,8,01,58,02,7D,9A,01,00,00,
35663025,00000109,false,Rx,0,8,02,01,00,00,00,24,FF,FE,
35674839,00000526,false,Rx,0,6,05,0E,04,00,00,00,00,00,
35757031,00000100,false,Rx,0,8,00,00,00,00,9A,01,C8,00,
35757278,00000101,false,Rx,0,8,00,FF,FE,00,00,00,00,00,
35757529,00000102,false,Rx,0,8,01,90,01,00,00,01,00,00,
35758848,00000108,false,Rx,0,8,01,58,02,7D,9A,01,00,00,
35759087,00000109,false,Rx,0,8,02,01,00,00,00,24,FF,FE,
35857028,00000100,false,Rx,0,8,00,00,00,00,9A,01,C8,00,
35857274,00000101,false,Rx,0,8,00,FF,FE,00,00,00,00,00,
35857525,00000102,false,Rx,0,8,01,90,01,00,00,01,00,00,
35858813,00000108,false,Rx,0,8,01,58,02,7D,9A,01,00,00,
35859053,00000109,false,Rx,0,8,02,01,00,00,00,24,FF,FE,
35957025,00000100,false,Rx,0,8,00,00,00,00,9A,01,C8,00,
35957272,00000101,false,Rx,0,8,00,FF,FE,00,00,00,00,00,
35957524,00000102,false,Rx,0,8,01,90,01,00,00,01,00,00,
35958789,00000108,false,Rx,0,8,01,58,02,7D,9A,01,00,00,
35959036,00000109,false,Rx,0,8,02,01,00,00,00,24,FF,FE,
36035842,00000528,false,Rx,0,6,07,07,03,26,00,00,00,00,
36057022,00000100,false,Rx,0,8,00,00,00,00,9A,01,C8,00,
36057273,00000101,false,Rx,0,8,00,FF,FE,00,00,00,00,00,
36057518,00000102,false,Rx,0,8,01,90,01,00,00,01,00,00,
36062923,00000108,false,Rx,0,8,01,58,02,7D,9A,01,00,00,
36063171,00000109,false,Rx,0,8,02,01,00,00,00,24,FF,FE,
36092281,00000524,false,Rx,0,6,03,00,EE,FF,FF,FF,00,00,
36130632,00000523,false,Rx,0,6,02,0C,DF,FF,FF,FF,00,00,
36154905,00000527,false,Rx,0,6,06,06,B8,73,01,00,00,00,
36157017,00000100,false,Rx,0,8,00,00,00,00,9A,01,C8,00,
36157270,00000101,false,Rx,0,8,00,FF,FE,00,00,00,00,00,
36157516,00000102,false,Rx,0,8,01,90,01,00,00,01,00,00,
36158823,00000108,false,Rx,0,8,01,58,02,7D,9A,01,00,00,
36159070,00000109,false,Rx,0,8,02,01,00,00,00,24,FF,FE,
36162975,00000525,false,Rx,0,6,04,02,65,00,00,00,00,00,
36237570,00000521,false,Rx,0,6,00,0C,FC,FF,FF,FF,00,00,
36250602,00000108,false,Rx,0,8,01,58,02,7D,9A,01,00,00,
36250848,00000109,false,Rx,0,8,02,01,00,00,00,24,FF,FE,
36257020,00000100,false,Rx,0,8,00,00,00,00,9A,01,C8,00,
36257268,00000101,false,Rx,0,8,00,FF,FE,00,00,00,00,00,
36257519,00000102,false,Rx,0,8,01,90,01,00,00,01,00,00,
36269874,00000522,false,Rx,0,6,01,05,2D,AE,05,00,00,00,
36357017,00000100,false,Rx,0,8,00,00,00,00,9A,01,C8,00,
36357264,00000101,false,Rx,0,8,00,FF,FE,00,00,00,00,00,
36357513,00000102,false,Rx,0,8,01,90,01,00,00,01,00,00,
36359229,00000108,false,Rx,0,8,01,58,02,7D,9A,01,00,00,
36359474,00000109,false,Rx,0,8,02,01,00,00,00,24,FF,FE,
36379195,00000526,false,Rx,0,6,05,0F,04,00,00,00,00,00,
36457015,00000100,false,Rx,0,8,00,00,00,00,9A,01,C8,00,
36457263,00000101,false,Rx,0,8,00,FF,FE,00,00,00,00,00,
36457512,00000102,false,Rx,0,8,01,90,01,00,00,01,00,00,
36462615,00000108,false,Rx,0,8,01,58,02,7D,9A,01,00,00,
36462854,00000109,false,Rx,0,8,02,01,00,00,00,24,FF,FE,
36557011,00000100,false,Rx,0,8,00,00,00,00,9A,01,C8,00,
36557265,00000101,false,Rx,0,8,00,FF,FE,00,00,00,00,00,
36557508,00000102,false,Rx,0,8,01,90,01,00,00,01,00,00,
36562654,00000108,false,Rx,0,8,01,58,02,7D,9A,01,00,00,
36562900,00000109,false,Rx,0,8,02,01,00,00,00,24,FF,FE,
36657007,00000100,false,Rx,0,8,00,00,00,00,9A,01,C8,00,
36657261,00000101,false,Rx,0,8,00,FF,FE,00,00,00,00,00,
36657510,00000102,false,Rx,0,8,01,90,01,00,00,01,00,00,
36662599,00000108,false,Rx,0,8,01,58,02,7D,9A,01,00,00,
36662846,00000109,false,Rx,0,8,02,01,00,00,00,24,FF,FE,
36757009,00000100,false,Rx,0,8,00,00,00,00,9A,01,C8,00,
36757257,00000101,false,Rx,0,8,00,FF,FE,00,00,00,00,00,
36757509,00000102,false,Rx,0,8,01,90,01,00,00,01,00,00,
36760309,00000524,false,Rx,0,6,03,01,F0,FF,FF,FF,00,00,
36762767,00000108,false,Rx,0,8,01,58,02,7D,9A,01,00,00,
36763014,00000109,false,Rx,0,8,02,01,00,00,00,24,FF,FE,
36776774,00000528,false,Rx,0,6,07,08,03,26,00,00,00,00,
36780473,00000523,false,Rx,0,6,02,0D,DF,FF,FF,FF,00,00,
36849111,00000525,false,Rx,0,6,04,03,65,00,00,00,00,00,
36851106,00000521,false,Rx,0,6,00,0D,FA,FF,FF,FF,00,00,
36854775,00000108,false,Rx,0,8,01,58,02,7D,9A,01,00,00,
36855022,00000109,false,Rx,0,8,02,01,00,00,00,24,FF,FE,
36857005,00000100,false,Rx,0,8,00,00,00,00,9A,01,C8,00,
36857258,00000101,false,Rx,0,8,00,FF,FE,00,00,00,00,00,
36857504,00000102,false,Rx,0,8,01,90,01,00,00,01,00,00,
36877408,00000527,false,Rx,0,6,06,07,B8,73,01,00,00,00,
36901559,00000522,false,Rx,0,6,01,06,24,AE,05,00,00,00,
36949395,00000108,false,Rx,0,8,01,58,02,7D,9A,01,00,00,
36949635,00000109,false,Rx,0,8,02,01,00,00,00,24,FF,FE,
36957003,00000100,false,Rx,0,8,00,00,00,00,9A,01,C8,00,
36957250,00000101,false,Rx,0,8,00,FF,FE,00,00,00,00,00,
36957502,00000102,false,Rx,0,8,01,90,01,00,00,01,00,00,
37049737,00000108,false,Rx,0,8,01,58,02,7D,9A,01,00,00,
37049978,00000109,false,Rx,0,8,02,01,00,00,00,24,FF,FE,
37057002,00000100,false,Rx,0,8,00,00,00,00,9A,01,C8,00,
37057250,00000101,false,Rx,0,8,00,FF,FE,00,00,00,00,00,
37057502,00000102,false,Rx,0,8,01,90,01,00,00,01,00,00,
37083502,00000526,false,Rx,0,6,05,00,07,00,00,00,00,00,
37156996,00000100,false,Rx,0,8,00,00,00,00,9A,01,C8,00,
37157251,00000101,false,Rx,0,8,00,FF,FE,00,00,00,00,00,
37157497,00000102,false,Rx,0,8,01,90,01,00,00,01,00,00,
37158886,00000108,false,Rx,0,8,01,58,02,7D,9A,01,00,00,
37159126,00000109,false,Rx,0,8,02,01,00,00,00,24,FF,FE,
37256995,00000100,false,Rx,0,8,00,00,00,00,9A,01,C8,00,
37257249,00000101,false,Rx,0,8,00,FF,FE,00,00,00,00,00,
37257495,00000102,false,Rx,0,8,01,90,01,00,00,01,00,00,
37258835,00000108,false,Rx,0,8,01,58,02,7D,9A,01,00,00,
37259075,00000109,false,Rx,0,8,02,01,00,00,00,24,FF,FE,
37356997,00000100,false,Rx,0,8,00,00,00,00,9A,01,C8,00,
37357245,00000101,false,Rx,0,8,00,FF,FE,00,00,00,00,00,
37357491,00000102,false,Rx,0,8,01,90,01,00,00,01,00,00,
37358879,00000108,false,Rx,0,8,01,58,02,7D,9A,01,00,00,
37359119,00000109,false,Rx,0,8,02,01,00,00,00,24,FF,FE,
37428334,00000524,false,Rx,0,6,03,02,F0,FF,FF,FF,00,00,
37430353,00000523,false,Rx,0,6,02,0E,EB,FF,FF,FF,00,00,
37456997,00000100,false,Rx,0,8,00,00,00,00,9A,01,C8,00,
37457244,00000101,false,Rx,0,8,00,FF,FE,00,00,00,00,00,
37457490,00000102,false,Rx,0,8,01,90,01,00,00,01,00,00,
37460232,00000108,false,Rx,0,8,01,58,02,7D,9A,01,00,00,
37460478,00000109,false,Rx,0,8,02,01,00,00,00,24,FF,FE,
37464683,00000521,false,Rx,0,6,00,0E,F7,FF,FF,FF,00,00,
37517203,00000528,false,Rx,0,6,07,09,03,26,00,00,00,00,
37533278,00000522,false,Rx,0,6,01,07,28,AE,05,00,00,00,
37535316,00000525,false,Rx,0,6,04,04,65,00,00,00,00,00,
37556992,00000100,false,Rx,0,8,00,00,00,00,9A,01,C8,00,
37557242,00000101,false,Rx,0,8,00,FF,FE,00,00,00,00,00,
37557488,00000102,false,Rx,0,8,01,90,01,00,00,01,00,00,
37562577,00000108,false,Rx,0,8,01,58,02,7D,9A,01,00,00,
37562823,00000109,false,Rx,0,8,02,01,00,00,00,24,FF,FE,
37599943,00000527,false,Rx,0,6,06,08,B8,73,01,00,00,00,
37656987,00000100,false,Rx,0,8,00,00,00,00,9A,01,C8,00,
37657241,00000101,false,Rx,0,8,00,FF,FE,00,00,00,00,00,
37657487,00000102,false,Rx,0,8,01,90,01,00,00,01,00,00,
37662590,00000108,false,Rx,0,8,01,58,02,7D,9A,01,00,00,
37662830,00000109,false,Rx,0,8,02,00,00,00,00,24,FF,FE,
37756991,00000100,false,Rx,0,8,00,00,00,00,9A,01,C8,00,
37757249,00000101,false,Rx,0,8,00,FF,FE,00,00,00,00,00,
37757484,00000102,false,Rx,0,8,01,90,01,00,00,01,00,00,
37762628,00000108,false,Rx,0,8,01,58,02,7D,9A,01,00,00,
37762874,00000109,false,Rx,0,8,02,01,00,00,00,24,FF,FE,
37787726,00000526,false,Rx,0,6,05,01,00,00,00,00,00,00,
37856983,00000100,false,Rx,0,8,00,00,00,00,9A,01,C8,00,
37857237,00000101,false,Rx,0,8,00,FF,FE,00,00,00,00,00,
37857486,00000102,false,Rx,0,8,01,90,01,00,00,01,00,00,
37859530,00000108,false,Rx,0,8,01,58,02,7D,9A,01,00,00,
37859769,00000109,false,Rx,0,8,02,01,00,00,00,24,FF,FE,
37956984,00000100,false,Rx,0,8,00,00,00,00,9A,01,C8,00,
37957232,00000101,false,Rx,0,8,00,FF,FE,00,00,00,00,00,
37957480,00000102,false,Rx,0,8,01,90,01,00,00,01,00,00,
37959116,00000108,false,Rx,0,8,01,58,02,7D,9A,01,00,00,
37959356,00000109,false,Rx,0,8,02,04,00,00,00,24,FF,FE,
38056978,00000100,false,Rx,0,8,00,00,00,00,9A,01,C8,00,
38057232,00000101,false,Rx,0,8,00,FF,FE,00,00,00,00,00,
38057498,00000102,false,Rx,0,8,01,90,01,00,00,01,00,00,
38059096,00000108,false,Rx,0,8,01,58,02,7D,9A,01,00,00,
38059337,00000109,false,Rx,0,8,02,04,00,00,00,24,FF,FE,
38078217,00000521,false,Rx,0,6,00,0F,F6,FF,FF,FF,00,00,
38080249,00000523,false,Rx,0,6,02,0F,F0,FF,FF,FF,00,00,
38096404,00000524,false,Rx,0,6,03,03,F7,FF,FF,FF,00,00,
38156980,00000100,false,Rx,0,8,00,00,00,00,9A,01,C8,00,
38157227,00000101,false,Rx,0,8,00,FF,FE,00,00,00,00,00,
38157476,00000102,false,Rx,0,8,01,90,01,00,00,01,00,00,
38159311,00000108,false,Rx,0,8,01,58,02,7D,9A,01,00,00,
38159551,00000109,false,Rx,0,8,02,04,00,00,00,24,FF,FE,
38164999,00000522,false,Rx,0,6,01,08,21,AE,05,00,00,00,
38221804,00000525,false,Rx,0,6,04,05,65,00,00,00,00,00,
38256978,00000100,false,Rx,0,8,00,00,00,00,9A,01,C8,00,
38257226,00000101,false,Rx,0,8,00,FF,FE,00,00,00,00,00,
38257475,00000102,false,Rx,0,8,01,90,01,00,00,01,00,00,
38258149,00000528,false,Rx,0,6,07,0A,03,26,00,00,00,00,
38262916,00000108,false,Rx,0,8,01,58,02,7D,9A,01,00,00,
38263170,00000109,false,Rx,0,8,02,04,00,00,00,24,FF,FE,
38322503,00000527,false,Rx,0,6,06,09,B8,73,01,00,00,00,
38356972,00000100,false,Rx,0,8,00,00,00,00,9A,01,C8,00,
38357226,00000101,false,Rx,0,8,00,FF,FE,00,00,00,00,00,
38357472,00000102,false,Rx,0,8,01,90,01,00,00,01,00,00,
38362484,00000108,false,Rx,0,8,01,58,02,7D,9A,01,00,00,
38362730,00000109,false,Rx,0,8,02,04,00,00,00,24,FF,FE,
38456970,00000100,false,Rx,0,8,00,00,00,00,9A,01,C8,00,
38457225,00000101,false,Rx,0,8,00,FF,FE,00,00,00,00,00,
38457471,00000102,false,Rx,0,8,01,90,01,00,00,01,00,00,
38463077,00000108,false,Rx,0,8,01,58,02,7D,9A,01,00,00,
38463318,00000109,false,Rx,0,8,02,04,00,00,00,24,FF,FE,
38492288,00000526,false,Rx,0,6,05,02,03,00,00,00,00,00,
38556969,00000100,false,Rx,0,8,00,00,00,00,9A,01,C8,00,
38557217,00000101,false,Rx,0,8,00,FF,FE,00,00,00,00,00,
38557468,00000102,false,Rx,0,8,01,90,01,00,00,01,00,00,
38558770,00000108,false,Rx,0,8,01,58,02,7D,9A,01,00,00,
38559017,00000109,false,Rx,0,8,02,04,00,00,00,24,FF,FE,
38656971,00000100,false,Rx,0,8,00,00,00,00,9A,01,C8,00,
38657218,00000101,false,Rx,0,8,00,FF,FE,00,00,00,00,00,
38657464,00000102,false,Rx,0,8,01,90,01,00,00,01,00,00,
38658994,00000108,false,Rx,0,8,01,58,02,7D,9A,01,00,00,
38659235,00000109,false,Rx,0,8,02,04,00,00,00,24,FF,FE,
38691775,00000521,false,Rx,0,6,00,00,F9,FF,FF,FF,00,00,
38730110,00000523,false,Rx,0,6,02,00,F0,FF,FF,FF,00,00,
38756968,00000100,false,Rx,0,8,00,00,00,00,9A,01,C8,00,
38757215,00000101,false,Rx,0,8,00,FF,FE,00,00,00,00,00,
38757467,00000102,false,Rx,0,8,01,90,01,00,00,01,00,00,
38758888,00000108,false,Rx,0,8,01,58,02,7D,9A,01,00,00,
38759143,00000109,false,Rx,0,8,02,62,00,00,00,24,FF,FE,
38764436,00000524,false,Rx,0,6,03,04,F6,FF,FF,FF,00,00,
38796708,00000522,false,Rx,0,6,01,09,21,AE,05,00,00,00,
38856967,00000100,false,Rx,0,8,00,00,00,00,9A,01,C8,00,
38857215,00000101,false,Rx,0,8,00,FF,FE,00,00,00,00,00,
38857461,00000102,false,Rx,0,8,01,90,01,00,00,01,00,00,
38862537,00000108,false,Rx,0,8,01,58,02,7D,9A,01,00,00,
38862783,00000109,false,Rx,0,8,02,62,00,00,00,24,FF,FE,
38907745,00000525,false,Rx,0,6,04,06,65,00,00,00,00,00,
38956965,00000100,false,Rx,0,8,00,00,00,00,9A,01,C8,00,
38957213,00000101,false,Rx,0,8,00,FF,FE,00,00,00,00,00,
38957459,00000102,false,Rx,0,8,01,90,01,00,00,01,00,00,
38959258,00000108,false,Rx,0,8,01,58,02,7D,9A,01,00,00,
38959498,00000109,false,Rx,0,8,02,F7,01,00,00,24,FF,FE,
38998618,00000528,false,Rx,0,6,07,0B,03,26,00,00,00,00,
39045038,00000527,false,Rx,0,6,06,0A,B8,73,01,00,00,00,
39053928,00000108,false,Rx,0,8,01,58,02,7D,9A,01,00,00,
39054169,00000109,false,Rx,0,8,02,F7,01,00,00,24,FF,FE,
39056961,00000100,false,Rx,0,8,00,00,00,00,9A,01,C8,00,
39057209,00000101,false,Rx,0,8,00,FF,FE,00,00,00,00,00,
39057454,00000102,false,Rx,0,8,01,90,01,00,00,01,00,00,
39156961,00000100,false,Rx,0,8,00,00,00,00,9A,01,C8,00,
39157208,00000101,false,Rx,0,8,00,FF,FE,00,00,00,00,00,
39157454,00000102,false,Rx,0,8,01,90,01,00,00,01,00,00,
39159474,00000108,false,Rx,0,8,01,58,02,7D,9A,01,00,00,
39159714,00000109,false,Rx,0,8,02,F7,01,00,00,24,FF,FE,
39196489,00000526,false,Rx,0,6,05,03,07,00,00,00,00,00,
39256959,00000100,false,Rx,0,8,00,00,00,00,9A,01,C8,00,
39257207,00000101,false,Rx,0,8,00,FF,FE,00,00,00,00,00,
39257454,00000102,false,Rx,0,8,01,90,01,00,00,01,00,00,
39262642,00000108,false,Rx,0,8,01,58,02,7D,9A,01,00,00,
39262882,00000109,false,Rx,0,8,02,F7,01,00,00,24,FF,FE,
39305312,00000521,false,Rx,0,6,00,01,F9,FF,FF,FF,00,00,
39356961,00000100,false,Rx,0,8,00,00,00,00,9A,01,C8,00,
39357202,00000101,false,Rx,0,8,00,FF,FE,00,00,00,00,00,
39357454,00000102,false,Rx,0,8,01,90,01,00,00,01,00,00,
39359362,00000108,false,Rx,0,8,01,58,02,7D,9A,01,00,00,
39359596,00000109,false,Rx,0,8,02,F7,01,00,00,24,FF,FE,
39379996,00000523,false,Rx,0,6,02,01,E9,FF,FF,FF,00,00,
39428429,00000522,false,Rx,0,6,01,0A,30,AE,05,00,00,00,
39432523,00000524,false,Rx,0,6,03,05,F8,FF,FF,FF,00,00,
39456952,00000100,false,Rx,0,8,00,00,00,00,9A,01,C8,00,
39457205,00000101,false,Rx,0,8,00,FF,FE,00,00,00,00,00,
39457451,00000102,false,Rx,0,8,01,90,01,00,00,01,00,00,
39470035,00000108,false,Rx,0,8,01,58,02,7D,9A,01,00,00,
39470270,00000109,false,Rx,0,8,02,F7,01,00,00,24,FF,FE,
39556948,00000100,false,Rx,0,8,00,00,00,00,9A,01,C8,00,
39557203,00000101,false,Rx,0,8,00,FF,FE,00,00,00,00,00,
39557448,00000102,false,Rx,0,8,01,90,01,00,00,01,00,00,
39562599,00000108,false,Rx,0,8,01,58,02,7D,9A,01,00,00,
39562839,00000109,false,Rx,0,8,02,F7,01,00,00,24,FF,FE,
39593942,00000525,false,Rx,0,6,04,07,65,00,00,00,00,00,
39656949,00000100,false,Rx,0,8,00,00,00,00,9A,01,C8,00,
39657197,00000101,false,Rx,0,8,00,FF,FE,00,00,00,00,00,
39657446,00000102,false,Rx,0,8,01,90,01,00,00,01,00,00,
39662528,00000108,false,Rx,0,8,01,58,02,7D,9A,01,00,00,
39662768,00000109,false,Rx,0,8,02,F7,01,00,00,24,FF,FE,
39739302,00000528,false,Rx,0,6,07,0C,03,26,00,00,00,00,
39756950,00000100,false,Rx,0,8,00,00,00,00,9A,01,C8,00,
39757197,00000101,false,Rx,0,8,00,FF,FE,00,00,00,00,00,
39757442,00000102,false,Rx,0,8,01,90,01,00,00,01,00,00,
39762480,00000108,false,Rx,0,8,01,58,02,7D,9A,01,00,00,
39762713,00000109,false,Rx,0,8,02,F7,01,00,00,24,FF,FE,
39767858,00000527,false,Rx,0,6,06,0B,B8,73,01,00,00,00,
39856946,00000100,false,Rx,0,8,00,00,00,00,9A,01,C8,00,
39857192,00000101,false,Rx,0,8,00,FF,FE,00,00,00,00,00,
39857441,00000102,false,Rx,0,8,01,90,01,00,00,01,00,00,
39859299,00000108,false,Rx,0,8,01,58,02,7D,9A,01,00,00,
39859539,00000109,false,Rx,0,8,02,F7,01,00,00,24,FF,FE,
39901028,00000526,false,Rx,0,6,05,04,08,00,00,00,00,00,
39919125,00000521,false,Rx,0,6,00,02,F8,FF,FF,FF,00,00,
39956943,00000100,false,Rx,0,8,00,00,00,00,9A,01,C8,00,
39957191,00000101,false,Rx,0,8,00,FF,FE,00,00,00,00,00,
39957442,00000102,false,Rx,0,8,01,90,01,00,00,01,00,00,
39962471,00000108,false,Rx,0,8,01,58,02,7D,9A,01,00,00,
39962717,00000109,false,Rx,0,8,02,F8,01,00,00,24,FF,FE,
40029860,00000523,false,Rx,0,6,02,02,E2,FF,FF,FF,00,00,
40056939,00000100,false,Rx,0,8,00,00,00,00,9A,01,C8,00,
40057187,00000101,false,Rx,0,8,00,FF,FE,00,00,00,00,00,
40057439,00000102,false,Rx,0,8,01,90,01,00,00,01,00,00,
40059212,00000108,false,Rx,0,8,01,58,02,7D,9A,01,00,00,
40059459,00000109,false,Rx,0,8,02,F8,01,00,00,24,FF,FE,
40060118,00000522,false,Rx,0,6,01,0B,31,AE,05,00,00,00,
40100775,00000524,false,Rx,0,6,03,06,F4,FF,FF,FF,00,00,
40156935,00000100,false,Rx,0,8,00,00,00,00,9A,01,C8,00,
40157189,00000101,false,Rx,0,8,00,FF,FE,00,00,00,00,00,
40157443,00000102,false,Rx,0,8,01,90,01,00,00,01,00,00,
40162535,00000108,false,Rx,0,8,01,58,02,7D,9A,01,00,00,
40162774,00000109,false,Rx,0,8,02,F8,01,00,00,24,FF,FE,
40256932,00000100,false,Rx,0,8,00,00,00,00,9A,01,C8,00,
40257187,00000101,false,Rx,0,8,00,FF,FE,00,00,00,00,00,
40257433,00000102,false,Rx,0,8,01,90,01,00,00,01,00,00,
40262626,00000108,false,Rx,0,8,01,58,02,7D,9A,01,00,00,
40262865,00000109,false,Rx,0,8,02,F8,01,00,00,24,FF,FE,
40280411,00000525,false,Rx,0,6,04,08,65,00,00,00,00,00,
40356935,00000100,false,Rx,0,8,00,00,00,00,9A,01,C8,00,
40357182,00000101,false,Rx,0,8,00,FF,FE,00,00,00,00,00,
40357434,00000102,false,Rx,0,8,01,90,01,00,00,01,00,00,
40363228,00000108,false,Rx,0,8,01,58,02,7D,9A,01,00,00,
40363474,00000109,false,Rx,0,8,02,F8,01,00,00,24,FF,FE,
40456928,00000100,false,Rx,0,8,00,00,00,00,9A,01,C8,00,
40457182,00000101,false,Rx,0,8,00,FF,FE,00,00,00,00,00,
40457428,00000102,false,Rx,0,8,01,90,01,00,00,01,00,00,
40458761,00000108,false,Rx,0,8,01,58,02,7D,9A,01,00,00,
40459002,00000109,false,Rx,0,8,02,F8,01,00,00,24,FF,FE,
40479989,00000528,false,Rx,0,6,07,0D,03,26,00,00,00,00,
40490070,00000527,false,Rx,0,6,06,0C,B8,73,01,00,00,00,
40532379,00000521,false,Rx,0,6,00,03,F9,FF,FF,FF,00,00,
40556932,00000100,false,Rx,0,8,00,00,00,00,9A,01,C8,00,
40557179,00000101,false,Rx,0,8,00,FF,FE,00,00,00,00,00,
40557425,00000102,false,Rx,0,8,01,90,01,00,00,01,00,00,
40558816,00000108,false,Rx,0,8,01,58,02,7D,9A,01,00,00,
40559057,00000109,false,Rx,0,8,02,F7,01,00,00,24,FF,FE,
40605373,00000526,false,Rx,0,6,05,05,07,00,00,00,00,00,
40656927,00000100,false,Rx,0,8,00,00,00,00,9A,01,C8,00,
40657181,00000101,false,Rx,0,8,00,FF,FE,00,00,00,00,00,
40657427,00000102,false,Rx,0,8,01,90,01,00,00,01,00,00,
40662824,00000108,false,Rx,0,8,01,58,02,7D,9A,01,00,00,
40663064,00000109,false,Rx,0,8,02,F7,01,00,00,24,FF,FE,
40679720,00000523,false,Rx,0,6,02,03,E2,FF,FF,FF,00,00,
40691816,00000522,false,Rx,0,6,01,0C,36,AE,05,00,00,00,
40756925,00000100,false,Rx,0,8,00,00,00,00,9A,01,C8,00,
40757179,00000101,false,Rx,0,8,00,FF,FE,00,00,00,00,00,
40757425,00000102,false,Rx,0,8,01,90,01,00,00,01,00,00,
40758952,00000108,false,Rx,0,8,01,58,02,7D,9A,01,00,00,
40759187,00000109,false,Rx,0,8,02,F7,01,00,00,24,FF,FE,
40768528,00000524,false,Rx,0,6,03,07,F3,FF,FF,FF,00,00,
40856922,00000100,false,Rx,0,8,00,00,00,00,9A,01,C8,00,
40857176,00000101,false,Rx,0,8,00,FF,FE,00,00,00,00,00,
40857422,00000102,false,Rx,0,8,01,90,01,00,00,01,00,00,
40858942,00000108,false,Rx,0,8,01,58,02,7D,9A,01,00,00,
40859176,00000109,false,Rx,0,8,02,F7,01,00,00,24,FF,FE,
40956920,00000100,false,Rx,0,8,00,00,00,00,9A,01,C8,00,
40957169,00000101,false,Rx,0,8,00,FF,FE,00,00,00,00,00,
40957421,00000102,false,Rx,0,8,01,90,01,00,00,01,00,00,
40959600,00000108,false,Rx,0,8,01,58,02,7D,9A,01,00,00,
40959840,00000109,false,Rx,0,8,02,F8,01,00,00,24,FF,FE,
40966315,00000525,false,Rx,0,6,04,09,65,00,00,00,00,00,
41056922,00000100,false,Rx,0,8,00,00,00,00,9A,01,C8,00,
41057170,00000101,false,Rx,0,8,00,FF,FE,00,00,00,00,00,
41057415,00000102,false,Rx,0,8,01,90,01,00,00,01,00,00,
41058933,00000108,false,Rx,0,8,01,58,02,7D,9A,01,00,00,
41059174,00000109,false,Rx,0,8,02,F8,01,00,00,24,FF,FE,
41145912,00000521,false,Rx,0,6,00,04,F9,FF,FF,FF,00,00,
41151671,00000108,false,Rx,0,8,01,58,02,7D,9A,01,00,00,
41151910,00000109,false,Rx,0,8,02,F8,01,00,00,24,FF,FE,
41156919,00000100,false,Rx,0,8,00,00,00,00,9A,01,C8,00,
41157166,00000101,false,Rx,0,8,00,FF,FE,00,00,00,00,00,
41157411,00000102,false,Rx,0,8,01,90,01,00,00,01,00,00,
41212579,00000527,false,Rx,0,6,06,0D,B8,73,01,00,00,00,
41220665,00000528,false,Rx,0,6,07,0E,03,26,00,00,00,00,
41248818,00000108,false,Rx,0,8,01,58,02,7D,9A,01,00,00,
41249065,00000109,false,Rx,0,8,02,F8,01,00,00,24,FF,FE,
41256915,00000100,false,Rx,0,8,00,00,00,00,9A,01,C8,00,
41257169,00000101,false,Rx,0,8,00,FF,FE,00,00,00,00,00,
41257415,00000102,false,Rx,0,8,01,90,01,00,00,01,00,00,
41309749,00000526,false,Rx,0,6,05,06,FF,FF,FF,FF,00,00,
41323503,00000522,false,Rx,0,6,01,0D,35,AE,05,00,00,00,
41329574,00000523,false,Rx,0,6,02,04,F3,FF,FF,FF,00,00,
41356913,00000100,false,Rx,0,8,00,00,00,00,9A,01,C8,00,
41357173,00000101,false,Rx,0,8,00,FF,FE,00,00,00,00,00,
41357413,00000102,false,Rx,0,8,01,90,01,00,00,01,00,00,
41358851,00000108,false,Rx,0,8,01,58,02,7D,9A,01,00,00,
41359098,00000109,false,Rx,0,8,02,F8,01,00,00,24,FF,FE,
41436542,00000524,false,Rx,0,6,03,08,E6,FF,FF,FF,00,00,
41456912,00000100,false,Rx,0,8,00,00,00,00,9A,01,C8,00,
41457166,00000101,false,Rx,0,8,00,FF,FE,00,00,00,00,00,
41457405,00000102,false,Rx,0,8,01,90,01,00,00,01,00,00,
41509208,00000108,false,Rx,0,8,01,58,02,7D,9A,01,00,00,
41509447,00000109,false,Rx,0,8,02,F8,01,00,00,24,FF,FE,
41556912,00000100,false,Rx,0,8,00,00,00,00,9A,01,C8,00,
41557166,00000101,false,Rx,0,8,00,FF,FE,00,00,00,00,00,
41557407,00000102,false,Rx,0,8,01,90,01,00,00,01,00,00,
41619076,00000108,false,Rx,0,8,01,58,02,7D,9A,01,00,00,
41619317,00000109,false,Rx,0,8,02,F8,01,00,00,24,FF,FE,
41652501,00000525,false,Rx,0,6,04,0A,65,00,00,00,00,00,
41656910,00000100,false,Rx,0,8,00,00,00,00,9A,01,C8,00,
41657165,00000101,false,Rx,0,8,00,FF,FE,00,00,00,00,00,
41657405,00000102,false,Rx,0,8,01,90,01,00,00,01,00,00,
41728993,00000108,false,Rx,0,8,01,58,02,7D,9A,01,00,00,
41729234,00000109,false,Rx,0,8,02,F8,01,00,00,24,FF,FE,
41756907,00000100,false,Rx,0,8,00,00,00,00,9A,01,C8,00,
41757161,00000101,false,Rx,0,8,00,FF,FE,00,00,00,00,00,
41757400,00000102,false,Rx,0,8,01,90,01,00,00,01,00,00,
41759432,00000521,false,Rx,0,6,00,05,FB,FF,FF,FF,00,00,
41838990,00000108,false,Rx,0,8,01,58,02,7D,9A,01,00,00,
41839232,00000109,false,Rx,0,8,02,F8,01,00,00,24,FF,FE,
41856903,00000100,false,Rx,0,8,00,00,00,00,9A,01,C8,00,
41857149,00000101,false,Rx,0,8,00,FF,FE,00,00,00,00,00,
41857410,00000102,false,Rx,0,8,01,90,01,00,00,01,00,00,
41935076,00000527,false,Rx,0,6,06,0E,B8,73,01,00,00,00,
41938985,00000108,false,Rx,0,8,01,58,02,7D,9A,01,00,00,
41939226,00000109,false,Rx,0,8,02,F8,01,00,00,24,FF,FE,
41955186,00000522,false,Rx,0,6,01,0E,32,AE,05,00,00,00,
41956901,00000100,false,Rx,0,8,00,00,00,00,9A,01,C8,00,
41957148,00000101,false,Rx,0,8,00,FF,FE,00,00,00,00,00,
41957408,00000102,false,Rx,0,8,01,90,01,00,00,01,00,00,
41961325,00000528,false,Rx,0,6,07,0F,03,26,00,00,00,00,
41979413,00000523,false,Rx,0,6,02,05,EF,FF,FF,FF,00,00,
42013880,00000526,false,Rx,0,6,05,07,05,00,00,00,00,00,
42038841,00000108,false,Rx,0,8,01,58,02,7D,9A,01,00,00,
42039082,00000109,false,Rx,0,8,02,F8,01,00,00,24,FF,FE,
42056898,00000100,false,Rx,0,8,00,00,00,00,9A,01,C8,00,
42057152,00000101,false,Rx,0,8,00,FF,FE,00,00,00,00,00,
42057398,00000102,false,Rx,0,8,01,90,01,00,00,01,00,00,
42104545,00000524,false,Rx,0,6,03,09,E1,FF,FF,FF,00,00,
42148885,00000108,false,Rx,0,8,01,58,02,7D,9A,01,00,00,
42149126,00000109,false,Rx,0,8,02,F8,01,00,00,24,FF,FE,
42156897,00000100,false,Rx,0,8,00,00,00,00,9A,01,C8,00,
42157150,00000101,false,Rx,0,8,00,FF,FE,00,00,00,00,00,
42157396,00000102,false,Rx,0,8,01,90,01,00,00,01,00,00,
42248873,00000108,false,Rx,0,8,01,58,02,7D,9A,01,00,00,
42249114,00000109,false,Rx,0,8,02,F8,01,00,00,24,FF,FE,
42256891,00000100,false,Rx,0,8,00,00,00,00,9A,01,C8,00,
42257150,00000101,false,Rx,0,8,00,FF,FE,00,00,00,00,00,
42257390,00000102,false,Rx,0,8,01,90,01,00,00,01,00,00,
42338935,00000525,false,Rx,0,6,04,0B,65,00,00,00,00,00,
42344681,00000108,false,Rx,0,8,01,58,02,7D,9A,01,00,00,
42344922,00000109,false,Rx,0,8,02,F8,01,00,00,24,FF,FE,
42356891,00000100,false,Rx,0,8,00,00,00,00,9A,01,C8,00,
42357151,00000101,false,Rx,0,8,00,FF,FE,00,00,00,00,00,
42357391,00000102,false,Rx,0,8,01,90,01,00,00,01,00,00,
42372960,00000521,false,Rx,0,6,00,06,F4,FF,FF,FF,00,00,
42439098,00000108,false,Rx,0,8,01,58,02,7D,9A,01,00,00,
42439339,00000109,false,Rx,0,8,02,F8,01,00,00,24,FF,FE,
42456890,00000100,false,Rx,0,8,00,00,00,00,9A,01,C8,00,
42457151,00000101,false,Rx,0,8,00,FF,FE,00,00,00,00,00,
42457391,00000102,false,Rx,0,8,01,90,01,00,00,01,00,00,
42538839,00000108,false,Rx,0,8,01,58,02,7D,9A,01,00,00,
42539079,00000109,false,Rx,0,8,02,F8,01,00,00,24,FF,FE,
42556889,00000100,false,Rx,0,8,00,00,00,00,9A,01,C8,00,
42557143,00000101,false,Rx,0,8,00,FF,FE,00,00,00,00,00,
42557390,00000102,false,Rx,0,8,01,90,01,00,00,01,00,00,
42586872,00000522,false,Rx,0,6,01,0F,34,AE,05,00,00,00,
42629265,00000523,false,Rx,0,6,02,06,EF,FF,FF,FF,00,00,
42635438,00000108,false,Rx,0,8,01,58,02,7D,9A,01,00,00,
42635679,00000109,false,Rx,0,8,02,F8,01,00,00,24,FF,FE,
42656886,00000100,false,Rx,0,8,00,00,00,00,9A,01,C8,00,
42657146,00000101,false,Rx,0,8,00,FF,FE,00,00,00,00,00,
42657386,00000102,false,Rx,0,8,01,90,01,00,00,01,00,00,
42657594,00000527,false,Rx,0,6,06,0F,B8,73,01,00,00,00,
42702268,00000528,false,Rx,0,6,07,00,03,26,00,00,00,00,
42718379,00000526,false,Rx,0,6,05,08,07,00,00,00,00,00,
42748897,00000108,false,Rx,0,8,01,58,02,7D,9A,01,00,00,
42749150,00000109,false,Rx,0,8,02,F8,01,00,00,24,FF,FE,
42756882,00000100,false,Rx,0,8,00,00,00,00,9A,01,C8,00,
42757143,00000101,false,Rx,0,8,00,FF,FE,00,00,00,00,00,
42757383,00000102,false,Rx,0,8,01,90,01,00,00,01,00,00,
42772564,00000524,false,Rx,0,6,03,0A,F6,FF,FF,FF,00,00,
42856883,00000100,false,Rx,0,8,00,00,00,00,9A,01,C8,00,
