Time Stamp,ID,Extended,Dir,Bus,LEN,D1,D2,D3,D4,D5,D6,D7,D8
6078097,00000528,false,Rx,0,6,07,0B,67,0D,00,00,00,00,
6192916,00000526,false,Rx,0,6,05,06,0A,00,00,00,00,00,
6202850,00000524,false,Rx,0,6,03,09,ED,FF,FF,FF,00,00,
6220949,00000523,false,Rx,0,6,02,06,F8,FF,FF,FF,00,00,
6285362,00000521,false,Rx,0,6,00,08,05,00,00,00,00,00,
6454552,00000527,false,Rx,0,6,06,00,05,81,00,00,00,00,
6499011,00000522,false,Rx,0,6,01,06,05,D6,05,00,00,00,
6607498,00000525,false,Rx,0,6,04,0F,BB,00,00,00,00,00,
6816906,00000528,false,Rx,0,6,07,0C,67,0D,00,00,00,00,
6869224,00000523,false,Rx,0,6,02,07,F9,FF,FF,FF,00,00,
6869452,00000524,false,Rx,0,6,03,0A,F9,FF,FF,FF,00,00,
6895671,00000526,false,Rx,0,6,05,07,03,00,00,00,00,00,
6897350,00000521,false,Rx,0,6,00,09,03,00,00,00,00,00,
7128860,00000522,false,Rx,0,6,01,07,06,D6,05,00,00,00,
7175245,00000527,false,Rx,0,6,06,01,05,81,00,00,00,00,
7291956,00000525,false,Rx,0,6,04,00,BA,00,00,00,00,00,
7509335,00000521,false,Rx,0,6,00,0A,10,00,00,00,00,00,
7517390,00000523,false,Rx,0,6,02,08,EB,FF,FF,FF,00,00,
7535516,00000524,false,Rx,0,6,03,0B,EF,FF,FF,FF,00,00,
7556119,00000528,false,Rx,0,6,07,0D,67,0D,00,00,00,00,
7598059,00000526,false,Rx,0,6,05,08,09,00,00,00,00,00,
7758954,00000522,false,Rx,0,6,01,08,02,D6,05,00,00,00,
7895923,00000527,false,Rx,0,6,06,02,05,81,00,00,00,00,
7976401,00000525,false,Rx,0,6,04,01,BB,00,00,00,00,00,
8121303,00000521,false,Rx,0,6,00,0B,07,00,00,00,00,00,
8165605,00000523,false,Rx,0,6,02,09,EB,FF,FF,FF,00,00,
8201844,00000524,false,Rx,0,6,03,0C,E7,FF,FF,FF,00,00,
8294586,00000528,false,Rx,0,6,07,0E,67,0D,00,00,00,00,
8300820,00000526,false,Rx,0,6,05,09,04,00,00,00,00,00,
8389056,00000522,false,Rx,0,6,01,09,07,D6,05,00,00,00,
8616603,00000527,false,Rx,0,6,06,03,05,81,00,00,00,00,
8660842,00000525,false,Rx,0,6,04,02,BB,00,00,00,00,00,
8733529,00000521,false,Rx,0,6,00,0C,0A,00,00,00,00,00,
8813806,00000523,false,Rx,0,6,02,0A,F7,FF,FF,FF,00,00,
8868184,00000524,false,Rx,0,6,03,0D,F7,FF,FF,FF,00,00,
9003366,00000526,false,Rx,0,6,05,0A,01,00,00,00,00,00,
9019134,00000522,false,Rx,0,6,01,0A,0C,D6,05,00,00,00,
9033308,00000528,false,Rx,0,6,07,0F,67,0D,00,00,00,00,
9337356,00000527,false,Rx,0,6,06,04,05,81,00,00,00,00,
9345368,00000521,false,Rx,0,6,00,0D,09,00,00,00,00,00,
9345590,00000525,false,Rx,0,6,04,03,BA,00,00,00,00,00,
9462021,00000523,false,Rx,0,6,02,0B,EB,FF,FF,FF,00,00,
9534501,00000524,false,Rx,0,6,03,0E,F5,FF,FF,FF,00,00,
9649228,00000522,false,Rx,0,6,01,0B,0B,D6,05,00,00,00,
9705899,00000526,false,Rx,0,6,05,0B,07,00,00,00,00,00,
9772110,00000528,false,Rx,0,6,07,00,67,0D,00,00,00,00,
9957222,00000521,false,Rx,0,6,00,0E,07,00,00,00,00,00,
10029720,00000525,false,Rx,0,6,04,04,BB,00,00,00,00,00,
10058035,00000527,false,Rx,0,6,06,05,05,81,00,00,00,00,
10110239,00000523,false,Rx,0,6,02,0C,EB,FF,FF,FF,00,00,
10200839,00000524,false,Rx,0,6,03,0F,FB,FF,FF,FF,00,00,
10279344,00000522,false,Rx,0,6,01,0C,0B,D6,05,00,00,00,
10408328,00000526,false,Rx,0,6,05,0C,01,00,00,00,00,00,
10510922,00000528,false,Rx,0,6,07,01,67,0D,00,00,00,00,
10569224,00000521,false,Rx,0,6,00,0F,05,00,00,00,00,00,
10714188,00000525,false,Rx,0,6,04,05,BB,00,00,00,00,00,
10758468,00000523,false,Rx,0,6,02,0D,FA,FF,FF,FF,00,00,
10778664,00000527,false,Rx,0,6,06,06,05,81,00,00,00,00,
10867180,00000524,false,Rx,0,6,03,00,F7,FF,FF,FF,00,00,
10909438,00000522,false,Rx,0,6,01,0D,07,D6,05,00,00,00,
11111054,00000526,false,Rx,0,6,05,0D,00,00,00,00,00,00,
11181206,00000521,false,Rx,0,6,00,00,0C,00,00,00,00,00,
11249719,00000528,false,Rx,0,6,07,02,67,0D,00,00,00,00,
11398658,00000525,false,Rx,0,6,04,06,BB,00,00,00,00,00,
11406671,00000523,false,Rx,0,6,02,0E,ED,FF,FF,FF,00,00,
11499409,00000527,false,Rx,0,6,06,07,05,81,00,00,00,00,
11533507,00000524,false,Rx,0,6,03,01,EE,FF,FF,FF,00,00,
11539529,00000522,false,Rx,0,6,01,0E,0B,D6,05,00,00,00,
11793165,00000521,false,Rx,0,6,00,01,0C,00,00,00,00,00,
11813459,00000526,false,Rx,0,6,05,0E,05,00,00,00,00,00,
11988514,00000528,false,Rx,0,6,07,03,67,0D,00,00,00,00,
12054886,00000523,false,Rx,0,6,02,0F,ED,FF,FF,FF,00,00,
12083081,00000525,false,Rx,0,6,04,07,BB,00,00,00,00,00,
12169604,00000522,false,Rx,0,6,01,0F,0A,D6,05,00,00,00,
12199826,00000524,false,Rx,0,6,03,02,ED,FF,FF,FF,00,00,
12220015,00000527,false,Rx,0,6,06,08,05,81,00,00,00,00,
12405132,00000521,false,Rx,0,6,00,02,0A,00,00,00,00,00,
12516199,00000526,false,Rx,0,6,05,0F,04,00,00,00,00,00,
12703087,00000523,false,Rx,0,6,02,00,FB,FF,FF,FF,00,00,
12727300,00000528,false,Rx,0,6,07,04,67,0D,00,00,00,00,
12767519,00000525,false,Rx,0,6,04,08,BB,00,00,00,00,00,
12799697,00000522,false,Rx,0,6,01,00,12,D6,05,00,00,00,
12866144,00000524,false,Rx,0,6,03,03,F0,FF,FF,FF,00,00,
12940683,00000527,false,Rx,0,6,06,09,05,81,00,00,00,00,
13017115,00000521,false,Rx,0,6,00,03,08,00,00,00,00,00,
13218763,00000526,false,Rx,0,6,05,00,FF,FF,FF,FF,00,00,
13351294,00000523,false,Rx,0,6,02,01,E2,FF,FF,FF,00,00,
13429791,00000522,false,Rx,0,6,01,01,22,D6,05,00,00,00,
13451960,00000525,false,Rx,0,6,04,09,BB,00,00,00,00,00,
13466103,00000528,false,Rx,0,6,07,05,67,0D,00,00,00,00,
13532485,00000524,false,Rx,0,6,03,04,E9,FF,FF,FF,00,00,
13629098,00000521,false,Rx,0,6,00,04,08,00,00,00,00,00,
13661368,00000527,false,Rx,0,6,06,0A,05,81,00,00,00,00,
13921538,00000526,false,Rx,0,6,05,01,02,00,00,00,00,00,
13999522,00000523,false,Rx,0,6,02,02,E2,FF,FF,FF,00,00,
14059895,00000522,false,Rx,0,6,01,02,27,D6,05,00,00,00,
14136431,00000525,false,Rx,0,6,04,0A,BB,00,00,00,00,00,
14199153,00000524,false,Rx,0,6,03,05,F5,FF,FF,FF,00,00,
14204922,00000528,false,Rx,0,6,07,06,67,0D,00,00,00,00,
14241073,00000521,false,Rx,0,6,00,05,10,00,00,00,00,00,
14382147,00000527,false,Rx,0,6,06,0B,05,81,00,00,00,00,
14623709,00000526,false,Rx,0,6,05,02,04,00,00,00,00,00,
14647726,00000523,false,Rx,0,6,02,03,EA,FF,FF,FF,00,00,
14689982,00000522,false,Rx,0,6,01,03,23,D6,05,00,00,00,
14820874,00000525,false,Rx,0,6,04,0B,BB,00,00,00,00,00,
14853047,00000521,false,Rx,0,6,00,06,08,00,00,00,00,00,
14865149,00000524,false,Rx,0,6,03,06,FA,FF,FF,FF,00,00,
14943724,00000528,false,Rx,0,6,07,07,67,0D,00,00,00,00,
15102764,00000527,false,Rx,0,6,06,0C,05,81,00,00,00,00,
15295950,00000523,false,Rx,0,6,02,04,F5,FF,FF,FF,00,00,
15320107,00000522,false,Rx,0,6,01,04,17,D6,05,00,00,00,
15326469,00000526,false,Rx,0,6,05,03,02,00,00,00,00,00,
15465034,00000521,false,Rx,0,6,00,07,06,00,00,00,00,00,
15505327,00000525,false,Rx,0,6,04,0C,BA,00,00,00,00,00,
15531486,00000524,false,Rx,0,6,03,07,F4,FF,FF,FF,00,00,
15682531,00000528,false,Rx,0,6,07,08,67,0D,00,00,00,00,
15823455,00000527,false,Rx,0,6,06,0D,05,81,00,00,00,00,
15944163,00000523,false,Rx,0,6,02,05,F5,FF,FF,FF,00,00,
15950706,00000522,false,Rx,0,6,01,05,16,D6,05,00,00,00,
16028870,00000526,false,Rx,0,6,05,04,02,00,00,00,00,00,
16077021,00000521,false,Rx,0,6,00,08,04,00,00,00,00,00,
16189789,00000525,false,Rx,0,6,04,0D,BB,00,00,00,00,00,
16197831,00000524,false,Rx,0,6,03,08,F2,FF,FF,FF,00,00,
16421349,00000528,false,Rx,0,6,07,09,67,0D,00,00,00,00,
16544151,00000527,false,Rx,0,6,06,0E,05,81,00,00,00,00,
16580303,00000522,false,Rx,0,6,01,06,2B,D6,05,00,00,00,
16592392,00000523,false,Rx,0,6,02,06,F6,FF,FF,FF,00,00,
16689020,00000521,false,Rx,0,6,00,09,07,00,00,00,00,00,
16731638,00000526,false,Rx,0,6,05,05,02,00,00,00,00,00,
16864170,00000524,false,Rx,0,6,03,09,EE,FF,FF,FF,00,00,
16874251,00000525,false,Rx,0,6,04,0E,BB,00,00,00,00,00,
17160164,00000528,false,Rx,0,6,07,0A,67,0D,00,00,00,00,
17210396,00000522,false,Rx,0,6,01,07,2A,D6,05,00,00,00,
17240615,00000523,false,Rx,0,6,02,07,F7,FF,FF,FF,00,00,
17264834,00000527,false,Rx,0,6,06,0F,05,81,00,00,00,00,
17300992,00000521,false,Rx,0,6,00,0A,08,00,00,00,00,00,
17434194,00000526,false,Rx,0,6,05,06,0C,00,00,00,00,00,
17530487,00000524,false,Rx,0,6,03,0A,F0,FF,FF,FF,00,00,
17558684,00000525,false,Rx,0,6,04,0F,BB,00,00,00,00,00,
17840500,00000522,false,Rx,0,6,01,08,2D,D6,05,00,00,00,
17888825,00000523,false,Rx,0,6,02,08,F7,FF,FF,FF,00,00,
17898955,00000528,false,Rx,0,6,07,0B,67,0D,00,00,00,00,
17913134,00000521,false,Rx,0,6,00,0B,14,00,00,00,00,00,
17985517,00000527,false,Rx,0,6,06,00,05,81,00,00,00,00,
18136724,00000526,false,Rx,0,6,05,07,09,00,00,00,00,00,
18196836,00000524,false,Rx,0,6,03,0B,F0,FF,FF,FF,00,00,
18243146,00000525,false,Rx,0,6,04,00,BA,00,00,00,00,00,
18470594,00000522,false,Rx,0,6,01,09,37,D6,05,00,00,00,
18524939,00000521,false,Rx,0,6,00,0C,0E,00,00,00,00,00,
18537048,00000523,false,Rx,0,6,02,09,EF,FF,FF,FF,00,00,
18637767,00000528,false,Rx,0,6,07,0C,67,0D,00,00,00,00,
18706214,00000527,false,Rx,0,6,06,01,05,81,00,00,00,00,
18839161,00000526,false,Rx,0,6,05,08,FE,FF,FF,FF,00,00,
18863183,00000524,false,Rx,0,6,03,0C,F1,FF,FF,FF,00,00,
18927615,00000525,false,Rx,0,6,04,01,BA,00,00,00,00,00,
19100719,00000522,false,Rx,0,6,01,0A,2D,D6,05,00,00,00,
19136952,00000521,false,Rx,0,6,00,0D,0A,00,00,00,00,00,
19185275,00000523,false,Rx,0,6,02,0A,E8,FF,FF,FF,00,00,
19376592,00000528,false,Rx,0,6,07,0D,67,0D,00,00,00,00,
19427175,00000527,false,Rx,0,6,06,02,05,81,00,00,00,00,
19529537,00000524,false,Rx,0,6,03,0D,F3,FF,FF,FF,00,00,
19541924,00000526,false,Rx,0,6,05,09,07,00,00,00,00,00,
19612071,00000525,false,Rx,0,6,04,02,BA,00,00,00,00,00,
19730811,00000522,false,Rx,0,6,01,0B,32,D6,05,00,00,00,
19748949,00000521,false,Rx,0,6,00,0E,0F,00,00,00,00,00,
19833502,00000523,false,Rx,0,6,02,0B,E8,FF,FF,FF,00,00,
20115411,00000528,false,Rx,0,6,07,0E,67,0D,00,00,00,00,
20147614,00000527,false,Rx,0,6,06,03,05,81,00,00,00,00,
20195869,00000524,false,Rx,0,6,03,0E,F8,FF,FF,FF,00,00,
20244318,00000526,false,Rx,0,6,05,0A,03,00,00,00,00,00,
20296530,00000525,false,Rx,0,6,04,03,BB,00,00,00,00,00,
20360963,00000521,false,Rx,0,6,00,0F,05,00,00,00,00,00,
20361171,00000522,false,Rx,0,6,01,0C,30,D6,05,00,00,00,
20481731,00000523,false,Rx,0,6,02,0C,F7,FF,FF,FF,00,00,
20854211,00000528,false,Rx,0,6,07,0F,67,0D,00,00,00,00,
20862218,00000524,false,Rx,0,6,03,0F,F1,FF,FF,FF,00,00,
20868302,00000527,false,Rx,0,6,06,04,05,81,00,00,00,00,
20947094,00000526,false,Rx,0,6,05,0B,FB,FF,FF,FF,00,00,
20972906,00000521,false,Rx,0,6,00,00,09,00,00,00,00,00,
20980989,00000525,false,Rx,0,6,04,04,BA,00,00,00,00,00,
20991034,00000522,false,Rx,0,6,01,0D,37,D6,05,00,00,00,
21129955,00000523,false,Rx,0,6,02,0D,EB,FF,FF,FF,00,00,
21477112,00000100,false,Rx,0,8,00,00,00,00,8E,01,C8,00,
21477364,00000101,false,Rx,0,8,00,FF,FE,00,00,00,00,00,
21477605,00000102,false,Rx,0,8,01,84,01,00,00,00,00,00,
21528565,00000524,false,Rx,0,6,03,00,ED,FF,FF,FF,00,00,
21577107,00000100,false,Rx,0,8,00,00,00,00,8E,01,C8,00,
21577362,00000101,false,Rx,0,8,00,FF,FE,00,00,00,00,00,
21577608,00000102,false,Rx,0,8,01,84,01,00,00,00,00,00,
21584922,00000521,false,Rx,0,6,00,01,06,00,00,00,00,00,
21589018,00000527,false,Rx,0,6,06,05,05,81,00,00,00,00,
21593051,00000528,false,Rx,0,6,07,00,67,0D,00,00,00,00,
21621158,00000522,false,Rx,0,6,01,0E,2E,D6,05,00,00,00,
21649677,00000526,false,Rx,0,6,05,0C,F8,FF,FF,FF,00,00,
21665483,00000525,false,Rx,0,6,04,05,BB,00,00,00,00,00,
21677109,00000100,false,Rx,0,8,00,00,00,00,8E,01,C8,00,
21677361,00000101,false,Rx,0,8,00,FF,FE,00,00,00,00,00,
21677601,00000102,false,Rx,0,8,01,84,01,00,00,00,00,00,
21777103,00000100,false,Rx,0,8,00,00,00,00,8E,01,C8,00,
21777355,00000101,false,Rx,0,8,00,FF,FE,00,00,00,00,00,
21777602,00000102,false,Rx,0,8,01,84,01,00,00,00,00,00,
21778207,00000523,false,Rx,0,6,02,0E,EB,FF,FF,FF,00,00,
21877103,00000100,false,Rx,0,8,00,00,00,00,8E,01,C8,00,
21877349,00000101,false,Rx,0,8,00,FF,FE,00,00,00,00,00,
21877596,00000102,false,Rx,0,8,01,84,01,00,00,00,00,00,
21977100,00000100,false,Rx,0,8,00,00,00,00,8E,01,C8,00,
21977353,00000101,false,Rx,0,8,00,FF,FE,00,00,00,00,00,
21977593,00000102,false,Rx,0,8,01,84,01,00,00,00,00,00,
22077099,00000100,false,Rx,0,8,00,00,00,00,8E,01,C8,00,
22077356,00000101,false,Rx,0,8,00,FF,FE,00,00,00,00,00,
22077591,00000102,false,Rx,0,8,01,84,01,00,00,00,00,00,
22177093,00000100,false,Rx,0,8,00,00,00,00,8E,01,C8,00,
22177346,00000101,false,Rx,0,8,00,FF,FE,00,00,00,00,00,
22177589,00000102,false,Rx,0,8,01,84,01,00,00,00,00,00,
22194924,00000524,false,Rx,0,6,03,01,F6,FF,FF,FF,00,00,
22197054,00000521,false,Rx,0,6,00,02,04,00,00,00,00,00,
22251280,00000522,false,Rx,0,6,01,0F,36,D6,05,00,00,00,
22277090,00000100,false,Rx,0,8,00,00,00,00,8E,01,C8,00,
22277343,00000101,false,Rx,0,8,00,FF,FE,00,00,00,00,00,
22277589,00000102,false,Rx,0,8,01,84,01,00,00,00,00,00,
22309734,00000527,false,Rx,0,6,06,06,05,81,00,00,00,00,
22331879,00000528,false,Rx,0,6,07,01,67,0D,00,00,00,00,
22349956,00000525,false,Rx,0,6,04,06,BA,00,00,00,00,00,
22352426,00000526,false,Rx,0,6,05,0D,00,00,00,00,00,00,
22377094,00000100,false,Rx,0,8,00,00,00,00,8E,01,C8,00,
22377346,00000101,false,Rx,0,8,00,FF,FE,00,00,00,00,00,
22377591,00000102,false,Rx,0,8,01,84,01,00,00,00,00,00,
22426430,00000523,false,Rx,0,6,02,0F,F4,FF,FF,FF,00,00,
22477090,00000100,false,Rx,0,8,00,00,00,00,8E,01,C8,00,
22477342,00000101,false,Rx,0,8,00,FF,FE,00,00,00,00,00,
22477585,00000102,false,Rx,0,8,01,84,01,00,00,01,00,00,
22577086,00000100,false,Rx,0,8,00,00,00,00,8E,01,C8,00,
22577338,00000101,false,Rx,0,8,00,FF,FE,00,00,00,00,00,
22577588,00000102,false,Rx,0,8,01,84,01,00,00,01,00,00,
22677086,00000100,false,Rx,0,8,00,00,00,00,8E,01,C8,00,
22677338,00000101,false,Rx,0,8,00,FF,FE,00,00,00,00,00,
22677587,00000102,false,Rx,0,8,01,84,01,00,00,01,00,00,
22777083,00000100,false,Rx,0,8,00,00,00,00,8E,01,C8,00,
22777335,00000101,false,Rx,0,8,00,FF,FE,00,00,00,00,00,
22777582,00000102,false,Rx,0,8,01,84,01,00,00,01,00,00,
22808906,00000521,false,Rx,0,6,00,03,05,00,00,00,00,00,
22861260,00000524,false,Rx,0,6,03,02,E6,FF,FF,FF,00,00,
22877078,00000100,false,Rx,0,8,00,00,00,00,8E,01,C8,00,
22877330,00000101,false,Rx,0,8,00,FF,FE,00,00,00,00,00,
22877577,00000102,false,Rx,0,8,01,84,01,00,00,01,00,00,
22881371,00000522,false,Rx,0,6,01,00,50,D6,05,00,00,00,
22977078,00000100,false,Rx,0,8,00,00,00,00,8E,01,C8,00,
22977330,00000101,false,Rx,0,8,00,FF,FE,00,00,00,00,00,
22977577,00000102,false,Rx,0,8,01,84,01,00,00,01,00,00,
23030435,00000527,false,Rx,0,6,06,07,05,81,00,00,00,00,
23034406,00000525,false,Rx,0,6,04,07,BB,00,00,00,00,00,
23054659,00000526,false,Rx,0,6,05,0E,04,00,00,00,00,00,
23070696,00000528,false,Rx,0,6,07,02,67,0D,00,00,00,00,
23074655,00000523,false,Rx,0,6,02,00,F4,FF,FF,FF,00,00,
23077075,00000100,false,Rx,0,8,00,00,00,00,8E,01,C8,00,
23077326,00000101,false,Rx,0,8,00,FF,FE,00,00,00,00,00,
23077573,00000102,false,Rx,0,8,01,84,01,00,00,01,00,00,
23177073,00000100,false,Rx,0,8,00,00,00,00,8E,01,C8,00,
23177325,00000101,false,Rx,0,8,00,FF,FE,00,00,00,00,00,
23177572,00000102,false,Rx,0,8,01,84,01,00,00,01,00,00,
23277077,00000100,false,Rx,0,8,00,00,00,00,8E,01,C8,00,
23277322,00000101,false,Rx,0,8,00,FF,FE,00,00,00,00,00,
23277568,00000102,false,Rx,0,8,01,84,01,00,00,01,00,00,
23377072,00000100,false,Rx,0,8,00,00,00,00,8E,01,C8,00,
23377325,00000101,false,Rx,0,8,00,FF,FE,00,00,00,00,00,
23377565,00000102,false,Rx,0,8,01,84,01,00,00,01,00,00,
23420906,00000521,false,Rx,0,6,00,04,0C,00,00,00,00,00,
23477072,00000100,false,Rx,0,8,00,00,00,00,8E,01,C8,00,
23477318,00000101,false,Rx,0,8,00,FF,FE,00,00,00,00,00,
23477565,00000102,false,Rx,0,8,01,84,01,00,00,01,00,00,
23511501,00000522,false,Rx,0,6,01,01,39,D6,05,00,00,00,
23527631,00000524,false,Rx,0,6,03,03,EC,FF,FF,FF,00,00,
23577068,00000100,false,Rx,0,8,00,00,00,00,8E,01,C8,00,
23577317,00000101,false,Rx,0,8,00,FF,FE,00,00,00,00,00,
23577565,00000102,false,Rx,0,8,01,84,01,00,00,01,00,00,
23677066,00000100,false,Rx,0,8,00,00,00,00,8E,01,C8,00,
23677312,00000101,false,Rx,0,8,00,FF,FE,00,00,00,00,00,
23677558,00000102,false,Rx,0,8,01,84,01,00,00,01,00,00,
23718875,00000525,false,Rx,0,6,04,08,BB,00,00,00,00,00,
23722889,00000523,false,Rx,0,6,02,01,F4,FF,FF,FF,00,00,
23751140,00000527,false,Rx,0,6,06,08,05,81,00,00,00,00,
23757421,00000526,false,Rx,0,6,05,0F,01,00,00,00,00,00,
23777063,00000100,false,Rx,0,8,00,00,00,00,8E,01,C8,00,
23777314,00000101,false,Rx,0,8,00,FF,FE,00,00,00,00,00,
23777561,00000102,false,Rx,0,8,01,84,01,00,00,01,00,00,
23809527,00000528,false,Rx,0,6,07,03,67,0D,00,00,00,00,
23877063,00000100,false,Rx,0,8,00,00,00,00,8E,01,C8,00,
23877320,00000101,false,Rx,0,8,00,FF,FE,00,00,00,00,00,
23877556,00000102,false,Rx,0,8,01,84,01,00,00,01,00,00,
23977057,00000100,false,Rx,0,8,00,00,00,00,8E,01,C8,00,
23977309,00000101,false,Rx,0,8,00,FF,FE,00,00,00,00,00,
23977552,00000102,false,Rx,0,8,01,84,01,00,00,01,00,00,
24032897,00000521,false,Rx,0,6,00,05,05,00,00,00,00,00,
24077060,00000100,false,Rx,0,8,00,00,00,00,8E,01,C8,00,
24077306,00000101,false,Rx,0,8,00,FF,FE,00,00,00,00,00,
24077553,00000102,false,Rx,0,8,01,84,01,00,00,01,00,00,
24141614,00000522,false,Rx,0,6,01,02,37,D6,05,00,00,00,
24177052,00000100,false,Rx,0,8,00,00,00,00,8E,01,C8,00,
24177304,00000101,false,Rx,0,8,00,FF,FE,00,00,00,00,00,
24177550,00000102,false,Rx,0,8,01,84,01,00,00,01,00,00,
24193980,00000524,false,Rx,0,6,03,04,EF,FF,FF,FF,00,00,
24277054,00000100,false,Rx,0,8,00,00,00,00,8E,01,C8,00,
24277300,00000101,false,Rx,0,8,00,FF,FE,00,00,00,00,00,
24277549,00000102,false,Rx,0,8,01,84,01,00,00,01,00,00,
24371131,00000523,false,Rx,0,6,02,02,F6,FF,FF,FF,00,00,
24377049,00000100,false,Rx,0,8,00,00,00,00,8E,01,C8,00,
24377300,00000101,false,Rx,0,8,00,FF,FE,00,00,00,00,00,
24377547,00000102,false,Rx,0,8,01,84,01,00,00,01,00,00,
24403368,00000525,false,Rx,0,6,04,09,BA,00,00,00,00,00,
24460091,00000526,false,Rx,0,6,05,00,F7,FF,FF,FF,00,00,
24471854,00000527,false,Rx,0,6,06,09,05,81,00,00,00,00,
24477049,00000100,false,Rx,0,8,00,00,00,00,8E,01,C8,00,
24477301,00000101,false,Rx,0,8,00,FF,FE,00,00,00,00,00,
24477561,00000102,false,Rx,0,8,01,84,01,00,00,01,00,00,
24548621,00000528,false,Rx,0,6,07,04,67,0D,00,00,00,00,
24577047,00000100,false,Rx,0,8,00,00,00,00,8E,01,C8,00,
24577293,00000101,false,Rx,0,8,00,FF,FE,00,00,00,00,00,
24577540,00000102,false,Rx,0,8,01,84,01,00,00,01,00,00,
24644927,00000521,false,Rx,0,6,00,06,06,00,00,00,00,00,
24677048,00000100,false,Rx,0,8,00,00,00,00,8E,01,C8,00,
24677294,00000101,false,Rx,0,8,00,FF,FE,00,00,00,00,00,
24677540,00000102,false,Rx,0,8,01,84,01,00,00,01,00,00,
24771753,00000522,false,Rx,0,6,01,03,2C,D6,05,00,00,00,
24777040,00000100,false,Rx,0,8,00,00,00,00,8E,01,C8,00,
24777292,00000101,false,Rx,0,8,00,FF,FE,00,00,00,00,00,
24777539,00000102,false,Rx,0,8,01,84,01,00,00,01,00,00,
24860361,00000524,false,Rx,0,6,03,05,EF,FF,FF,FF,00,00,
24877038,00000100,false,Rx,0,8,00,00,00,00,8E,01,C8,00,
24877290,00000101,false,Rx,0,8,00,FF,FE,00,00,00,00,00,
24877537,00000102,false,Rx,0,8,01,84,01,00,00,01,00,00,
24977040,00000100,false,Rx,0,8,00,00,00,00,8E,01,C8,00,
24977292,00000101,false,Rx,0,8,00,FF,FE,00,00,00,00,00,
24977533,00000102,false,Rx,0,8,01,84,01,00,00,01,00,00,
25019396,00000523,false,Rx,0,6,02,03,00,00,00,00,00,00,
25077035,00000100,false,Rx,0,8,00,00,00,00,8E,01,C8,00,
25077287,00000101,false,Rx,0,8,00,FF,FE,00,00,00,00,00,
25077534,00000102,false,Rx,0,8,01,84,01,00,00,01,00,00,
25087856,00000525,false,Rx,0,6,04,0A,BB,00,00,00,00,00,
25162664,00000526,false,Rx,0,6,05,01,02,00,00,00,00,00,
25177033,00000100,false,Rx,0,8,00,00,00,00,8E,01,C8,00,
25177282,00000101,false,Rx,0,8,00,FF,FE,00,00,00,00,00,
25177529,00000102,false,Rx,0,8,01,84,01,00,00,01,00,00,
25192589,00000527,false,Rx,0,6,06,0A,05,81,00,00,00,00,
25256937,00000521,false,Rx,0,6,00,07,08,00,00,00,00,00,
25277035,00000100,false,Rx,0,8,00,00,00,00,8E,01,C8,00,
25277284,00000101,false,Rx,0,8,00,FF,FE,00,00,00,00,00,
25277531,00000102,false,Rx,0,8,01,84,01,00,00,01,00,00,
25287217,00000528,false,Rx,0,6,07,05,67,0D,00,00,00,00,
25377031,00000100,false,Rx,0,8,00,00,00,00,8E,01,C8,00,
25377277,00000101,false,Rx,0,8,00,FF,FE,00,00,00,00,00,
25377525,00000102,false,Rx,0,8,01,84,01,00,00,01,00,00,
25402047,00000522,false,Rx,0,6,01,04,48,D6,05,00,00,00,
25477029,00000100,false,Rx,0,8,00,00,00,00,8E,01,C8,00,
25477275,00000101,false,Rx,0,8,00,FF,FE,00,00,00,00,00,
25477521,00000102,false,Rx,0,8,01,84,01,00,00,01,00,00,
25526713,00000524,false,Rx,0,6,03,06,E5,FF,FF,FF,00,00,
25577027,00000100,false,Rx,0,8,00,00,00,00,8E,01,C8,00,
25577278,00000101,false,Rx,0,8,00,FF,FE,00,00,00,00,00,
25577519,00000102,false,Rx,0,8,01,84,01,00,00,01,00,00,
25667622,00000523,false,Rx,0,6,02,04,00,00,00,00,00,00,
25677025,00000100,false,Rx,0,8,00,00,00,00,8E,01,C8,00,
25677291,00000101,false,Rx,0,8,00,FF,FE,00,00,00,00,00,
25677520,00000102,false,Rx,0,8,01,84,01,00,00,01,00,00,
25772331,00000525,false,Rx,0,6,04,0B,BA,00,00,00,00,00,
25777020,00000100,false,Rx,0,8,00,00,00,00,8E,01,C8,00,
25777272,00000101,false,Rx,0,8,00,FF,FE,00,00,00,00,00,
25777518,00000102,false,Rx,0,8,01,84,01,00,00,01,00,00,
25865235,00000526,false,Rx,0,6,05,02,03,00,00,00,00,00,
25868961,00000521,false,Rx,0,6,00,08,0B,00,00,00,00,00,
25877018,00000100,false,Rx,0,8,00,00,00,00,8E,01,C8,00,
25877271,00000101,false,Rx,0,8,00,FF,FE,00,00,00,00,00,
25877520,00000102,false,Rx,0,8,01,84,01,00,00,01,00,00,
25913288,00000527,false,Rx,0,6,06,0B,05,81,00,00,00,00,
25977016,00000100,false,Rx,0,8,00,00,00,00,8E,01,C8,00,
25977267,00000101,false,Rx,0,8,00,FF,FE,00,00,00,00,00,
25977517,00000102,false,Rx,0,8,01,84,01,00,00,01,00,00,
26026023,00000528,false,Rx,0,6,07,06,67,0D,00,00,00,00,
26031980,00000522,false,Rx,0,6,01,05,49,D6,05,00,00,00,
26077013,00000100,false,Rx,0,8,00,00,00,00,8E,01,C8,00,
26077264,00000101,false,Rx,0,8,00,FF,FE,00,00,00,00,00,
26077511,00000102,false,Rx,0,8,01,84,01,00,00,01,00,00,
26177014,00000100,false,Rx,0,8,00,00,00,00,8E,01,C8,00,
26177260,00000101,false,Rx,0,8,00,FF,FE,00,00,00,00,00,
26177509,00000102,false,Rx,0,8,01,84,01,00,00,01,00,00,
26193053,00000524,false,Rx,0,6,03,07,F3,FF,FF,FF,00,00,
26277013,00000100,false,Rx,0,8,00,00,00,00,8E,01,C8,00,
26277259,00000101,false,Rx,0,8,00,FF,FE,00,00,00,00,00,
26277520,00000102,false,Rx,0,8,01,84,01,00,00,01,00,00,
26315838,00000523,false,Rx,0,6,02,05,F4,FF,FF,FF,00,00,
26377007,00000100,false,Rx,0,8,00,00,00,00,8E,01,C8,00,
26377259,00000101,false,Rx,0,8,00,FF,FE,00,00,00,00,00,
26377506,00000102,false,Rx,0,8,01,84,01,00,00,01,00,00,
26456781,00000525,false,Rx,0,6,04,0C,BA,00,00,00,00,00,
26477004,00000100,false,Rx,0,8,00,00,00,00,8E,01,C8,00,
26477257,00000101,false,Rx,0,8,00,FF,FE,00,00,00,00,00,
26477504,00000102,false,Rx,0,8,01,84,01,00,00,01,00,00,
26480910,00000521,false,Rx,0,6,00,09,11,00,00,00,00,00,
26567787,00000526,false,Rx,0,6,05,03,00,00,00,00,00,00,
26577005,00000100,false,Rx,0,8,00,00,00,00,8E,01,C8,00,
26577257,00000101,false,Rx,0,8,00,FF,FE,00,00,00,00,00,
26577504,00000102,false,Rx,0,8,01,84,01,00,00,01,00,00,
26633983,00000527,false,Rx,0,6,06,0C,05,81,00,00,00,00,
26662093,00000522,false,Rx,0,6,01,06,43,D6,05,00,00,00,
26677000,00000100,false,Rx,0,8,00,00,00,00,8E,01,C8,00,
26677253,00000101,false,Rx,0,8,00,FF,FE,00,00,00,00,00,
26677500,00000102,false,Rx,0,8,01,84,01,00,00,01,00,00,
26764840,00000528,false,Rx,0,6,07,07,67,0D,00,00,00,00,
26776997,00000100,false,Rx,0,8,00,00,00,00,8E,01,C8,00,
26777250,00000101,false,Rx,0,8,00,FF,FE,00,00,00,00,00,
26777497,00000102,false,Rx,0,8,01,84,01,00,00,01,00,00,
26859395,00000524,false,Rx,0,6,03,08,EF,FF,FF,FF,00,00,
26876998,00000100,false,Rx,0,8,00,00,00,00,8E,01,C8,00,
26877251,00000101,false,Rx,0,8,00,FF,FE,00,00,00,00,00,
26877491,00000102,false,Rx,0,8,01,84,01,00,00,01,00,00,
26964069,00000523,false,Rx,0,6,02,06,FB,FF,FF,FF,00,00,
26976993,00000100,false,Rx,0,8,00,00,00,00,8E,01,C8,00,
26977245,00000101,false,Rx,0,8,00,FF,FE,00,00,00,00,00,
26977492,00000102,false,Rx,0,8,01,84,01,00,00,01,00,00,
27076995,00000100,false,Rx,0,8,00,00,00,00,8E,01,C8,00,
27077241,00000101,false,Rx,0,8,00,FF,FE,00,00,00,00,00,
27077487,00000102,false,Rx,0,8,01,84,01,00,00,01,00,00,
27092975,00000521,false,Rx,0,6,00,0A,10,00,00,00,00,00,
27141232,00000525,false,Rx,0,6,04,0D,BA,00,00,00,00,00,
27176992,00000100,false,Rx,0,8,00,00,00,00,8E,01,C8,00,
27177240,00000101,false,Rx,0,8,00,FF,FE,00,00,00,00,00,
27177486,00000102,false,Rx,0,8,01,84,01,00,00,01,00,00,
27270202,00000526,false,Rx,0,6,05,04,0B,00,00,00,00,00,
27276992,00000100,false,Rx,0,8,00,00,00,00,8E,01,C8,00,
27277240,00000101,false,Rx,0,8,00,FF,FE,00,00,00,00,00,
27277486,00000102,false,Rx,0,8,01,84,01,00,00,01,00,00,
27292189,00000522,false,Rx,0,6,01,07,4D,D6,05,00,00,00,
27354658,00000527,false,Rx,0,6,06,0D,05,81,00,00,00,00,
27376985,00000100,false,Rx,0,8,00,00,00,00,8E,01,C8,00,
27377240,00000101,false,Rx,0,8,00,FF,FE,00,00,00,00,00,
27377486,00000102,false,Rx,0,8,01,84,01,00,00,01,00,00,
27476986,00000100,false,Rx,0,8,00,00,00,00,8E,01,C8,00,
27477238,00000101,false,Rx,0,8,00,FF,FE,00,00,00,00,00,
27477478,00000102,false,Rx,0,8,01,84,01,00,00,01,00,00,
27503656,00000528,false,Rx,0,6,07,08,67,0D,00,00,00,00,
27525718,00000524,false,Rx,0,6,03,09,E8,FF,FF,FF,00,00,
27576984,00000100,false,Rx,0,8,00,00,00,00,8E,01,C8,00,
27577237,00000101,false,Rx,0,8,00,FF,FE,00,00,00,00,00,
27577478,00000102,false,Rx,0,8,01,84,01,00,00,01,00,00,
27612276,00000523,false,Rx,0,6,02,07,FB,FF,FF,FF,00,00,
27676983,00000100,false,Rx,0,8,00,00,00,00,8E,01,C8,00,
27677229,00000101,false,Rx,0,8,00,FF,FE,00,00,00,00,00,
27677479,00000102,false,Rx,0,8,01,84,01,00,00,01,00,00,
27704866,00000521,false,Rx,0,6,00,0B,0C,00,00,00,00,00,
27776983,00000100,false,Rx,0,8,00,00,00,00,8E,01,C8,00,
27777228,00000101,false,Rx,0,8,00,FF,FE,00,00,00,00,00,
27777479,00000102,false,Rx,0,8,01,84,01,00,00,01,00,00,
27825682,00000525,false,Rx,0,6,04,0E,BA,00,00,00,00,00,
27876975,00000100,false,Rx,0,8,00,00,00,00,8E,01,C8,00,
27877228,00000101,false,Rx,0,8,00,FF,FE,00,00,00,00,00,
27877472,00000102,false,Rx,0,8,01,84,01,00,00,01,00,00,
27922297,00000522,false,Rx,0,6,01,08,4A,D6,05,00,00,00,
27972942,00000526,false,Rx,0,6,05,05,EC,FF,FF,FF,00,00,
27976973,00000100,false,Rx,0,8,00,00,00,00,8E,01,C8,00,
27977225,00000101,false,Rx,0,8,00,FF,FE,00,00,00,00,00,
27977471,00000102,false,Rx,0,8,01,84,01,00,00,01,00,00,
28075634,00000527,false,Rx,0,6,06,0E,05,81,00,00,00,00,
28076974,00000100,false,Rx,0,8,00,00,00,00,8E,01,C8,00,
28077226,00000101,false,Rx,0,8,00,FF,FE,00,00,00,00,00,
28077466,00000102,false,Rx,0,8,01,84,01,00,00,01,00,00,
28176974,00000100,false,Rx,0,8,00,00,00,00,8E,01,C8,00,
28177219,00000101,false,Rx,0,8,00,FF,FE,00,00,00,00,00,
28177469,00000102,false,Rx,0,8,01,84,01,00,00,01,00,00,
28192060,00000524,false,Rx,0,6,03,0A,EE,FF,FF,FF,00,00,
28242461,00000528,false,Rx,0,6,07,09,67,0D,00,00,00,00,
28260506,00000523,false,Rx,0,6,02,08,F2,FF,FF,FF,00,00,
28276968,00000100,false,Rx,0,8,00,00,00,00,8E,01,C8,00,
28277220,00000101,false,Rx,0,8,00,FF,FE,00,00,00,00,00,
28277486,00000102,false,Rx,0,8,01,84,01,00,00,01,00,00,
28316856,00000521,false,Rx,0,6,00,0C,01,00,00,00,00,00,
28376966,00000100,false,Rx,0,8,00,00,00,00,8E,01,C8,00,
28377218,00000101,false,Rx,0,8,00,FF,FE,00,00,00,00,00,
28377464,00000102,false,Rx,0,8,01,84,01,00,00,01,00,00,
28476968,00000100,false,Rx,0,8,00,00,00,00,8E,01,C8,00,
28477214,00000101,false,Rx,0,8,00,FF,FE,00,00,00,00,00,
28477460,00000102,false,Rx,0,8,01,84,01,00,00,01,00,00,
28510155,00000525,false,Rx,0,6,04,0F,BA,00,00,00,00,00,
28552389,00000522,false,Rx,0,6,01,09,49,D6,05,00,00,00,
28576961,00000100,false,Rx,0,8,00,00,00,00,8E,01,C8,00,
28577214,00000101,false,Rx,0,8,00,FF,FE,00,00,00,00,00,
28577461,00000102,false,Rx,0,8,01,84,01,00,00,01,00,00,
28675332,00000526,false,Rx,0,6,05,06,FA,FF,FF,FF,00,00,
28676963,00000100,false,Rx,0,8,00,00,00,00,8E,01,C8,00,
28677209,00000101,false,Rx,0,8,00,FF,FE,00,00,00,00,00,
28677459,00000102,false,Rx,0,8,01,84,01,00,00,01,00,00,
28776959,00000100,false,Rx,0,8,00,00,00,00,8E,01,C8,00,
28777212,00000101,false,Rx,0,8,00,FF,FE,00,00,00,00,00,
28777461,00000102,false,Rx,0,8,01,84,01,00,00,01,00,00,
28796060,00000527,false,Rx,0,6,06,0F,05,81,00,00,00,00,
28858407,00000524,false,Rx,0,6,03,0B,F4,FF,FF,FF,00,00,
28876955,00000100,false,Rx,0,8,00,00,00,00,8E,01,C8,00,
28877210,00000101,false,Rx,0,8,00,FF,FE,00,00,00,00,00,
28877461,00000102,false,Rx,0,8,01,84,01,00,00,01,00,00,
28908726,00000523,false,Rx,0,6,02,09,F3,FF,FF,FF,00,00,
28928841,00000521,false,Rx,0,6,00,0D,0B,00,00,00,00,00,
28976956,00000100,false,Rx,0,8,00,00,00,00,8E,01,C8,00,
28977203,00000101,false,Rx,0,8,00,FF,FE,00,00,00,00,00,
28977452,00000102,false,Rx,0,8,01,84,01,00,00,01,00,00,
28981258,00000528,false,Rx,0,6,07,0A,67,0D,00,00,00,00,
29076948,00000100,false,Rx,0,8,00,00,00,00,8E,01,C8,00,
29077200,00000101,false,Rx,0,8,00,FF,FE,00,00,00,00,00,
29077449,00000102,false,Rx,0,8,01,84,01,00,00,01,00,00,
29176952,00000100,false,Rx,0,8,00,00,00,00,8E,01,C8,00,
29177198,00000101,false,Rx,0,8,00,FF,FE,00,00,00,00,00,
29177449,00000102,false,Rx,0,8,01,84,01,00,00,01,00,00,
29182477,00000522,false,Rx,0,6,01,0A,45,D6,05,00,00,00,
29194590,00000525,false,Rx,0,6,04,00,BB,00,00,00,00,00,
29276949,00000100,false,Rx,0,8,00,00,00,00,8E,01,C8,00,
29277201,00000101,false,Rx,0,8,00,FF,FE,00,00,00,00,00,
29277452,00000102,false,Rx,0,8,01,84,01,00,00,01,00,00,
29376949,00000100,false,Rx,0,8,00,00,00,00,8E,01,C8,00,
29377195,00000101,false,Rx,0,8,00,FF,FE,00,00,00,00,00,
29377451,00000102,false,Rx,0,8,01,84,01,00,00,01,00,00,
29378092,00000526,false,Rx,0,6,05,07,F9,FF,FF,FF,00,00,
29476943,00000100,false,Rx,0,8,00,00,00,00,8E,01,C8,00,
29477195,00000101,false,Rx,0,8,00,FF,FE,00,00,00,00,00,
29477443,00000102,false,Rx,0,8,01,84,01,00,00,01,00,00,
29516805,00000527,false,Rx,0,6,06,00,05,81,00,00,00,00,
29524730,00000524,false,Rx,0,6,03,0C,EB,FF,FF,FF,00,00,
29540810,00000521,false,Rx,0,6,00,0E,0B,00,00,00,00,00,
29556922,00000523,false,Rx,0,6,02,0A,F3,FF,FF,FF,00,00,
29576945,00000100,false,Rx,0,8,00,00,00,00,8E,01,C8,00,
29577191,00000101,false,Rx,0,8,00,FF,FE,00,00,00,00,00,
29577439,00000102,false,Rx,0,8,01,84,01,00,00,01,00,00,
29676943,00000100,false,Rx,0,8,00,00,00,00,8E,01,C8,00,
29677188,00000101,false,Rx,0,8,00,FF,FE,00,00,00,00,00,
29677439,00000102,false,Rx,0,8,01,84,01,00,00,01,00,00,
29720473,00000528,false,Rx,0,6,07,0B,67,0D,00,00,00,00,
29776936,00000100,false,Rx,0,8,00,00,00,00,8E,01,C8,00,
29777189,00000101,false,Rx,0,8,00,FF,FE,00,00,00,00,00,
29777441,00000102,false,Rx,0,8,01,84,01,00,00,01,00,00,
29812581,00000522,false,Rx,0,6,01,0B,52,D6,05,00,00,00,
29876934,00000100,false,Rx,0,8,00,00,00,00,8E,01,C8,00,
29877187,00000101,false,Rx,0,8,00,FF,FE,00,00,00,00,00,
29877437,00000102,false,Rx,0,8,01,84,01,00,00,01,00,00,
29879042,00000525,false,Rx,0,6,04,01,BA,00,00,00,00,00,
29976937,00000100,false,Rx,0,8,00,00,00,00,8E,01,C8,00,
29977183,00000101,false,Rx,0,8,00,FF,FE,00,00,00,00,00,
29977431,00000102,false,Rx,0,8,01,84,01,00,00,01,00,00,
30076932,00000100,false,Rx,0,8,00,00,00,00,8E,01,C8,00,
30077184,00000101,false,Rx,0,8,00,FF,FE,00,00,00,00,00,
30077432,00000102,false,Rx,0,8,01,84,01,00,00,01,00,00,
30080662,00000526,false,Rx,0,6,05,08,03,00,00,00,00,00,
30152795,00000521,false,Rx,0,6,00,0F,0A,00,00,00,00,00,
30176930,00000100,false,Rx,0,8,00,00,00,00,8E,01,C8,00,
30177178,00000101,false,Rx,0,8,00,FF,FE,00,00,00,00,00,
30177425,00000102,false,Rx,0,8,01,84,01,00,00,01,00,00,
30191072,00000524,false,Rx,0,6,03,0D,F8,FF,FF,FF,00,00,
30205145,00000523,false,Rx,0,6,02,0B,F4,FF,FF,FF,00,00,
30237437,00000527,false,Rx,0,6,06,01,05,81,00,00,00,00,
30276928,00000100,false,Rx,0,8,00,00,00,00,8E,01,C8,00,
30277175,00000101,false,Rx,0,8,00,FF,FE,00,00,00,00,00,
30277421,00000102,false,Rx,0,8,01,84,01,00,00,01,00,00,
30376923,00000100,false,Rx,0,8,00,00,00,00,8E,01,C8,00,
30377176,00000101,false,Rx,0,8,00,FF,FE,00,00,00,00,00,
30377421,00000102,false,Rx,0,8,01,84,01,00,00,01,00,00,
30442702,00000522,false,Rx,0,6,01,0C,4F,D6,05,00,00,00,
30458888,00000528,false,Rx,0,6,07,0C,67,0D,00,00,00,00,
30476920,00000100,false,Rx,0,8,00,00,00,00,8E,01,C8,00,
30477171,00000101,false,Rx,0,8,00,FF,FE,00,00,00,00,00,
30477417,00000102,false,Rx,0,8,01,84,01,00,00,01,00,00,
30563512,00000525,false,Rx,0,6,04,02,BB,00,00,00,00,00,
30576924,00000100,false,Rx,0,8,00,00,00,00,8E,01,C8,00,
30577172,00000101,false,Rx,0,8,00,FF,FE,00,00,00,00,00,
30577419,00000102,false,Rx,0,8,01,84,01,00,00,01,00,00,
30676922,00000100,false,Rx,0,8,00,00,00,00,8E,01,C8,00,
30677168,00000101,false,Rx,0,8,00,FF,FE,00,00,00,00,00,
30677416,00000102,false,Rx,0,8,01,84,01,00,00,01,00,00,
30764808,00000521,false,Rx,0,6,00,00,08,00,00,00,00,00,
30776918,00000100,false,Rx,0,8,00,00,00,00,8E,01,C8,00,
30777170,00000101,false,Rx,0,8,00,FF,FE,00,00,00,00,00,
30777415,00000102,false,Rx,0,8,01,84,01,00,00,01,00,00,
30783227,00000526,false,Rx,0,6,05,09,03,00,00,00,00,00,
30853404,00000523,false,Rx,0,6,02,0C,F4,FF,FF,FF,00,00,
30857425,00000524,false,Rx,0,6,03,0E,F3,FF,FF,FF,00,00,
30876918,00000100,false,Rx,0,8,00,00,00,00,8E,01,C8,00,
30877164,00000101,false,Rx,0,8,00,FF,FE,00,00,00,00,00,
30877412,00000102,false,Rx,0,8,01,84,01,00,00,01,00,00,
30958226,00000527,false,Rx,0,6,06,02,05,81,00,00,00,00,
30976916,00000100,false,Rx,0,8,00,00,00,00,8E,01,C8,00,
30977161,00000101,false,Rx,0,8,00,FF,FE,00,00,00,00,00,
30977406,00000102,false,Rx,0,8,01,84,01,00,00,01,00,00,
31072815,00000522,false,Rx,0,6,01,0D,5A,D6,05,00,00,00,
31076910,00000100,false,Rx,0,8,00,00,00,00,8E,01,C8,00,
31077161,00000101,false,Rx,0,8,00,FF,FE,00,00,00,00,00,
31077406,00000102,false,Rx,0,8,01,84,01,00,00,01,00,00,
31176913,00000100,false,Rx,0,8,00,00,00,00,8E,01,C8,00,
31177158,00000101,false,Rx,0,8,00,FF,FE,00,00,00,00,00,
31177407,00000102,false,Rx,0,8,01,84,01,00,00,01,00,00,
31197714,00000528,false,Rx,0,6,07,0D,67,0D,00,00,00,00,
31247991,00000525,false,Rx,0,6,04,03,BA,00,00,00,00,00,
31276905,00000100,false,Rx,0,8,00,00,00,00,8E,01,C8,00,
31277157,00000101,false,Rx,0,8,00,FF,FE,00,00,00,00,00,
31277403,00000102,false,Rx,0,8,01,84,01,00,00,01,00,00,
31376824,00000521,false,Rx,0,6,00,01,08,00,00,00,00,00,
31377070,00000100,false,Rx,0,8,00,00,00,00,8E,01,C8,00,
31377315,00000101,false,Rx,0,8,00,FF,FE,00,00,00,00,00,
31377566,00000102,false,Rx,0,8,01,84,01,00,00,01,00,00,
31476906,00000100,false,Rx,0,8,00,00,00,00,8E,01,C8,00,
31477151,00000101,false,Rx,0,8,00,FF,FE,00,00,00,00,00,
31477397,00000102,false,Rx,0,8,01,84,01,00,00,01,00,00,
31485671,00000526,false,Rx,0,6,05,0A,0D,00,00,00,00,00,
31501641,00000523,false,Rx,0,6,02,0D,F4,FF,FF,FF,00,00,
31523783,00000524,false,Rx,0,6,03,0F,ED,FF,FF,FF,00,00,
31576900,00000100,false,Rx,0,8,00,00,00,00,8E,01,C8,00,
31577151,00000101,false,Rx,0,8,00,FF,FE,00,00,00,00,00,
31577398,00000102,false,Rx,0,8,01,84,01,00,00,01,00,00,
31676899,00000100,false,Rx,0,8,00,00,00,00,8E,01,C8,00,
31677151,00000101,false,Rx,0,8,00,FF,FE,00,00,00,00,00,
31677397,00000102,false,Rx,0,8,01,84,01,00,00,01,00,00,
31678850,00000527,false,Rx,0,6,06,03,05,81,00,00,00,00,
31702930,00000522,false,Rx,0,6,01,0E,59,D6,05,00,00,00,
31776900,00000100,false,Rx,0,8,00,00,00,00,8E,01,C8,00,
31777145,00000101,false,Rx,0,8,00,FF,FE,00,00,00,00,00,
31777391,00000102,false,Rx,0,8,01,84,01,00,00,01,00,00,
31876892,00000100,false,Rx,0,8,00,00,00,00,8E,01,C8,00,
31877144,00000101,false,Rx,0,8,00,FF,FE,00,00,00,00,00,
31877394,00000102,false,Rx,0,8,01,84,01,00,00,01,00,00,
31932466,00000525,false,Rx,0,6,04,04,BB,00,00,00,00,00,
31936537,00000528,false,Rx,0,6,07,0E,67,0D,00,00,00,00,
31976894,00000100,false,Rx,0,8,00,00,00,00,8E,01,C8,00,
31977145,00000101,false,Rx,0,8,00,FF,FE,00,00,00,00,00,
31977391,00000102,false,Rx,0,8,01,84,01,00,00,01,00,00,
31988804,00000521,false,Rx,0,6,00,02,0A,00,00,00,00,00,
32076887,00000100,false,Rx,0,8,00,00,00,00,8E,01,C8,00,
32077138,00000101,false,Rx,0,8,00,FF,FE,00,00,00,00,00,
32077387,00000102,false,Rx,0,8,01,84,01,00,00,01,00,00,
32149874,00000523,false,Rx,0,6,02,0E,EE,FF,FF,FF,00,00,
32176888,00000100,false,Rx,0,8,00,00,00,00,8E,01,C8,00,
32177140,00000101,false,Rx,0,8,00,FF,FE,00,00,00,00,00,
32177385,00000102,false,Rx,0,8,01,84,01,00,00,01,00,00,
32188617,00000526,false,Rx,0,6,05,0B,03,00,00,00,00,00,
32190136,00000524,false,Rx,0,6,03,00,F0,FF,FF,FF,00,00,
32276884,00000100,false,Rx,0,8,00,00,00,00,8E,01,C8,00,
32277136,00000101,false,Rx,0,8,00,FF,FE,00,00,00,00,00,
32277385,00000102,false,Rx,0,8,01,84,01,00,00,01,00,00,
32333064,00000522,false,Rx,0,6,01,0F,4F,D6,05,00,00,00,
32376881,00000100,false,Rx,0,8,00,00,00,00,8E,01,C8,00,
32377133,00000101,false,Rx,0,8,00,FF,FE,00,00,00,00,00,
32377378,00000102,false,Rx,0,8,01,84,01,00,00,01,00,00,
32399566,00000527,false,Rx,0,6,06,04,05,81,00,00,00,00,
32476882,00000100,false,Rx,0,8,00,00,00,00,8E,01,C8,00,
32477133,00000101,false,Rx,0,8,00,FF,FE,00,00,00,00,00,
32477376,00000102,false,Rx,0,8,01,84,01,00,00,01,00,00,
32576882,00000100,false,Rx,0,8,00,00,00,00,8E,01,C8,00,
32577128,00000101,false,Rx,0,8,00,FF,FE,00,00,00,00,00,
32577377,00000102,false,Rx,0,8,01,84,01,00,00,01,00,00,
32600806,00000521,false,Rx,0,6,00,03,0C,00,00,00,00,00,
32616936,00000525,false,Rx,0,6,04,05,BA,00,00,00,00,00,
32675374,00000528,false,Rx,0,6,07,0F,67,0D,00,00,00,00,
32676875,00000100,false,Rx,0,8,00,00,00,00,8E,01,C8,00,
32677128,00000101,false,Rx,0,8,00,FF,FE,00,00,00,00,00,
32677384,00000102,false,Rx,0,8,01,84,01,00,00,01,00,00,
32776877,00000100,false,Rx,0,8,00,00,00,00,8E,01,C8,00,
32777128,00000101,false,Rx,0,8,00,FF,FE,00,00,00,00,00,
32777373,00000102,false,Rx,0,8,01,84,01,00,00,01,00,00,
32798103,00000523,false,Rx,0,6,02,0F,EE,FF,FF,FF,00,00,
32856483,00000524,false,Rx,0,6,03,01,F6,FF,FF,FF,00,00,
32876874,00000100,false,Rx,0,8,00,00,00,00,8E,01,C8,00,
32877124,00000101,false,Rx,0,8,00,FF,FE,00,00,00,00,00,
32877368,00000102,false,Rx,0,8,01,84,01,00,00,01,00,00,
32890848,00000526,false,Rx,0,6,05,0C,00,00,00,00,00,00,
32963170,00000522,false,Rx,0,6,01,00,5A,D6,05,00,00,00,
32976873,00000100,false,Rx,0,8,00,00,00,00,8E,01,C8,00,
32977119,00000101,false,Rx,0,8,00,FF,FE,00,00,00,00,00,
32977364,00000102,false,Rx,0,8,01,84,01,00,00,01,00,00,
33076869,00000100,false,Rx,0,8,00,00,00,00,8E,01,C8,00,
33077121,00000101,false,Rx,0,8,00,FF,FE,00,00,00,00,00,
33077368,00000102,false,Rx,0,8,01,84,01,00,00,01,00,00,
33120268,00000527,false,Rx,0,6,06,05,05,81,00,00,00,00,
33176864,00000100,false,Rx,0,8,00,00,00,00,8E,01,C8,00,
33177117,00000101,false,Rx,0,8,00,FF,FE,00,00,00,00,00,
33177363,00000102,false,Rx,0,8,01,84,01,00,00,01,00,00,
33212802,00000521,false,Rx,0,6,00,04,0D,00,00,00,00,00,
33276861,00000100,false,Rx,0,8,00,00,00,00,8E,01,C8,00,
33277114,00000101,false,Rx,0,8,00,FF,FE,00,00,00,00,00,
33277359,00000102,false,Rx,0,8,01,84,01,00,00,01,00,00,
33301410,00000525,false,Rx,0,6,04,06,BA,00,00,00,00,00,
33376862,00000100,false,Rx,0,8,00,00,00,00,8E,01,C8,00,
33377114,00000101,false,Rx,0,8,00,FF,FE,00,00,00,00,00,
33377360,00000102,false,Rx,0,8,01,84,01,00,00,01,00,00,
33414194,00000528,false,Rx,0,6,07,00,67,0D,00,00,00,00,
33446339,00000523,false,Rx,0,6,02,00,EE,FF,FF,FF,00,00,
33476858,00000100,false,Rx,0,8,00,00,00,00,8E,01,C8,00,
33477113,00000101,false,Rx,0,8,00,FF,FE,00,00,00,00,00,
33477359,00000102,false,Rx,0,8,01,84,01,00,00,01,00,00,
33522849,00000524,false,Rx,0,6,03,02,EA,FF,FF,FF,00,00,
33576857,00000100,false,Rx,0,8,00,00,00,00,8E,01,C8,00,
33577109,00000101,false,Rx,0,8,00,FF,FE,00,00,00,00,00,
33577355,00000102,false,Rx,0,8,01,84,01,00,00,01,00,00,
33593637,00000522,false,Rx,0,6,01,01,5F,D6,05,00,00,00,
33593867,00000526,false,Rx,0,6,05,0D,1A,00,00,00,00,00,
33676856,00000100,false,Rx,0,8,00,00,00,00,8E,01,C8,00,
33677119,00000101,false,Rx,0,8,00,FF,FE,00,00,00,00,00,
33677354,00000102,false,Rx,0,8,01,84,01,00,00,01,00,00,
33776851,00000100,false,Rx,0,8,00,00,00,00,8E,01,C8,00,
33777104,00000101,false,Rx,0,8,00,FF,FE,00,00,00,00,00,
33777353,00000102,false,Rx,0,8,01,84,01,00,00,01,00,00,
33824803,00000521,false,Rx,0,6,00,05,08,00,00,00,00,00,
33840988,00000527,false,Rx,0,6,06,06,05,81,00,00,00,00,
33876852,00000100,false,Rx,0,8,00,00,00,00,8E,01,C8,00,
33877098,00000101,false,Rx,0,8,00,FF,FE,00,00,00,00,00,
33877343,00000102,false,Rx,0,8,01,84,01,00,00,01,00,00,
33976849,00000100,false,Rx,0,8,00,00,00,00,8E,01,C8,00,
33977102,00000101,false,Rx,0,8,00,FF,FE,00,00,00,00,00,
33977345,00000102,false,Rx,0,8,01,84,01,00,00,01,00,00,
33985880,00000525,false,Rx,0,6,04,07,BB,00,00,00,00,00,
34076847,00000100,false,Rx,0,8,00,00,00,00,8E,01,C8,00,
34077099,00000101,false,Rx,0,8,00,FF,FE,00,00,00,00,00,
34077341,00000102,false,Rx,0,8,01,84,01,00,00,01,00,00,
34094583,00000523,false,Rx,0,6,02,01,F7,FF,FF,FF,00,00,
34153031,00000528,false,Rx,0,6,07,01,67,0D,00,00,00,00,
34176842,00000100,false,Rx,0,8,00,00,00,00,8E,01,C8,00,
34177094,00000101,false,Rx,0,8,00,FF,FE,00,00,00,00,00,
34177338,00000102,false,Rx,0,8,01,84,01,00,00,01,00,00,
34189256,00000524,false,Rx,0,6,03,03,F4,FF,FF,FF,00,00,
34223414,00000522,false,Rx,0,6,01,02,59,D6,05,00,00,00,
34276843,00000100,false,Rx,0,8,00,00,00,00,8E,01,C8,00,
34277095,00000101,false,Rx,0,8,00,FF,FE,00,00,00,00,00,
34277349,00000102,false,Rx,0,8,01,84,01,00,00,01,00,00,
34296225,00000526,false,Rx,0,6,05,0E,07,00,00,00,00,00,
34376839,00000100,false,Rx,0,8,00,00,00,00,8E,01,C8,00,
34377092,00000101,false,Rx,0,8,00,FF,FE,00,00,00,00,00,
34377337,00000102,false,Rx,0,8,01,84,01,00,00,01,00,00,
34436805,00000521,false,Rx,0,6,00,06,03,00,00,00,00,00,
34476840,00000100,false,Rx,0,8,00,00,00,00,8E,01,C8,00,
34477086,00000101,false,Rx,0,8,00,FF,FE,00,00,00,00,00,
34477332,00000102,false,Rx,0,8,01,84,01,00,00,01,00,00,
34561704,00000527,false,Rx,0,6,06,07,05,81,00,00,00,00,
34576841,00000100,false,Rx,0,8,00,00,00,00,8E,01,C8,00,
34577086,00000101,false,Rx,0,8,00,FF,FE,00,00,00,00,00,
34577332,00000102,false,Rx,0,8,01,84,01,00,00,01,00,00,
34670362,00000525,false,Rx,0,6,04,08,BA,00,00,00,00,00,
34676836,00000100,false,Rx,0,8,00,00,00,00,8E,01,C8,00,
34677089,00000101,false,Rx,0,8,00,FF,FE,00,00,00,00,00,
34677335,00000102,false,Rx,0,8,01,84,01,00,00,01,00,00,
34742820,00000523,false,Rx,0,6,02,02,EE,FF,FF,FF,00,00,
34776830,00000100,false,Rx,0,8,00,00,00,00,8E,01,C8,00,
34777082,00000101,false,Rx,0,8,00,FF,FE,00,00,00,00,00,
34777329,00000102,false,Rx,0,8,01,84,01,00,00,01,00,00,
34854032,00000522,false,Rx,0,6,01,03,60,D6,05,00,00,00,
34855569,00000524,false,Rx,0,6,03,04,ED,FF,FF,FF,00,00,
34876828,00000100,false,Rx,0,8,00,00,00,00,8E,01,C8,00,
34877080,00000101,false,Rx,0,8,00,FF,FE,00,00,00,00,00,
34877326,00000102,false,Rx,0,8,01,84,01,00,00,01,00,00,
34891868,00000528,false,Rx,0,6,07,02,67,0D,00,00,00,00,
34976826,00000100,false,Rx,0,8,00,00,00,00,8E,01,C8,00,
34977077,00000101,false,Rx,0,8,00,FF,FE,00,00,00,00,00,
34977322,00000102,false,Rx,0,8,01,84,01,00,00,01,00,00,
34999027,00000526,false,Rx,0,6,05,0F,03,00,00,00,00,00,
35048806,00000521,false,Rx,0,6,00,07,09,00,00,00,00,00,
35076824,00000100,false,Rx,0,8,00,00,00,00,8E,01,C8,00,
35077078,00000101,false,Rx,0,8,00,FF,FE,00,00,00,00,00,
35077325,00000102,false,Rx,0,8,01,84,01,00,00,01,00,00,
35176825,00000100,false,Rx,0,8,00,00,00,00,8E,01,C8,00,
35177070,00000101,false,Rx,0,8,00,FF,FE,00,00,00,00,00,
35177322,00000102,false,Rx,0,8,01,84,01,00,00,01,00,00,
35276818,00000100,false,Rx,0,8,00,00,00,00,8E,01,C8,00,
35277070,00000101,false,Rx,0,8,00,FF,FE,00,00,00,00,00,
35277316,00000102,false,Rx,0,8,01,84,01,00,00,01,00,00,
35282412,00000527,false,Rx,0,6,06,08,05,81,00,00,00,00,
35354846,00000525,false,Rx,0,6,04,09,BB,00,00,00,00,00,
35376821,00000100,false,Rx,0,8,00,00,00,00,8E,01,C8,00,
35377070,00000101,false,Rx,0,8,00,FF,FE,00,00,00,00,00,
35377315,00000102,false,Rx,0,8,01,84,01,00,00,01,00,00,
35391059,00000523,false,Rx,0,6,02,03,EE,FF,FF,FF,00,00,
35476818,00000100,false,Rx,0,8,00,00,00,00,8E,01,C8,00,
35477071,00000101,false,Rx,0,8,00,FF,FE,00,00,00,00,00,
35477317,00000102,false,Rx,0,8,01,84,01,00,00,01,00,00,
35483663,00000522,false,Rx,0,6,01,04,60,D6,05,00,00,00,
35521924,00000524,false,Rx,0,6,03,05,EA,FF,FF,FF,00,00,
35576819,00000100,false,Rx,0,8,00,00,00,00,8E,01,C8,00,
35577076,00000101,false,Rx,0,8,00,FF,FE,00,00,00,00,00,
35577310,00000102,false,Rx,0,8,01,84,01,00,00,01,00,00,
35630701,00000528,false,Rx,0,6,07,03,67,0D,00,00,00,00,
35660815,00000521,false,Rx,0,6,00,08,00,00,00,00,00,00,
35676817,00000100,false,Rx,0,8,00,00,00,00,8E,01,C8,00,
35677062,00000101,false,Rx,0,8,00,FF,FE,00,00,00,00,00,
35677309,00000102,false,Rx,0,8,01,84,01,00,00,01,00,00,
35701232,00000526,false,Rx,0,6,05,00,FA,FF,FF,FF,00,00,
35776812,00000100,false,Rx,0,8,00,00,00,00,8E,01,C8,00,
35777064,00000101,false,Rx,0,8,00,FF,FE,00,00,00,00,00,
35777306,00000102,false,Rx,0,8,01,84,01,00,00,01,00,00,
35876809,00000100,false,Rx,0,8,00,00,00,00,8E,01,C8,00,
35877061,00000101,false,Rx,0,8,00,FF,FE,00,00,00,00,00,
35877304,00000102,false,Rx,0,8,01,84,01,00,00,01,00,00,
35976806,00000100,false,Rx,0,8,00,00,00,00,8E,01,C8,00,
35977059,00000101,false,Rx,0,8,00,FF,FE,00,00,00,00,00,
35977308,00000102,false,Rx,0,8,01,84,01,00,00,01,00,00,
36003126,00000527,false,Rx,0,6,06,09,05,81,00,00,00,00,
36039342,00000523,false,Rx,0,6,02,04,EA,FF,FF,FF,00,00,
36039564,00000525,false,Rx,0,6,04,0A,BA,00,00,00,00,00,
36076806,00000100,false,Rx,0,8,00,00,00,00,8E,01,C8,00,
36077058,00000101,false,Rx,0,8,00,FF,FE,00,00,00,00,00,
36077300,00000102,false,Rx,0,8,01,84,01,00,00,01,00,00,
36113776,00000522,false,Rx,0,6,01,05,64,D6,05,00,00,00,
36176800,00000100,false,Rx,0,8,00,00,00,00,8E,01,C8,00,
36177051,00000101,false,Rx,0,8,00,FF,FE,00,00,00,00,00,
36177298,00000102,false,Rx,0,8,01,84,01,00,00,01,00,00,
36188287,00000524,false,Rx,0,6,03,06,E9,FF,FF,FF,00,00,
36273071,00000521,false,Rx,0,6,00,09,0C,00,00,00,00,00,
36276803,00000100,false,Rx,0,8,00,00,00,00,8E,01,C8,00,
36277049,00000101,false,Rx,0,8,00,FF,FE,00,00,00,00,00,
36277295,00000102,false,Rx,0,8,01,84,01,00,00,01,00,00,
36369527,00000528,false,Rx,0,6,07,04,67,0D,00,00,00,00,
36376795,00000100,false,Rx,0,8,00,00,00,00,8E,01,C8,00,
36377047,00000101,false,Rx,0,8,00,FF,FE,00,00,00,00,00,
36377293,00000102,false,Rx,0,8,01,84,01,00,00,01,00,00,
36403990,00000526,false,Rx,0,6,05,01,00,00,00,00,00,00,
36476794,00000100,false,Rx,0,8,00,00,00,00,8E,01,C8,00,
36477047,00000101,false,Rx,0,8,00,FF,FE,00,00,00,00,00,
36477292,00000102,false,Rx,0,8,01,84,01,00,00,01,00,00,
36576797,00000100,false,Rx,0,8,00,00,00,00,8E,01,C8,00,
36577043,00000101,false,Rx,0,8,00,FF,FE,00,00,00,00,00,
36577289,00000102,false,Rx,0,8,01,84,01,00,00,01,00,00,
36676796,00000100,false,Rx,0,8,00,00,00,00,8E,01,C8,00,
36677043,00000101,false,Rx,0,8,00,FF,FE,00,00,00,00,00,
36677289,00000102,false,Rx,0,8,01,84,01,00,00,01,00,00,
36687545,00000523,false,Rx,0,6,02,05,E5,FF,FF,FF,00,00,
36724132,00000525,false,Rx,0,6,04,0B,BA,00,00,00,00,00,
36724353,00000527,false,Rx,0,6,06,0A,05,81,00,00,00,00,
36743905,00000522,false,Rx,0,6,01,06,60,D6,05,00,00,00,
36776790,00000100,false,Rx,0,8,00,00,00,00,8E,01,C8,00,
36777045,00000101,false,Rx,0,8,00,FF,FE,00,00,00,00,00,
36777291,00000102,false,Rx,0,8,01,84,01,00,00,01,00,00,
36854639,00000524,false,Rx,0,6,03,07,F1,FF,FF,FF,00,00,
36876795,00000100,false,Rx,0,8,00,00,00,00,8E,01,C8,00,
36877037,00000101,false,Rx,0,8,00,FF,FE,00,00,00,00,00,
36877283,00000102,false,Rx,0,8,01,84,01,00,00,01,00,00,
36884825,00000521,false,Rx,0,6,00,0A,04,00,00,00,00,00,
36976787,00000100,false,Rx,0,8,00,00,00,00,8E,01,C8,00,
36977039,00000101,false,Rx,0,8,00,FF,FE,00,00,00,00,00,
36977285,00000102,false,Rx,0,8,01,84,01,00,00,01,00,00,
37076787,00000100,false,Rx,0,8,00,00,00,00,8E,01,C8,00,
37077033,00000101,false,Rx,0,8,00,FF,FE,00,00,00,00,00,
37077282,00000102,false,Rx,0,8,01,84,01,00,00,01,00,00,
37106440,00000526,false,Rx,0,6,05,02,FF,FF,FF,FF,00,00,
37108366,00000528,false,Rx,0,6,07,05,67,0D,00,00,00,00,
37176781,00000100,false,Rx,0,8,00,00,00,00,8E,01,C8,00,
37177033,00000101,false,Rx,0,8,00,FF,FE,00,00,00,00,00,
37177282,00000102,false,Rx,0,8,01,84,01,00,00,01,00,00,
37276781,00000100,false,Rx,0,8,00,00,00,00,8E,01,C8,00,
37277033,00000101,false,Rx,0,8,00,FF,FE,00,00,00,00,00,
37277275,00000102,false,Rx,0,8,01,84,01,00,00,01,00,00,
37335790,00000523,false,Rx,0,6,02,06,E5,FF,FF,FF,00,00,
37374028,00000522,false,Rx,0,6,01,07,61,D6,05,00,00,00,
37376776,00000100,false,Rx,0,8,00,00,00,00,8E,01,C8,00,
37377027,00000101,false,Rx,0,8,00,FF,FE,00,00,00,00,00,
37377275,00000102,false,Rx,0,8,01,84,01,00,00,01,00,00,
37408276,00000525,false,Rx,0,6,04,0C,BA,00,00,00,00,00,
37444873,00000527,false,Rx,0,6,06,0B,05,81,00,00,00,00,
37476777,00000100,false,Rx,0,8,00,00,00,00,8E,01,C8,00,
37477029,00000101,false,Rx,0,8,00,FF,FE,00,00,00,00,00,
37477274,00000102,false,Rx,0,8,01,84,01,00,00,01,00,00,
37497825,00000521,false,Rx,0,6,00,0B,05,00,00,00,00,00,
37521003,00000524,false,Rx,0,6,03,08,F4,FF,FF,FF,00,00,
37576773,00000100,false,Rx,0,8,00,00,00,00,8E,01,C8,00,
37577025,00000101,false,Rx,0,8,00,FF,FE,00,00,00,00,00,
37577274,00000102,false,Rx,0,8,01,84,01,00,00,01,00,00,
37676775,00000100,false,Rx,0,8,00,00,00,00,8E,01,C8,00,
37677021,00000101,false,Rx,0,8,00,FF,FE,00,00,00,00,00,
37677267,00000102,false,Rx,0,8,01,84,01,00,00,01,00,00,
37776769,00000100,false,Rx,0,8,00,00,00,00,8E,01,C8,00,
37777021,00000101,false,Rx,0,8,00,FF,FE,00,00,00,00,00,
37777267,00000102,false,Rx,0,8,01,84,01,00,00,01,00,00,
37809214,00000526,false,Rx,0,6,05,03,FF,FF,FF,FF,00,00,
37847206,00000528,false,Rx,0,6,07,06,67,0D,00,00,00,00,
37876770,00000100,false,Rx,0,8,00,00,00,00,8E,01,C8,00,
37877018,00000101,false,Rx,0,8,00,FF,FE,00,00,00,00,00,
37877264,00000102,false,Rx,0,8,01,84,01,00,00,01,00,00,
37976763,00000100,false,Rx,0,8,00,00,00,00,8E,01,C8,00,
37977014,00000101,false,Rx,0,8,00,FF,FE,00,00,00,00,00,
37977260,00000102,false,Rx,0,8,01,84,01,00,00,01,00,00,
37984031,00000523,false,Rx,0,6,02,07,FD,FF,FF,FF,00,00,
38004144,00000522,false,Rx,0,6,01,08,6F,D6,05,00,00,00,
38076763,00000100,false,Rx,0,8,00,00,00,00,8E,01,C8,00,
38077016,00000101,false,Rx,0,8,00,FF,FE,00,00,00,00,00,
38077262,00000102,false,Rx,0,8,01,84,01,00,00,01,00,00,
38092761,00000525,false,Rx,0,6,04,0D,BA,00,00,00,00,00,
38109880,00000521,false,Rx,0,6,00,0C,0C,00,00,00,00,00,
38165286,00000527,false,Rx,0,6,06,0C,05,81,00,00,00,00,
38176763,00000100,false,Rx,0,8,00,00,00,00,8E,01,C8,00,
38177012,00000101,false,Rx,0,8,00,FF,FE,00,00,00,00,00,
38177258,00000102,false,Rx,0,8,01,84,01,00,00,01,00,00,
38187365,00000524,false,Rx,0,6,03,09,EC,FF,FF,FF,00,00,
38276763,00000100,false,Rx,0,8,00,00,00,00,8E,01,C8,00,
38277009,00000101,false,Rx,0,8,00,FF,FE,00,00,00,00,00,
38277254,00000102,false,Rx,0,8,01,84,01,00,00,01,00,00,
38376760,00000100,false,Rx,0,8,00,00,00,00,8E,01,C8,00,
38377005,00000101,false,Rx,0,8,00,FF,FE,00,00,00,00,00,
38377255,00000102,false,Rx,0,8,01,84,01,00,00,01,00,00,
38476757,00000100,false,Rx,0,8,00,00,00,00,8E,01,C8,00,
38477009,00000101,false,Rx,0,8,00,FF,FE,00,00,00,00,00,
38477252,00000102,false,Rx,0,8,01,84,01,00,00,01,00,00,
38511818,00000526,false,Rx,0,6,05,04,01,00,00,00,00,00,
38576753,00000100,false,Rx,0,8,00,00,00,00,8E,01,C8,00,
38577006,00000101,false,Rx,0,8,00,FF,FE,00,00,00,00,00,
38577248,00000102,false,Rx,0,8,01,84,01,00,00,01,00,00,
38586034,00000528,false,Rx,0,6,07,07,67,0D,00,00,00,00,
38632283,00000523,false,Rx,0,6,02,08,F9,FF,FF,FF,00,00,
38634280,00000522,false,Rx,0,6,01,09,69,D6,05,00,00,00,
38676751,00000100,false,Rx,0,8,00,00,00,00,8E,01,C8,00,
38677003,00000101,false,Rx,0,8,00,FF,FE,00,00,00,00,00,
38677245,00000102,false,Rx,0,8,01,84,01,00,00,01,00,00,
38721855,00000521,false,Rx,0,6,00,0D,06,00,00,00,00,00,
38776750,00000100,false,Rx,0,8,00,00,00,00,8E,01,C8,00,
38776996,00000101,false,Rx,0,8,00,FF,FE,00,00,00,00,00,
38777245,00000102,false,Rx,0,8,01,84,01,00,00,01,00,00,
38777450,00000525,false,Rx,0,6,04,0E,BA,00,00,00,00,00,
38853747,00000524,false,Rx,0,6,03,0A,EC,FF,FF,FF,00,00,
38876751,00000100,false,Rx,0,8,00,00,00,00,8E,01,C8,00,
38876997,00000101,false,Rx,0,8,00,FF,FE,00,00,00,00,00,
38877242,00000102,false,Rx,0,8,01,84,01,00,00,01,00,00,
38886003,00000527,false,Rx,0,6,06,0D,05,81,00,00,00,00,
38976748,00000100,false,Rx,0,8,00,00,00,00,8E,01,C8,00,
38976993,00000101,false,Rx,0,8,00,FF,FE,00,00,00,00,00,
38977247,00000102,false,Rx,0,8,01,84,01,00,00,01,00,00,
39076745,00000100,false,Rx,0,8,00,00,00,00,8E,01,C8,00,
39076990,00000101,false,Rx,0,8,00,FF,FE,00,00,00,00,00,
39077236,00000102,false,Rx,0,8,01,84,01,00,00,01,00,00,
39176738,00000100,false,Rx,0,8,00,00,00,00,8E,01,C8,00,
39176991,00000101,false,Rx,0,8,00,FF,FE,00,00,00,00,00,
39177237,00000102,false,Rx,0,8,01,84,01,00,00,01,00,00,
39214389,00000526,false,Rx,0,6,05,05,01,00,00,00,00,00,
39264409,00000522,false,Rx,0,6,01,0A,72,D6,05,00,00,00,
39276739,00000100,false,Rx,0,8,00,00,00,00,8E,01,C8,00,
39276991,00000101,false,Rx,0,8,00,FF,FE,00,00,00,00,00,
39277237,00000102,false,Rx,0,8,01,84,01,00,00,01,00,00,
39280538,00000523,false,Rx,0,6,02,09,F9,FF,FF,FF,00,00,
39324887,00000528,false,Rx,0,6,07,08,67,0D,00,00,00,00,
39333877,00000521,false,Rx,0,6,00,0E,0B,00,00,00,00,00,
39376738,00000100,false,Rx,0,8,00,00,00,00,8E,01,C8,00,
39376991,00000101,false,Rx,0,8,00,FF,FE,00,00,00,00,00,
39377237,00000102,false,Rx,0,8,01,84,01,00,00,01,00,00,
39461729,00000525,false,Rx,0,6,04,0F,BA,00,00,00,00,00,
39476736,00000100,false,Rx,0,8,00,00,00,00,8E,01,C8,00,
39476988,00000101,false,Rx,0,8,00,FF,FE,00,00,00,00,00,
39477234,00000102,false,Rx,0,8,01,84,01,00,00,01,00,00,
39520108,00000524,false,Rx,0,6,03,0B,F2,FF,FF,FF,00,00,
39576732,00000100,false,Rx,0,8,00,00,00,00,8E,01,C8,00,
39576984,00000101,false,Rx,0,8,00,FF,FE,00,00,00,00,00,
39577230,00000102,false,Rx,0,8,01,84,01,00,00,01,00,00,
39606731,00000527,false,Rx,0,6,06,0E,05,81,00,00,00,00,
39676732,00000100,false,Rx,0,8,00,00,00,00,8E,01,C8,00,
39676978,00000101,false,Rx,0,8,00,FF,FE,00,00,00,00,00,
39677224,00000102,false,Rx,0,8,01,84,01,00,00,01,00,00,
39776729,00000100,false,Rx,0,8,00,00,00,00,8E,01,C8,00,
39776981,00000101,false,Rx,0,8,00,FF,FE,00,00,00,00,00,
39777227,00000102,false,Rx,0,8,01,84,01,00,00,01,00,00,
39876726,00000100,false,Rx,0,8,00,00,00,00,8E,01,C8,00,
39876979,00000101,false,Rx,0,8,00,FF,FE,00,00,00,00,00,
39877225,00000102,false,Rx,0,8,01,84,01,00,00,01,00,00,
39894517,00000522,false,Rx,0,6,01,0B,74,D6,05,00,00,00,
39916824,00000526,false,Rx,0,6,05,06,FE,FF,FF,FF,00,00,
39928748,00000523,false,Rx,0,6,02,0A,EF,FF,FF,FF,00,00,
39945855,00000521,false,Rx,0,6,00,0F,09,00,00,00,00,00,
39976727,00000100,false,Rx,0,8,00,00,00,00,8E,01,C8,00,
39976971,00000101,false,Rx,0,8,00,FF,FE,00,00,00,00,00,
39977217,00000102,false,Rx,0,8,01,84,01,00,00,01,00,00,
40063692,00000528,false,Rx,0,6,07,09,67,0D,00,00,00,00,
40076721,00000100,false,Rx,0,8,00,00,00,00,8E,01,C8,00,
40076969,00000101,false,Rx,0,8,00,FF,FE,00,00,00,00,00,
40077215,00000102,false,Rx,0,8,01,84,01,00,00,01,00,00,
40146191,00000525,false,Rx,0,6,04,00,BB,00,00,00,00,00,
40176721,00000100,false,Rx,0,8,00,00,00,00,8E,01,C8,00,
40176969,00000101,false,Rx,0,8,00,FF,FE,00,00,00,00,00,
40177215,00000102,false,Rx,0,8,01,84,01,00,00,01,00,00,
40186449,00000524,false,Rx,0,6,03,0C,FC,FF,FF,FF,00,00,
40276720,00000100,false,Rx,0,8,00,00,00,00,8E,01,C8,00,
40276972,00000101,false,Rx,0,8,00,FF,FE,00,00,00,00,00,
40277218,00000102,false,Rx,0,8,01,84,01,00,00,01,00,00,
40327426,00000527,false,Rx,0,6,06,0F,05,81,00,00,00,00,
40376714,00000100,false,Rx,0,8,00,00,00,00,8E,01,C8,00,
40376966,00000101,false,Rx,0,8,00,FF,FE,00,00,00,00,00,
40377211,00000102,false,Rx,0,8,01,84,01,00,00,01,00,00,
40476714,00000100,false,Rx,0,8,00,00,00,00,8E,01,C8,00,
40476966,00000101,false,Rx,0,8,00,FF,FE,00,00,00,00,00,
40477208,00000102,false,Rx,0,8,01,84,01,00,00,01,00,00,
40524620,00000522,false,Rx,0,6,01,0C,67,D6,05,00,00,00,
40557830,00000521,false,Rx,0,6,00,00,09,00,00,00,00,00,
40576710,00000100,false,Rx,0,8,00,00,00,00,8E,01,C8,00,
40576961,00000101,false,Rx,0,8,00,FF,FE,00,00,00,00,00,
40577206,00000102,false,Rx,0,8,01,84,01,00,00,01,00,00,
40577415,00000523,false,Rx,0,6,02,0B,F8,FF,FF,FF,00,00,
40619571,00000526,false,Rx,0,6,05,07,FF,FF,FF,FF,00,00,
40676707,00000100,false,Rx,0,8,00,00,00,00,8E,01,C8,00,
40676960,00000101,false,Rx,0,8,00,FF,FE,00,00,00,00,00,
40677203,00000102,false,Rx,0,8,01,84,01,00,00,01,00,00,
40776708,00000100,false,Rx,0,8,00,00,00,00,8E,01,C8,00,
40776960,00000101,false,Rx,0,8,00,FF,FE,00,00,00,00,00,
40777203,00000102,false,Rx,0,8,01,84,01,00,00,01,00,00,
40802576,00000528,false,Rx,0,6,07,0A,67,0D,00,00,00,00,
40830652,00000525,false,Rx,0,6,04,01,BA,00,00,00,00,00,
40852775,00000524,false,Rx,0,6,03,0D,F9,FF,FF,FF,00,00,
40876705,00000100,false,Rx,0,8,00,00,00,00,8E,01,C8,00,
40876958,00000101,false,Rx,0,8,00,FF,FE,00,00,00,00,00,
40877199,00000102,false,Rx,0,8,01,84,01,00,00,01,00,00,
40976701,00000100,false,Rx,0,8,00,00,00,00,8E,01,C8,00,
40976953,00000101,false,Rx,0,8,00,FF,FE,00,00,00,00,00,
40977213,00000102,false,Rx,0,8,01,84,01,00,00,01,00,00,
41048112,00000527,false,Rx,0,6,06,00,05,81,00,00,00,00,
41076699,00000100,false,Rx,0,8,00,00,00,00,8E,01,C8,00,
41076951,00000101,false,Rx,0,8,00,FF,FE,00,00,00,00,00,
41077196,00000102,false,Rx,0,8,01,84,01,00,00,01,00,00,
41154732,00000522,false,Rx,0,6,01,0D,6A,D6,05,00,00,00,
41169818,00000521,false,Rx,0,6,00,01,07,00,00,00,00,00,
41176700,00000100,false,Rx,0,8,00,00,00,00,8E,01,C8,00,
41176952,00000101,false,Rx,0,8,00,FF,FE,00,00,00,00,00,
41177198,00000102,false,Rx,0,8,01,84,01,00,00,01,00,00,
41225207,00000523,false,Rx,0,6,02,0C,F8,FF,FF,FF,00,00,
41276701,00000100,false,Rx,0,8,00,00,00,00,8E,01,C8,00,
41276946,00000101,false,Rx,0,8,00,FF,FE,00,00,00,00,00,
41277192,00000102,false,Rx,0,8,01,84,01,00,00,01,00,00,
41321975,00000526,false,Rx,0,6,05,08,F8,FF,FF,FF,00,00,
41376699,00000100,false,Rx,0,8,00,00,00,00,8E,01,C8,00,
41376944,00000101,false,Rx,0,8,00,FF,FE,00,00,00,00,00,
41377190,00000102,false,Rx,0,8,01,84,01,00,00,01,00,00,
41476689,00000100,false,Rx,0,8,00,00,00,00,8E,01,C8,00,
41476940,00000101,false,Rx,0,8,00,FF,FE,00,00,00,00,00,
41477186,00000102,false,Rx,0,8,01,84,01,00,00,01,00,00,
41515108,00000525,false,Rx,0,6,04,02,BB,00,00,00,00,00,
41519117,00000524,false,Rx,0,6,03,0E,EB,FF,FF,FF,00,00,
41541332,00000528,false,Rx,0,6,07,0B,67,0D,00,00,00,00,
41576692,00000100,false,Rx,0,8,00,00,00,00,8E,01,C8,00,
41576944,00000101,false,Rx,0,8,00,FF,FE,00,00,00,00,00,
41577189,00000102,false,Rx,0,8,01,84,01,00,00,01,00,00,
41676689,00000100,false,Rx,0,8,00,00,00,00,8E,01,C8,00,
41676942,00000101,false,Rx,0,8,00,FF,FE,00,00,00,00,00,
41677187,00000102,false,Rx,0,8,01,84,01,00,00,01,00,00,
41768884,00000527,false,Rx,0,6,06,01,05,81,00,00,00,00,
41776685,00000100,false,Rx,0,8,00,00,00,00,8E,01,C8,00,
41776937,00000101,false,Rx,0,8,00,FF,FE,00,00,00,00,00,
41777184,00000102,false,Rx,0,8,01,84,01,00,00,01,00,00,
41781823,00000521,false,Rx,0,6,00,02,07,00,00,00,00,00,
41784844,00000522,false,Rx,0,6,01,0E,80,D6,05,00,00,00,
41873427,00000523,false,Rx,0,6,02,0D,F2,FF,FF,FF,00,00,
41876686,00000100,false,Rx,0,8,00,00,00,00,8E,01,C8,00,
41876938,00000101,false,Rx,0,8,00,FF,FE,00,00,00,00,00,
41877184,00000102,false,Rx,0,8,01,84,01,00,00,01,00,00,
41976685,00000100,false,Rx,0,8,00,00,00,00,8E,01,C8,00,
41976930,00000101,false,Rx,0,8,00,FF,FE,00,00,00,00,00,
41977176,00000102,false,Rx,0,8,01,84,01,00,00,01,00,00,
42024744,00000526,false,Rx,0,6,05,09,F8,FF,FF,FF,00,00,
42076683,00000100,false,Rx,0,8,00,00,00,00,8E,01,C8,00,
42076928,00000101,false,Rx,0,8,00,FF,FE,00,00,00,00,00,
42077174,00000102,false,Rx,0,8,01,84,01,00,00,01,00,00,
42176678,00000100,false,Rx,0,8,00,00,00,00,8E,01,C8,00,
42176931,00000101,false,Rx,0,8,00,FF,FE,00,00,00,00,00,
42177177,00000102,false,Rx,0,8,01,84,01,00,00,01,00,00,
42185475,00000524,false,Rx,0,6,03,0F,E7,FF,FF,FF,00,00,
42199577,00000525,false,Rx,0,6,04,03,BA,00,00,00,00,00,
42276677,00000100,false,Rx,0,8,00,00,00,00,8E,01,C8,00,
42276929,00000101,false,Rx,0,8,00,FF,FE,00,00,00,00,00,
42277176,00000102,false,Rx,0,8,01,84,01,00,00,01,00,00,
42280411,00000528,false,Rx,0,6,07,0C,67,0D,00,00,00,00,
42376672,00000100,false,Rx,0,8,00,00,00,00,8E,01,C8,00,
42376924,00000101,false,Rx,0,8,00,FF,FE,00,00,00,00,00,
42377170,00000102,false,Rx,0,8,01,84,01,00,00,01,00,00,
42393818,00000521,false,Rx,0,6,00,03,02,00,00,00,00,00,
42414942,00000522,false,Rx,0,6,01,0F,6D,D6,05,00,00,00,
42476670,00000100,false,Rx,0,8,00,00,00,00,8E,01,C8,00,
42476922,00000101,false,Rx,0,8,00,FF,FE,00,00,00,00,00,
42477168,00000102,false,Rx,0,8,01,84,01,00,00,01,00,00,
42489518,00000527,false,Rx,0,6,06,02,05,81,00,00,00,00,
42521671,00000523,false,Rx,0,6,02,0E,ED,FF,FF,FF,00,00,
42576670,00000100,false,Rx,0,8,00,00,00,00,8E,01,C8,00,
42576927,00000101,false,Rx,0,8,00,FF,FE,00,00,00,00,00,
42577167,00000102,false,Rx,0,8,01,84,01,00,00,01,00,00,
42676669,00000100,false,Rx,0,8,00,00,00,00,8E,01,C8,00,
42676915,00000101,false,Rx,0,8,00,FF,FE,00,00,00,00,00,
42677164,00000102,false,Rx,0,8,01,84,01,00,00,01,00,00,
42727348,00000526,false,Rx,0,6,05,0A,03,00,00,00,00,00,
42776663,00000100,false,Rx,0,8,00,00,00,00,8E,01,C8,00,
42776916,00000101,false,Rx,0,8,00,FF,FE,00,00,00,00,00,
42777160,00000102,false,Rx,0,8,01,84,01,00,00,01,00,00,
42851831,00000524,false,Rx,0,6,03,00,E9,FF,FF,FF,00,00,
42876664,00000100,false,Rx,0,8,00,00,00,00,8E,01,C8,00,
42876916,00000101,false,Rx,0,8,00,FF,FE,00,00,00,00,00,
42877162,00000102,false,Rx,0,8,01,84,01,00,00,01,00,00,
42884057,00000525,false,Rx,0,6,04,04,BA,00,00,00,00,00,
42976660,00000100,false,Rx,0,8,00,00,00,00,8E,01,C8,00,
42976912,00000101,false,Rx,0,8,00,FF,FE,00,00,00,00,00,
42977161,00000102,false,Rx,0,8,01,84,01,00,00,01,00,00,
43005828,00000521,false,Rx,0,6,00,04,0D,00,00,00,00,00,
43018993,00000528,false,Rx,0,6,07,0D,67,0D,00,00,00,00,
43045089,00000522,false,Rx,0,6,01,00,7C,D6,05,00,00,00,
43076658,00000100,false,Rx,0,8,00,00,00,00,8E,01,C8,00,
43076910,00000101,false,Rx,0,8,00,FF,FE,00,00,00,00,00,
43077155,00000102,false,Rx,0,8,01,84,01,00,00,01,00,00,
43169904,00000523,false,Rx,0,6,02,0F,ED,FF,FF,FF,00,00,
43176657,00000100,false,Rx,0,8,00,00,00,00,8E,01,C8,00,
43176909,00000101,false,Rx,0,8,00,FF,FE,00,00,00,00,00,
43177159,00000102,false,Rx,0,8,01,84,01,00,00,01,00,00,
43210245,00000527,false,Rx,0,6,06,03,05,81,00,00,00,00,
43276658,00000100,false,Rx,0,8,00,00,00,00,8E,01,C8,00,
43276904,00000101,false,Rx,0,8,00,FF,FE,00,00,00,00,00,
43277150,00000102,false,Rx,0,8,01,84,01,00,00,01,00,00,
43376656,00000100,false,Rx,0,8,00,00,00,00,8E,01,C8,00,
43376908,00000101,false,Rx,0,8,00,FF,FE,00,00,00,00,00,
43377154,00000102,false,Rx,0,8,01,84,01,00,00,01,00,00,
43429997,00000526,false,Rx,0,6,05,0B,0C,00,00,00,00,00,
43476659,00000100,false,Rx,0,8,00,00,00,00,8E,01,C8,00,
43476898,00000101,false,Rx,0,8,00,FF,FE,00,00,00,00,00,
43477144,00000102,false,Rx,0,8,01,84,01,00,00,01,00,00,
43518191,00000524,false,Rx,0,6,03,01,E5,FF,FF,FF,00,00,
43568540,00000525,false,Rx,0,6,04,05,BA,00,00,00,00,00,
43576658,00000100,false,Rx,0,8,00,00,00,00,8E,01,C8,00,
43576897,00000101,false,Rx,0,8,00,FF,FE,00,00,00,00,00,
43577143,00000102,false,Rx,0,8,01,84,01,00,00,01,00,00,
43617820,00000521,false,Rx,0,6,00,05,0A,00,00,00,00,00,
43675205,00000522,false,Rx,0,6,01,01,7A,D6,05,00,00,00,
43676658,00000100,false,Rx,0,8,00,00,00,00,8E,01,C8,00,
43676898,00000101,false,Rx,0,8,00,FF,FE,00,00,00,00,00,
43677143,00000102,false,Rx,0,8,01,84,01,00,00,01,00,00,
43757822,00000528,false,Rx,0,6,07,0E,67,0D,00,00,00,00,
43776653,00000100,false,Rx,0,8,00,00,00,00,8E,01,C8,00,
43776893,00000101,false,Rx,0,8,00,FF,FE,00,00,00,00,00,
43777138,00000102,false,Rx,0,8,01,84,01,00,00,01,00,00,
43818149,00000523,false,Rx,0,6,02,00,F8,FF,FF,FF,00,00,
43876652,00000100,false,Rx,0,8,00,00,00,00,8E,01,C8,00,
43876891,00000101,false,Rx,0,8,00,FF,FE,00,00,00,00,00,
43877137,00000102,false,Rx,0,8,01,84,01,00,00,01,00,00,
43930945,00000527,false,Rx,0,6,06,04,05,81,00,00,00,00,
43976641,00000100,false,Rx,0,8,00,00,00,00,8E,01,C8,00,
43976902,00000101,false,Rx,0,8,00,FF,FE,00,00,00,00,00,
43977136,00000102,false,Rx,0,8,01,84,01,00,00,01,00,00,
44076637,00000100,false,Rx,0,8,00,00,00,00,8E,01,C8,00,
44076897,00000101,false,Rx,0,8,00,FF,FE,00,00,00,00,00,
44077136,00000102,false,Rx,0,8,01,84,01,00,00,01,00,00,
44132337,00000526,false,Rx,0,6,05,0C,FC,FF,FF,FF,00,00,
44176638,00000100,false,Rx,0,8,00,00,00,00,8E,01,C8,00,
44176887,00000101,false,Rx,0,8,00,FF,FE,00,00,00,00,00,
44177132,00000102,false,Rx,0,8,01,84,01,00,00,01,00,00,
44184546,00000524,false,Rx,0,6,03,02,FD,FF,FF,FF,00,00,
44229813,00000521,false,Rx,0,6,00,06,06,00,00,00,00,00,
44253004,00000525,false,Rx,0,6,04,06,BA,00,00,00,00,00,
44276639,00000100,false,Rx,0,8,00,00,00,00,8E,01,C8,00,
44276884,00000101,false,Rx,0,8,00,FF,FE,00,00,00,00,00,
44277130,00000102,false,Rx,0,8,01,84,01,00,00,01,00,00,
44305561,00000522,false,Rx,0,6,01,02,77,D6,05,00,00,00,
44376640,00000100,false,Rx,0,8,00,00,00,00,8E,01,C8,00,
44376886,00000101,false,Rx,0,8,00,FF,FE,00,00,00,00,00,
44377132,00000102,false,Rx,0,8,01,84,01,00,00,01,00,00,
44466373,00000523,false,Rx,0,6,02,01,E9,FF,FF,FF,00,00,
44476640,00000100,false,Rx,0,8,00,00,00,00,8E,01,C8,00,
44476882,00000101,false,Rx,0,8,00,FF,FE,00,00,00,00,00,
44477128,00000102,false,Rx,0,8,01,84,01,00,00,01,00,00,
44496638,00000528,false,Rx,0,6,07,0F,67,0D,00,00,00,00,
44576644,00000100,false,Rx,0,8,00,00,00,00,8E,01,C8,00,
44576878,00000101,false,Rx,0,8,00,FF,FE,00,00,00,00,00,
44577124,00000102,false,Rx,0,8,01,84,01,00,00,01,00,00,
44651714,00000527,false,Rx,0,6,06,05,05,81,00,00,00,00,
44676638,00000100,false,Rx,0,8,00,00,00,00,8E,01,C8,00,
44676885,00000101,false,Rx,0,8,00,FF,FE,00,00,00,00,00,
44677126,00000102,false,Rx,0,8,01,84,01,00,00,01,00,00,
44776634,00000100,false,Rx,0,8,00,00,00,00,8E,01,C8,00,
44776874,00000101,false,Rx,0,8,00,FF,FE,00,00,00,00,00,
44777123,00000102,false,Rx,0,8,01,84,01,00,00,01,00,00,
44834829,00000526,false,Rx,0,6,05,0D,00,00,00,00,00,00,
44841805,00000521,false,Rx,0,6,00,07,0A,00,00,00,00,00,
44850879,00000524,false,Rx,0,6,03,03,F1,FF,FF,FF,00,00,
44876620,00000100,false,Rx,0,8,00,00,00,00,8E,01,C8,00,
44876874,00000101,false,Rx,0,8,00,FF,FE,00,00,00,00,00,
44877117,00000102,false,Rx,0,8,01,84,01,00,00,01,00,00,
44935403,00000522,false,Rx,0,6,01,03,76,D6,05,00,00,00,
44937448,00000525,false,Rx,0,6,04,07,BB,00,00,00,00,00,
44976629,00000100,false,Rx,0,8,00,00,00,00,8E,01,C8,00,
44976868,00000101,false,Rx,0,8,00,FF,FE,00,00,00,00,00,
44977116,00000102,false,Rx,0,8,01,84,01,00,00,01,00,00,
45076620,00000100,false,Rx,0,8,00,00,00,00,8E,01,C8,00,
45076868,00000101,false,Rx,0,8,00,FF,FE,00,00,00,00,00,
45077117,00000102,false,Rx,0,8,01,84,01,00,00,01,00,00,
45114589,00000523,false,Rx,0,6,02,02,E9,FF,FF,FF,00,00,
45176613,00000100,false,Rx,0,8,00,00,00,00,8E,01,C8,00,
45176866,00000101,false,Rx,0,8,00,FF,FE,00,00,00,00,00,
45177109,00000102,false,Rx,0,8,01,84,01,00,00,01,00,00,
45235448,00000528,false,Rx,0,6,07,00,67,0D,00,00,00,00,
45276614,00000100,false,Rx,0,8,00,00,00,00,8E,01,C8,00,
45276862,00000101,false,Rx,0,8,00,FF,FE,00,00,00,00,00,
45277112,00000102,false,Rx,0,8,01,84,01,00,00,01,00,00,
45372579,00000527,false,Rx,0,6,06,06,05,81,00,00,00,00,
45376612,00000100,false,Rx,0,8,00,00,00,00,8E,01,C8,00,
45376859,00000101,false,Rx,0,8,00,FF,FE,00,00,00,00,00,
45377105,00000102,false,Rx,0,8,01,84,01,00,00,01,00,00,
45453789,00000521,false,Rx,0,6,00,08,04,00,00,00,00,00,
45476610,00000100,false,Rx,0,8,00,00,00,00,8E,01,C8,00,
45476857,00000101,false,Rx,0,8,00,FF,FE,00,00,00,00,00,
45477102,00000102,false,Rx,0,8,01,84,01,00,00,01,00,00,
45517212,00000524,false,Rx,0,6,03,04,E7,FF,FF,FF,00,00,
45537707,00000526,false,Rx,0,6,05,0E,00,00,00,00,00,00,
45565512,00000522,false,Rx,0,6,01,04,90,D6,05,00,00,00,
45576607,00000100,false,Rx,0,8,00,00,00,00,8E,01,C8,00,
45576855,00000101,false,Rx,0,8,00,FF,FE,00,00,00,00,00,
45577101,00000102,false,Rx,0,8,01,84,01,00,00,01,00,00,
45621902,00000525,false,Rx,0,6,04,08,BB,00,00,00,00,00,
45676607,00000100,false,Rx,0,8,00,00,00,00,8E,01,C8,00,
45676854,00000101,false,Rx,0,8,00,FF,FE,00,00,00,00,00,
45677100,00000102,false,Rx,0,8,01,84,01,00,00,01,00,00,
45762805,00000523,false,Rx,0,6,02,03,E9,FF,FF,FF,00,00,
45776606,00000100,false,Rx,0,8,00,00,00,00,8E,01,C8,00,
45776853,00000101,false,Rx,0,8,00,FF,FE,00,00,00,00,00,
45777099,00000102,false,Rx,0,8,01,84,01,00,00,01,00,00,
45876604,00000100,false,Rx,0,8,00,00,00,00,8E,01,C8,00,
45876851,00000101,false,Rx,0,8,00,FF,FE,00,00,00,00,00,
45877097,00000102,false,Rx,0,8,01,84,01,00,00,01,00,00,
45974256,00000528,false,Rx,0,6,07,01,67,0D,00,00,00,00,
45976596,00000100,false,Rx,0,8,00,00,00,00,8E,01,C8,00,
45976853,00000101,false,Rx,0,8,00,FF,FE,00,00,00,00,00,
45977092,00000102,false,Rx,0,8,01,84,01,00,00,01,00,00,
46065775,00000521,false,Rx,0,6,00,09,0A,00,00,00,00,00,
46076595,00000100,false,Rx,0,8,00,00,00,00,8E,01,C8,00,
46076845,00000101,false,Rx,0,8,00,FF,FE,00,00,00,00,00,
46077091,00000102,false,Rx,0,8,01,84,01,00,00,01,00,00,
46093025,00000527,false,Rx,0,6,06,07,05,81,00,00,00,00,
46176594,00000100,false,Rx,0,8,00,00,00,00,8E,01,C8,00,
46176848,00000101,false,Rx,0,8,00,FF,FE,00,00,00,00,00,
46177095,00000102,false,Rx,0,8,01,84,01,00,00,01,00,00,
46183564,00000524,false,Rx,0,6,03,05,F5,FF,FF,FF,00,00,
46195620,00000522,false,Rx,0,6,01,05,78,D6,05,00,00,00,
46240241,00000526,false,Rx,0,6,05,0F,0C,00,00,00,00,00,
46276593,00000100,false,Rx,0,8,00,00,00,00,8E,01,C8,00,
46276843,00000101,false,Rx,0,8,00,FF,FE,00,00,00,00,00,
46277089,00000102,false,Rx,0,8,01,84,01,00,00,01,00,00,
46306373,00000525,false,Rx,0,6,04,09,BA,00,00,00,00,00,
46376590,00000100,false,Rx,0,8,00,00,00,00,8E,01,C8,00,
46376844,00000101,false,Rx,0,8,00,FF,FE,00,00,00,00,00,
46377090,00000102,false,Rx,0,8,01,84,01,00,00,01,00,00,
46411039,00000523,false,Rx,0,6,02,04,F3,FF,FF,FF,00,00,
46476590,00000100,false,Rx,0,8,00,00,00,00,8E,01,C8,00,
46476837,00000101,false,Rx,0,8,00,FF,FE,00,00,00,00,00,
46477086,00000102,false,Rx,0,8,01,84,01,00,00,01,00,00,
46576589,00000100,false,Rx,0,8,00,00,00,00,8E,01,C8,00,
46576838,00000101,false,Rx,0,8,00,FF,FE,00,00,00,00,00,
46577087,00000102,false,Rx,0,8,01,84,01,00,00,01,00,00,
46676583,00000100,false,Rx,0,8,00,00,00,00,8E,01,C8,00,
46676837,00000101,false,Rx,0,8,00,FF,FE,00,00,00,00,00,
46677079,00000102,false,Rx,0,8,01,84,01,00,00,01,00,00,
46677765,00000521,false,Rx,0,6,00,0A,10,00,00,00,00,00,
46713079,00000528,false,Rx,0,6,07,02,67,0D,00,00,00,00,
46776583,00000100,false,Rx,0,8,00,00,00,00,8E,01,C8,00,
46776830,00000101,false,Rx,0,8,00,FF,FE,00,00,00,00,00,
46777079,00000102,false,Rx,0,8,01,84,01,00,00,01,00,00,
46813735,00000527,false,Rx,0,6,06,08,05,81,00,00,00,00,
46825740,00000522,false,Rx,0,6,01,06,8A,D6,05,00,00,00,
46849917,00000524,false,Rx,0,6,03,06,F7,FF,FF,FF,00,00,
46876580,00000100,false,Rx,0,8,00,00,00,00,8E,01,C8,00,
46876827,00000101,false,Rx,0,8,00,FF,FE,00,00,00,00,00,
46877073,00000102,false,Rx,0,8,01,84,01,00,00,01,00,00,
46942838,00000526,false,Rx,0,6,05,00,03,00,00,00,00,00,
46976575,00000100,false,Rx,0,8,00,00,00,00,8E,01,C8,00,
46976828,00000101,false,Rx,0,8,00,FF,FE,00,00,00,00,00,
46977073,00000102,false,Rx,0,8,01,84,01,00,00,01,00,00,
46990843,00000525,false,Rx,0,6,04,0A,BB,00,00,00,00,00,
47059275,00000523,false,Rx,0,6,02,05,F3,FF,FF,FF,00,00,
47076579,00000100,false,Rx,0,8,00,00,00,00,8E,01,C8,00,
47076826,00000101,false,Rx,0,8,00,FF,FE,00,00,00,00,00,
47077073,00000102,false,Rx,0,8,01,84,01,00,00,01,00,00,
47176576,00000100,false,Rx,0,8,00,00,00,00,8E,01,C8,00,
47176823,00000101,false,Rx,0,8,00,FF,FE,00,00,00,00,00,
47177068,00000102,false,Rx,0,8,01,84,01,00,00,01,00,00,
47276569,00000100,false,Rx,0,8,00,00,00,00,8E,01,C8,00,
47276822,00000101,false,Rx,0,8,00,FF,FE,00,00,00,00,00,
47277069,00000102,false,Rx,0,8,01,84,01,00,00,01,00,00,
47289813,00000521,false,Rx,0,6,00,0B,07,00,00,00,00,00,
47376571,00000100,false,Rx,0,8,00,00,00,00,8E,01,C8,00,
47376819,00000101,false,Rx,0,8,00,FF,FE,00,00,00,00,00,
47377066,00000102,false,Rx,0,8,01,84,01,00,00,01,00,00,
47451917,00000528,false,Rx,0,6,07,03,67,0D,00,00,00,00,
47455857,00000522,false,Rx,0,6,01,07,88,D6,05,00,00,00,
47476572,00000100,false,Rx,0,8,00,00,00,00,8E,01,C8,00,
47476817,00000101,false,Rx,0,8,00,FF,FE,00,00,00,00,00,
47477063,00000102,false,Rx,0,8,01,84,01,00,00,01,00,00,
47516268,00000524,false,Rx,0,6,03,07,F2,FF,FF,FF,00,00,
47534458,00000527,false,Rx,0,6,06,09,05,81,00,00,00,00,
47576568,00000100,false,Rx,0,8,00,00,00,00,8E,01,C8,00,
47576818,00000101,false,Rx,0,8,00,FF,FE,00,00,00,00,00,
47577064,00000102,false,Rx,0,8,01,84,01,00,00,01,00,00,
47645407,00000526,false,Rx,0,6,05,01,00,00,00,00,00,00,
47675327,00000525,false,Rx,0,6,04,0B,BA,00,00,00,00,00,
47676563,00000100,false,Rx,0,8,00,00,00,00,8E,01,C8,00,
47676817,00000101,false,Rx,0,8,00,FF,FE,00,00,00,00,00,
47677063,00000102,false,Rx,0,8,01,84,01,00,00,01,00,00,
47707523,00000523,false,Rx,0,6,02,06,F3,FF,FF,FF,00,00,
47776558,00000100,false,Rx,0,8,00,00,00,00,8E,01,C8,00,
47776817,00000101,false,Rx,0,8,00,FF,FE,00,00,00,00,00,
47777058,00000102,false,Rx,0,8,01,84,01,00,00,01,00,00,
47876559,00000100,false,Rx,0,8,00,00,00,00,8E,01,C8,00,
47876806,00000101,false,Rx,0,8,00,FF,FE,00,00,00,00,00,
47877055,00000102,false,Rx,0,8,01,84,01,00,00,01,00,00,
47901772,00000521,false,Rx,0,6,00,0C,0B,00,00,00,00,00,
47976558,00000100,false,Rx,0,8,00,00,00,00,8E,01,C8,00,
47976811,00000101,false,Rx,0,8,00,FF,FE,00,00,00,00,00,
47977052,00000102,false,Rx,0,8,01,84,01,00,00,01,00,00,
48076558,00000100,false,Rx,0,8,00,00,00,00,8E,01,C8,00,
48076804,00000101,false,Rx,0,8,00,FF,FE,00,00,00,00,00,
48077052,00000102,false,Rx,0,8,01,84,01,00,00,01,00,00,
48085968,00000522,false,Rx,0,6,01,08,80,D6,05,00,00,00,
48176555,00000100,false,Rx,0,8,00,00,00,00,8E,01,C8,00,
48176801,00000101,false,Rx,0,8,00,FF,FE,00,00,00,00,00,
48177051,00000102,false,Rx,0,8,01,84,01,00,00,01,00,00,
48182614,00000524,false,Rx,0,6,03,08,F9,FF,FF,FF,00,00,
48190734,00000528,false,Rx,0,6,07,04,67,0D,00,00,00,00,
48255139,00000527,false,Rx,0,6,06,0A,05,81,00,00,00,00,
48276552,00000100,false,Rx,0,8,00,00,00,00,8E,01,C8,00,
48276800,00000101,false,Rx,0,8,00,FF,FE,00,00,00,00,00,
48277051,00000102,false,Rx,0,8,01,84,01,00,00,01,00,00,
48347818,00000526,false,Rx,0,6,05,02,F9,FF,FF,FF,00,00,
48355731,00000523,false,Rx,0,6,02,07,E9,FF,FF,FF,00,00,
48359777,00000525,false,Rx,0,6,04,0C,BA,00,00,00,00,00,
48376553,00000100,false,Rx,0,8,00,00,00,00,8E,01,C8,00,
48376800,00000101,false,Rx,0,8,00,FF,FE,00,00,00,00,00,
48377061,00000102,false,Rx,0,8,01,84,01,00,00,01,00,00,
48476550,00000100,false,Rx,0,8,00,00,00,00,8E,01,C8,00,
48476798,00000101,false,Rx,0,8,00,FF,FE,00,00,00,00,00,
48477044,00000102,false,Rx,0,8,01,84,01,00,00,01,00,00,
48513748,00000521,false,Rx,0,6,00,0D,00,00,00,00,00,00,
48576546,00000100,false,Rx,0,8,00,00,00,00,8E,01,C8,00,
48576794,00000101,false,Rx,0,8,00,FF,FE,00,00,00,00,00,
48577039,00000102,false,Rx,0,8,01,84,01,00,00,01,00,00,
48676540,00000100,false,Rx,0,8,00,00,00,00,8E,01,C8,00,
48676794,00000101,false,Rx,0,8,00,FF,FE,00,00,00,00,00,
48677039,00000102,false,Rx,0,8,01,84,01,00,00,01,00,00,
48716049,00000522,false,Rx,0,6,01,09,89,D6,05,00,00,00,
48776540,00000100,false,Rx,0,8,00,00,00,00,8E,01,C8,00,
48776794,00000101,false,Rx,0,8,00,FF,FE,00,00,00,00,00,
48777040,00000102,false,Rx,0,8,01,84,01,00,00,01,00,00,
48848952,00000524,false,Rx,0,6,03,09,F0,FF,FF,FF,00,00,
48876540,00000100,false,Rx,0,8,00,00,00,00,8E,01,C8,00,
48876788,00000101,false,Rx,0,8,00,FF,FE,00,00,00,00,00,
48877034,00000102,false,Rx,0,8,01,84,01,00,00,01,00,00,
48929526,00000528,false,Rx,0,6,07,05,67,0D,00,00,00,00,
48975836,00000527,false,Rx,0,6,06,0B,05,81,00,00,00,00,
48976539,00000100,false,Rx,0,8,00,00,00,00,8E,01,C8,00,
48976787,00000101,false,Rx,0,8,00,FF,FE,00,00,00,00,00,
48977033,00000102,false,Rx,0,8,01,84,01,00,00,01,00,00,
49003951,00000523,false,Rx,0,6,02,08,E9,FF,FF,FF,00,00,
49044227,00000525,false,Rx,0,6,04,0D,BA,00,00,00,00,00,
49050573,00000526,false,Rx,0,6,05,03,04,00,00,00,00,00,
49076534,00000100,false,Rx,0,8,00,00,00,00,8E,01,C8,00,
49076788,00000101,false,Rx,0,8,00,FF,FE,00,00,00,00,00,
49077034,00000102,false,Rx,0,8,01,84,01,00,00,01,00,00,
49125734,00000521,false,Rx,0,6,00,0E,06,00,00,00,00,00,
49176533,00000100,false,Rx,0,8,00,00,00,00,8E,01,C8,00,
49176787,00000101,false,Rx,0,8,00,FF,FE,00,00,00,00,00,
49177033,00000102,false,Rx,0,8,01,84,01,00,00,01,00,00,
49276530,00000100,false,Rx,0,8,00,00,00,00,8E,01,C8,00,
49276783,00000101,false,Rx,0,8,00,FF,FE,00,00,00,00,00,
49277029,00000102,false,Rx,0,8,01,84,01,00,00,01,00,00,
49346166,00000522,false,Rx,0,6,01,0A,83,D6,05,00,00,00,
49376528,00000100,false,Rx,0,8,00,00,00,00,8E,01,C8,00,
49376777,00000101,false,Rx,0,8,00,FF,FE,00,00,00,00,00,
49377023,00000102,false,Rx,0,8,01,84,01,00,00,01,00,00,
49476528,00000100,false,Rx,0,8,00,00,00,00,8E,01,C8,00,
49476775,00000101,false,Rx,0,8,00,FF,FE,00,00,00,00,00,
49477021,00000102,false,Rx,0,8,01,84,01,00,00,01,00,00,
49515293,00000524,false,Rx,0,6,03,0A,F8,FF,FF,FF,00,00,
49576526,00000100,false,Rx,0,8,00,00,00,00,8E,01,C8,00,
49576775,00000101,false,Rx,0,8,00,FF,FE,00,00,00,00,00,
49577021,00000102,false,Rx,0,8,01,84,01,00,00,01,00,00,
49652182,00000523,false,Rx,0,6,02,09,F7,FF,FF,FF,00,00,
49668367,00000528,false,Rx,0,6,07,06,67,0D,00,00,00,00,
49676521,00000100,false,Rx,0,8,00,00,00,00,8E,01,C8,00,
49676774,00000101,false,Rx,0,8,00,FF,FE,00,00,00,00,00,
49677020,00000102,false,Rx,0,8,01,84,01,00,00,01,00,00,
49696804,00000527,false,Rx,0,6,06,0C,05,81,00,00,00,00,
49728694,00000525,false,Rx,0,6,04,0E,BB,00,00,00,00,00,
49737732,00000521,false,Rx,0,6,00,0F,0C,00,00,00,00,00,
49752976,00000526,false,Rx,0,6,05,04,0F,00,00,00,00,00,
49776520,00000100,false,Rx,0,8,00,00,00,00,8E,01,C8,00,
49776769,00000101,false,Rx,0,8,00,FF,FE,00,00,00,00,00,
49777015,00000102,false,Rx,0,8,01,84,01,00,00,01,00,00,
49876519,00000100,false,Rx,0,8,00,00,00,00,8E,01,C8,00,
49876767,00000101,false,Rx,0,8,00,FF,FE,00,00,00,00,00,
49877016,00000102,false,Rx,0,8,01,84,01,00,00,01,00,00,
49976299,00000522,false,Rx,0,6,01,0B,7A,D6,05,00,00,00,
49976545,00000100,false,Rx,0,8,00,00,00,00,8E,01,C8,00,
49976799,00000101,false,Rx,0,8,00,FF,FE,00,00,00,00,00,
49977044,00000102,false,Rx,0,8,01,84,01,00,00,01,00,00,
50076515,00000100,false,Rx,0,8,00,00,00,00,8E,01,C8,00,
50076761,00000101,false,Rx,0,8,00,FF,FE,00,00,00,00,00,
50077010,00000102,false,Rx,0,8,01,84,01,00,00,01,00,00,
50176509,00000100,false,Rx,0,8,00,00,00,00,8E,01,C8,00,
50176763,00000101,false,Rx,0,8,00,FF,FE,00,00,00,00,00,
50177006,00000102,false,Rx,0,8,01,84,01,00,00,01,00,00,
50181638,00000524,false,Rx,0,6,03,0B,F8,FF,FF,FF,00,00,
50276515,00000100,false,Rx,0,8,00,00,00,00,8E,01,C8,00,
50276763,00000101,false,Rx,0,8,00,FF,FE,00,00,00,00,00,
50277006,00000102,false,Rx,0,8,01,84,01,00,00,01,00,00,
50300414,00000523,false,Rx,0,6,02,0A,F7,FF,FF,FF,00,00,
50349719,00000521,false,Rx,0,6,00,00,06,00,00,00,00,00,
50376509,00000100,false,Rx,0,8,00,00,00,00,8E,01,C8,00,
50376757,00000101,false,Rx,0,8,00,FF,FE,00,00,00,00,00,
50377003,00000102,false,Rx,0,8,01,84,01,00,00,01,00,00,
50407177,00000528,false,Rx,0,6,07,07,67,0D,00,00,00,00,
50413170,00000525,false,Rx,0,6,04,0F,BA,00,00,00,00,00,
50417240,00000527,false,Rx,0,6,06,0D,05,81,00,00,00,00,
50455760,00000526,false,Rx,0,6,05,05,07,00,00,00,00,00,
50476509,00000100,false,Rx,0,8,00,00,00,00,8E,01,C8,00,
50476757,00000101,false,Rx,0,8,00,FF,FE,00,00,00,00,00,
50477003,00000102,false,Rx,0,8,01,84,01,00,00,01,00,00,
50576505,00000100,false,Rx,0,8,00,00,00,00,8E,01,C8,00,
50576752,00000101,false,Rx,0,8,00,FF,FE,00,00,00,00,00,
50576998,00000102,false,Rx,0,8,01,84,01,00,00,01,00,00,
50606399,00000522,false,Rx,0,6,01,0C,8D,D6,05,00,00,00,
50676501,00000100,false,Rx,0,8,00,00,00,00,8E,01,C8,00,
50676750,00000101,false,Rx,0,8,00,FF,FE,00,00,00,00,00,
50676995,00000102,false,Rx,0,8,01,84,01,00,00,01,00,00,
50776503,00000100,false,Rx,0,8,00,00,00,00,8E,01,C8,00,
50776750,00000101,false,Rx,0,8,00,FF,FE,00,00,00,00,00,
50776996,00000102,false,Rx,0,8,01,84,01,00,00,01,00,00,
50847989,00000524,false,Rx,0,6,03,0C,EE,FF,FF,FF,00,00,
50876501,00000100,false,Rx,0,8,00,00,00,00,8E,01,C8,00,
50876751,00000101,false,Rx,0,8,00,FF,FE,00,00,00,00,00,
50876997,00000102,false,Rx,0,8,01,84,01,00,00,01,00,00,
50948654,00000523,false,Rx,0,6,02,0B,F7,FF,FF,FF,00,00,
50961707,00000521,false,Rx,0,6,00,01,09,00,00,00,00,00,
50976496,00000100,false,Rx,0,8,00,00,00,00,8E,01,C8,00,
50976749,00000101,false,Rx,0,8,00,FF,FE,00,00,00,00,00,
50976995,00000102,false,Rx,0,8,01,84,01,00,00,01,00,00,
51076497,00000100,false,Rx,0,8,00,00,00,00,8E,01,C8,00,
51076745,00000101,false,Rx,0,8,00,FF,FE,00,00,00,00,00,
51076991,00000102,false,Rx,0,8,01,84,01,00,00,01,00,00,
51097634,00000525,false,Rx,0,6,04,00,BA,00,00,00,00,00,
51137935,00000527,false,Rx,0,6,06,0E,05,81,00,00,00,00,
51145990,00000528,false,Rx,0,6,07,08,67,0D,00,00,00,00,
51158336,00000526,false,Rx,0,6,05,06,01,00,00,00,00,00,
51176490,00000100,false,Rx,0,8,00,00,00,00,8E,01,C8,00,
51176764,00000101,false,Rx,0,8,00,FF,FE,00,00,00,00,00,
51176986,00000102,false,Rx,0,8,01,84,01,00,00,01,00,00,
51236501,00000522,false,Rx,0,6,01,0D,8B,D6,05,00,00,00,
51276493,00000100,false,Rx,0,8,00,00,00,00,8E,01,C8,00,
51276740,00000101,false,Rx,0,8,00,FF,FE,00,00,00,00,00,
51276985,00000102,false,Rx,0,8,01,84,01,00,00,01,00,00,
51376484,00000100,false,Rx,0,8,00,00,00,00,8E,01,C8,00,
51376739,00000101,false,Rx,0,8,00,FF,FE,00,00,00,00,00,
51376981,00000102,false,Rx,0,8,01,84,01,00,00,01,00,00,
51476484,00000100,false,Rx,0,8,00,00,00,00,8E,01,C8,00,
51476738,00000101,false,Rx,0,8,00,FF,FE,00,00,00,00,00,
51476980,00000102,false,Rx,0,8,01,84,01,00,00,01,00,00,
51514339,00000524,false,Rx,0,6,03,0D,E7,FF,FF,FF,00,00,
51573707,00000521,false,Rx,0,6,00,02,05,00,00,00,00,00,
51576486,00000100,false,Rx,0,8,00,00,00,00,8E,01,C8,00,
51576733,00000101,false,Rx,0,8,00,FF,FE,00,00,00,00,00,
51576977,00000102,false,Rx,0,8,01,84,01,00,00,01,00,00,
51596865,00000523,false,Rx,0,6,02,0C,EA,FF,FF,FF,00,00,
51676484,00000100,false,Rx,0,8,00,00,00,00,8E,01,C8,00,
51676732,00000101,false,Rx,0,8,00,FF,FE,00,00,00,00,00,
51676975,00000102,false,Rx,0,8,01,84,01,00,00,01,00,00,
51776478,00000100,false,Rx,0,8,00,00,00,00,8E,01,C8,00,
51776731,00000101,false,Rx,0,8,00,FF,FE,00,00,00,00,00,
51776991,00000102,false,Rx,0,8,01,84,01,00,00,01,00,00,
51782089,00000525,false,Rx,0,6,04,01,BA,00,00,00,00,00,
51858639,00000527,false,Rx,0,6,06,0F,05,81,00,00,00,00,
51860889,00000526,false,Rx,0,6,05,07,0B,00,00,00,00,00,
51866614,00000522,false,Rx,0,6,01,0E,82,D6,05,00,00,00,
51876474,00000100,false,Rx,0,8,00,00,00,00,8E,01,C8,00,
51876728,00000101,false,Rx,0,8,00,FF,FE,00,00,00,00,00,
51876974,00000102,false,Rx,0,8,01,84,01,00,00,01,00,00,
51885219,00000528,false,Rx,0,6,07,09,67,0D,00,00,00,00,
51976473,00000100,false,Rx,0,8,00,00,00,00,8E,01,C8,00,
51976726,00000101,false,Rx,0,8,00,FF,FE,00,00,00,00,00,
51976971,00000102,false,Rx,0,8,01,84,01,00,00,01,00,00,
52076470,00000100,false,Rx,0,8,00,00,00,00,8E,01,C8,00,
52076723,00000101,false,Rx,0,8,00,FF,FE,00,00,00,00,00,
52076969,00000102,false,Rx,0,8,01,84,01,00,00,01,00,00,
52176470,00000100,false,Rx,0,8,00,00,00,00,8E,01,C8,00,
52176719,00000101,false,Rx,0,8,00,FF,FE,00,00,00,00,00,
52176965,00000102,false,Rx,0,8,01,84,01,00,00,01,00,00,
52180690,00000524,false,Rx,0,6,03,0E,FB,FF,FF,FF,00,00,
52185701,00000521,false,Rx,0,6,00,03,09,00,00,00,00,00,
52245095,00000523,false,Rx,0,6,02,0D,F4,FF,FF,FF,00,00,
52276466,00000100,false,Rx,0,8,00,00,00,00,8E,01,C8,00,
52276715,00000101,false,Rx,0,8,00,FF,FE,00,00,00,00,00,
52276960,00000102,false,Rx,0,8,01,84,01,00,00,01,00,00,
52376463,00000100,false,Rx,0,8,00,00,00,00,8E,01,C8,00,
52376717,00000101,false,Rx,0,8,00,FF,FE,00,00,00,00,00,
52376964,00000102,false,Rx,0,8,01,84,01,00,00,01,00,00,
52466558,00000525,false,Rx,0,6,04,02,BA,00,00,00,00,00,
52476462,00000100,false,Rx,0,8,00,00,00,00,8E,01,C8,00,
52476712,00000101,false,Rx,0,8,00,FF,FE,00,00,00,00,00,
52476958,00000102,false,Rx,0,8,01,84,01,00,00,01,00,00,
52496722,00000522,false,Rx,0,6,01,0F,A2,D6,05,00,00,00,
52563305,00000526,false,Rx,0,6,05,08,02,00,00,00,00,00,
52576460,00000100,false,Rx,0,8,00,00,00,00,8E,01,C8,00,
52576710,00000101,false,Rx,0,8,00,FF,FE,00,00,00,00,00,
52576956,00000102,false,Rx,0,8,01,84,01,00,00,01,00,00,
52579346,00000527,false,Rx,0,6,06,00,05,81,00,00,00,00,
52623639,00000528,false,Rx,0,6,07,0A,67,0D,00,00,00,00,
52676459,00000100,false,Rx,0,8,00,00,00,00,8E,01,C8,00,
52676724,00000101,false,Rx,0,8,00,FF,FE,00,00,00,00,00,
52676959,00000102,false,Rx,0,8,01,84,01,00,00,01,00,00,
52776459,00000100,false,Rx,0,8,00,00,00,00,8E,01,C8,00,
52776706,00000101,false,Rx,0,8,00,FF,FE,00,00,00,00,00,
52776955,00000102,false,Rx,0,8,01,84,01,00,00,01,00,00,
52797695,00000521,false,Rx,0,6,00,04,10,00,00,00,00,00,
52847034,00000524,false,Rx,0,6,03,0F,EB,FF,FF,FF,00,00,
52876456,00000100,false,Rx,0,8,00,00,00,00,8E,01,C8,00,
52876708,00000101,false,Rx,0,8,00,FF,FE,00,00,00,00,00,
52876954,00000102,false,Rx,0,8,01,84,01,00,00,01,00,00,
52893323,00000523,false,Rx,0,6,02,0E,F4,FF,FF,FF,00,00,
52976458,00000100,false,Rx,0,8,00,00,00,00,8E,01,C8,00,
52976705,00000101,false,Rx,0,8,00,FF,FE,00,00,00,00,00,
52976948,00000102,false,Rx,0,8,01,84,01,00,00,01,00,00,
53076456,00000100,false,Rx,0,8,00,00,00,00,8E,01,C8,00,
53076703,00000101,false,Rx,0,8,00,FF,FE,00,00,00,00,00,
53076945,00000102,false,Rx,0,8,01,84,01,00,00,01,00,00,
53126844,00000522,false,Rx,0,6,01,00,91,D6,05,00,00,00,
53151041,00000525,false,Rx,0,6,04,03,BA,00,00,00,00,00,
53176452,00000100,false,Rx,0,8,00,00,00,00,8E,01,C8,00,
53176699,00000101,false,Rx,0,8,00,FF,FE,00,00,00,00,00,
53176944,00000102,false,Rx,0,8,01,84,01,00,00,01,00,00,
53266079,00000526,false,Rx,0,6,05,09,08,00,00,00,00,00,
53276447,00000100,false,Rx,0,8,00,00,00,00,8E,01,C8,00,
53276701,00000101,false,Rx,0,8,00,FF,FE,00,00,00,00,00,
53276951,00000102,false,Rx,0,8,01,84,01,00,00,01,00,00,
53300064,00000527,false,Rx,0,6,06,01,05,81,00,00,00,00,
53362468,00000528,false,Rx,0,6,07,0B,67,0D,00,00,00,00,
53376453,00000100,false,Rx,0,8,00,00,00,00,8E,01,C8,00,
53376693,00000101,false,Rx,0,8,00,FF,FE,00,00,00,00,00,
53376939,00000102,false,Rx,0,8,01,84,01,00,00,01,00,00,
53409699,00000521,false,Rx,0,6,00,05,09,00,00,00,00,00,
53476448,00000100,false,Rx,0,8,00,00,00,00,8E,01,C8,00,
53476696,00000101,false,Rx,0,8,00,FF,FE,00,00,00,00,00,
53476942,00000102,false,Rx,0,8,01,84,01,00,00,01,00,00,
53513397,00000524,false,Rx,0,6,03,00,ED,FF,FF,FF,00,00,
53541583,00000523,false,Rx,0,6,02,0F,FB,FF,FF,FF,00,00,
53576446,00000100,false,Rx,0,8,00,00,00,00,8E,01,C8,00,
53576694,00000101,false,Rx,0,8,00,FF,FE,00,00,00,00,00,
53576940,00000102,false,Rx,0,8,01,84,01,00,00,01,00,00,
53676440,00000100,false,Rx,0,8,00,00,00,00,8E,01,C8,00,
53676686,00000101,false,Rx,0,8,00,FF,FE,00,00,00,00,00,
53676939,00000102,false,Rx,0,8,01,84,01,00,00,01,00,00,
53757480,00000522,false,Rx,0,6,01,01,81,D6,05,00,00,00,
53776435,00000100,false,Rx,0,8,00,00,00,00,8E,01,C8,00,
53776690,00000101,false,Rx,0,8,00,FF,FE,00,00,00,00,00,
53776936,00000102,false,Rx,0,8,01,84,01,00,00,01,00,00,
53835509,00000525,false,Rx,0,6,04,04,BA,00,00,00,00,00,
53876437,00000100,false,Rx,0,8,00,00,00,00,8E,01,C8,00,
53876684,00000101,false,Rx,0,8,00,FF,FE,00,00,00,00,00,
53876930,00000102,false,Rx,0,8,01,84,01,00,00,01,00,00,
53968504,00000526,false,Rx,0,6,05,0A,05,00,00,00,00,00,
53976435,00000100,false,Rx,0,8,00,00,00,00,8E,01,C8,00,
53976681,00000101,false,Rx,0,8,00,FF,FE,00,00,00,00,00,
53976927,00000102,false,Rx,0,8,01,84,01,00,00,01,00,00,
54020776,00000527,false,Rx,0,6,06,02,05,81,00,00,00,00,
54022054,00000521,false,Rx,0,6,00,06,06,00,00,00,00,00,
54076433,00000100,false,Rx,0,8,00,00,00,00,8E,01,C8,00,
54076680,00000101,false,Rx,0,8,00,FF,FE,00,00,00,00,00,
54076926,00000102,false,Rx,0,8,01,84,01,00,00,01,00,00,
54101317,00000528,false,Rx,0,6,07,0C,67,0D,00,00,00,00,
54176430,00000100,false,Rx,0,8,00,00,00,00,8E,01,C8,00,
54176683,00000101,false,Rx,0,8,00,FF,FE,00,00,00,00,00,
54176922,00000102,false,Rx,0,8,01,84,01,00,00,01,00,00,
54180102,00000524,false,Rx,0,6,03,01,E9,FF,FF,FF,00,00,
54189837,00000523,false,Rx,0,6,02,00,FC,FF,FF,FF,00,00,
54276428,00000100,false,Rx,0,8,00,00,00,00,8E,01,C8,00,
54276676,00000101,false,Rx,0,8,00,FF,FE,00,00,00,00,00,
54276923,00000102,false,Rx,0,8,01,84,01,00,00,01,00,00,
54376427,00000100,false,Rx,0,8,00,00,00,00,8E,01,C8,00,
54376676,00000101,false,Rx,0,8,00,FF,FE,00,00,00,00,00,
54376922,00000102,false,Rx,0,8,01,84,01,00,00,01,00,00,
54387109,00000522,false,Rx,0,6,01,02,93,D6,05,00,00,00,
54476427,00000100,false,Rx,0,8,00,00,00,00,8E,01,C8,00,
54476675,00000101,false,Rx,0,8,00,FF,FE,00,00,00,00,00,
54476921,00000102,false,Rx,0,8,01,84,01,00,00,01,00,00,
54520020,00000525,false,Rx,0,6,04,05,BA,00,00,00,00,00,
54576419,00000100,false,Rx,0,8,00,00,00,00,8E,01,C8,00,
54576674,00000101,false,Rx,0,8,00,FF,FE,00,00,00,00,00,
54576914,00000102,false,Rx,0,8,01,84,01,00,00,01,00,00,
54633728,00000521,false,Rx,0,6,00,07,0C,00,00,00,00,00,
54671321,00000526,false,Rx,0,6,05,0B,02,00,00,00,00,00,
54676416,00000100,false,Rx,0,8,00,00,00,00,8E,01,C8,00,
54676670,00000101,false,Rx,0,8,00,FF,FE,00,00,00,00,00,
54676916,00000102,false,Rx,0,8,01,84,01,00,00,01,00,00,
54741506,00000527,false,Rx,0,6,06,03,05,81,00,00,00,00,
54776419,00000100,false,Rx,0,8,00,00,00,00,8E,01,C8,00,
54776670,00000101,false,Rx,0,8,00,FF,FE,00,00,00,00,00,
54776909,00000102,false,Rx,0,8,01,84,01,00,00,01,00,00,
54838078,00000523,false,Rx,0,6,02,01,FC,FF,FF,FF,00,00,
54840417,00000528,false,Rx,0,6,07,0D,67,0D,00,00,00,00,
54846139,00000524,false,Rx,0,6,03,02,F5,FF,FF,FF,00,00,
54876418,00000100,false,Rx,0,8,00,00,00,00,8E,01,C8,00,
54876665,00000101,false,Rx,0,8,00,FF,FE,00,00,00,00,00,
54876908,00000102,false,Rx,0,8,01,84,01,00,00,01,00,00,
54976414,00000100,false,Rx,0,8,00,00,00,00,8E,01,C8,00,
54976661,00000101,false,Rx,0,8,00,FF,FE,00,00,00,00,00,
54976910,00000102,false,Rx,0,8,01,84,01,00,00,01,00,00,
55017237,00000522,false,Rx,0,6,01,03,9A,D6,05,00,00,00,
55076409,00000100,false,Rx,0,8,00,00,00,00,8E,01,C8,00,
55076663,00000101,false,Rx,0,8,00,FF,FE,00,00,00,00,00,
55076905,00000102,false,Rx,0,8,01,84,01,00,00,01,00,00,
55176409,00000100,false,Rx,0,8,00,00,00,00,8E,01,C8,00,
55176657,00000101,false,Rx,0,8,00,FF,FE,00,00,00,00,00,
55176906,00000102,false,Rx,0,8,01,84,01,00,00,01,00,00,
55204478,00000525,false,Rx,0,6,04,06,BA,00,00,00,00,00,
55245719,00000521,false,Rx,0,6,00,08,0B,00,00,00,00,00,
55276404,00000100,false,Rx,0,8,00,00,00,00,8E,01,C8,00,
55276657,00000101,false,Rx,0,8,00,FF,FE,00,00,00,00,00,
55276903,00000102,false,Rx,0,8,01,84,01,00,00,01,00,00,
55373641,00000526,false,Rx,0,6,05,0C,09,00,00,00,00,00,
55376415,00000100,false,Rx,0,8,00,00,00,00,8E,01,C8,00,
55376657,00000101,false,Rx,0,8,00,FF,FE,00,00,00,00,00,
55376902,00000102,false,Rx,0,8,01,84,01,00,00,01,00,00,
55462213,00000527,false,Rx,0,6,06,04,05,81,00,00,00,00,
55476404,00000100,false,Rx,0,8,00,00,00,00,8E,01,C8,00,
55476657,00000101,false,Rx,0,8,00,FF,FE,00,00,00,00,00,
55476896,00000102,false,Rx,0,8,01,84,01,00,00,01,00,00,
55486317,00000523,false,Rx,0,6,02,02,F8,FF,FF,FF,00,00,
55512493,00000524,false,Rx,0,6,03,03,F5,FF,FF,FF,00,00,
55576398,00000100,false,Rx,0,8,00,00,00,00,8E,01,C8,00,
55576658,00000101,false,Rx,0,8,00,FF,FE,00,00,00,00,00,
55576898,00000102,false,Rx,0,8,01,84,01,00,00,01,00,00,
55578985,00000528,false,Rx,0,6,07,0E,67,0D,00,00,00,00,
55647347,00000522,false,Rx,0,6,01,04,9B,D6,05,00,00,00,
55676400,00000100,false,Rx,0,8,00,00,00,00,8E,01,C8,00,
55676654,00000101,false,Rx,0,8,00,FF,FE,00,00,00,00,00,
55676894,00000102,false,Rx,0,8,01,84,01,00,00,01,00,00,
55776393,00000100,false,Rx,0,8,00,00,00,00,8E,01,C8,00,
55776654,00000101,false,Rx,0,8,00,FF,FE,00,00,00,00,00,
55776893,00000102,false,Rx,0,8,01,84,01,00,00,01,00,00,
55857726,00000521,false,Rx,0,6,00,09,08,00,00,00,00,00,
55876393,00000100,false,Rx,0,8,00,00,00,00,8E,01,C8,00,
55876651,00000101,false,Rx,0,8,00,FF,FE,00,00,00,00,00,
55876891,00000102,false,Rx,0,8,01,84,01,00,00,01,00,00,
55888950,00000525,false,Rx,0,6,04,07,BA,00,00,00,00,00,
55976394,00000100,false,Rx,0,8,00,00,00,00,8E,01,C8,00,
55976640,00000101,false,Rx,0,8,00,FF,FE,00,00,00,00,00,
55976894,00000102,false,Rx,0,8,01,84,01,00,00,01,00,00,
56076392,00000100,false,Rx,0,8,00,00,00,00,8E,01,C8,00,
56076637,00000101,false,Rx,0,8,00,FF,FE,00,00,00,00,00,
56076891,00000102,false,Rx,0,8,01,84,01,00,00,01,00,00,
56077094,00000526,false,Rx,0,6,05,0D,08,00,00,00,00,00,
56134552,00000523,false,Rx,0,6,02,03,F0,FF,FF,FF,00,00,
56176388,00000100,false,Rx,0,8,00,00,00,00,8E,01,C8,00,
56176640,00000101,false,Rx,0,8,00,FF,FE,00,00,00,00,00,
56176886,00000102,false,Rx,0,8,01,84,01,00,00,01,00,00,
56178837,00000524,false,Rx,0,6,03,04,F7,FF,FF,FF,00,00,
56182925,00000527,false,Rx,0,6,06,05,05,81,00,00,00,00,
56276383,00000100,false,Rx,0,8,00,00,00,00,8E,01,C8,00,
56276638,00000101,false,Rx,0,8,00,FF,FE,00,00,00,00,00,
56276883,00000102,false,Rx,0,8,01,84,01,00,00,01,00,00,
56277468,00000522,false,Rx,0,6,01,05,8B,D6,05,00,00,00,
56317806,00000528,false,Rx,0,6,07,0F,67,0D,00,00,00,00,
56376386,00000100,false,Rx,0,8,00,00,00,00,8E,01,C8,00,
56376639,00000101,false,Rx,0,8,00,FF,FE,00,00,00,00,00,
56376882,00000102,false,Rx,0,8,01,84,01,00,00,01,00,00,
56470028,00000521,false,Rx,0,6,00,0A,05,00,00,00,00,00,
56476379,00000100,false,Rx,0,8,00,00,00,00,8E,01,C8,00,
56476639,00000101,false,Rx,0,8,00,FF,FE,00,00,00,00,00,
56476878,00000102,false,Rx,0,8,01,84,01,00,00,01,00,00,
56573426,00000525,false,Rx,0,6,04,08,BA,00,00,00,00,00,
56576380,00000100,false,Rx,0,8,00,00,00,00,8E,01,C8,00,
56576640,00000101,false,Rx,0,8,00,FF,FE,00,00,00,00,00,
56576879,00000102,false,Rx,0,8,01,84,01,00,00,01,00,00,
56676379,00000100,false,Rx,0,8,00,00,00,00,8E,01,C8,00,
56676633,00000101,false,Rx,0,8,00,FF,FE,00,00,00,00,00,
56676876,00000102,false,Rx,0,8,01,84,01,00,00,01,00,00,
56776372,00000100,false,Rx,0,8,00,00,00,00,8E,01,C8,00,
56776634,00000101,false,Rx,0,8,00,FF,FE,00,00,00,00,00,
56776870,00000102,false,Rx,0,8,01,84,01,00,00,01,00,00,
56778895,00000526,false,Rx,0,6,05,0E,FD,FF,FF,FF,00,00,
56782769,00000523,false,Rx,0,6,02,04,F0,FF,FF,FF,00,00,
56845188,00000524,false,Rx,0,6,03,05,E8,FF,FF,FF,00,00,
56876374,00000100,false,Rx,0,8,00,00,00,00,8E,01,C8,00,
56876634,00000101,false,Rx,0,8,00,FF,FE,00,00,00,00,00,
56876866,00000102,false,Rx,0,8,01,84,01,00,00,01,00,00,
56903698,00000527,false,Rx,0,6,06,06,05,81,00,00,00,00,
56907576,00000522,false,Rx,0,6,01,06,97,D6,05,00,00,00,
56976369,00000100,false,Rx,0,8,00,00,00,00,8E,01,C8,00,
56976630,00000101,false,Rx,0,8,00,FF,FE,00,00,00,00,00,
56976864,00000102,false,Rx,0,8,01,84,01,00,00,01,00,00,
57056635,00000528,false,Rx,0,6,07,00,67,0D,00,00,00,00,
57076371,00000100,false,Rx,0,8,00,00,00,00,8E,01,C8,00,
57076619,00000101,false,Rx,0,8,00,FF,FE,00,00,00,00,00,
57076867,00000102,false,Rx,0,8,01,84,01,00,00,01,00,00,
57081703,00000521,false,Rx,0,6,00,0B,07,00,00,00,00,00,
57176364,00000100,false,Rx,0,8,00,00,00,00,8E,01,C8,00,
57176617,00000101,false,Rx,0,8,00,FF,FE,00,00,00,00,00,
57176865,00000102,false,Rx,0,8,01,84,01,00,00,01,00,00,
57257894,00000525,false,Rx,0,6,04,09,BA,00,00,00,00,00,
57276361,00000100,false,Rx,0,8,00,00,00,00,8E,01,C8,00,
57276614,00000101,false,Rx,0,8,00,FF,FE,00,00,00,00,00,
57276861,00000102,false,Rx,0,8,01,84,01,00,00,01,00,00,
57376359,00000100,false,Rx,0,8,00,00,00,00,8E,01,C8,00,
57376613,00000101,false,Rx,0,8,00,FF,FE,00,00,00,00,00,
57376861,00000102,false,Rx,0,8,01,84,01,00,00,01,00,00,
57431001,00000523,false,Rx,0,6,02,05,E7,FF,FF,FF,00,00,
57476363,00000100,false,Rx,0,8,00,00,00,00,8E,01,C8,00,
57476613,00000101,false,Rx,0,8,00,FF,FE,00,00,00,00,00,
57476854,00000102,false,Rx,0,8,01,84,01,00,00,01,00,00,
57481660,00000526,false,Rx,0,6,05,0F,06,00,00,00,00,00,
57511542,00000524,false,Rx,0,6,03,06,F5,FF,FF,FF,00,00,
57537702,00000522,false,Rx,0,6,01,07,A2,D6,05,00,00,00,
57576356,00000100,false,Rx,0,8,00,00,00,00,8E,01,C8,00,
57576606,00000101,false,Rx,0,8,00,FF,FE,00,00,00,00,00,
57576854,00000102,false,Rx,0,8,01,84,01,00,00,01,00,00,
57624342,00000527,false,Rx,0,6,06,07,05,81,00,00,00,00,
57676355,00000100,false,Rx,0,8,00,00,00,00,8E,01,C8,00,
57676602,00000101,false,Rx,0,8,00,FF,FE,00,00,00,00,00,
57676849,00000102,false,Rx,0,8,01,84,01,00,00,01,00,00,
57693707,00000521,false,Rx,0,6,00,0C,09,00,00,00,00,00,
57776352,00000100,false,Rx,0,8,00,00,00,00,8E,01,C8,00,
57776605,00000101,false,Rx,0,8,00,FF,FE,00,00,00,00,00,
57776853,00000102,false,Rx,0,8,01,84,01,00,00,01,00,00,
57795459,00000528,false,Rx,0,6,07,01,67,0D,00,00,00,00,
57876348,00000100,false,Rx,0,8,00,00,00,00,8E,01,C8,00,
57876601,00000101,false,Rx,0,8,00,FF,FE,00,00,00,00,00,
57876849,00000102,false,Rx,0,8,01,84,01,00,00,01,00,00,
57942370,00000525,false,Rx,0,6,04,0A,BA,00,00,00,00,00,
57976348,00000100,false,Rx,0,8,00,00,00,00,8E,01,C8,00,
57976618,00000101,false,Rx,0,8,00,FF,FE,00,00,00,00,00,
57976847,00000102,false,Rx,0,8,01,84,01,00,00,01,00,00,
58076349,00000100,false,Rx,0,8,00,00,00,00,8E,01,C8,00,
58076595,00000101,false,Rx,0,8,00,FF,FE,00,00,00,00,00,
58076846,00000102,false,Rx,0,8,01,84,01,00,00,01,00,00,
58079261,00000523,false,Rx,0,6,02,06,F7,FF,FF,FF,00,00,
58167828,00000522,false,Rx,0,6,01,08,9F,D6,05,00,00,00,
58176346,00000100,false,Rx,0,8,00,00,00,00,8E,01,C8,00,
58176599,00000101,false,Rx,0,8,00,FF,FE,00,00,00,00,00,
58176840,00000102,false,Rx,0,8,01,84,01,00,00,01,00,00,
58177921,00000524,false,Rx,0,6,03,07,E9,FF,FF,FF,00,00,
58184082,00000526,false,Rx,0,6,05,00,06,00,00,00,00,00,
58276345,00000100,false,Rx,0,8,00,00,00,00,8E,01,C8,00,
58276598,00000101,false,Rx,0,8,00,FF,FE,00,00,00,00,00,
58276842,00000102,false,Rx,0,8,01,84,01,00,00,01,00,00,
58305725,00000521,false,Rx,0,6,00,0D,0C,00,00,00,00,00,
58345065,00000527,false,Rx,0,6,06,08,05,81,00,00,00,00,
58376342,00000100,false,Rx,0,8,00,00,00,00,8E,01,C8,00,
58376595,00000101,false,Rx,0,8,00,FF,FE,00,00,00,00,00,
58376836,00000102,false,Rx,0,8,01,84,01,00,00,01,00,00,
58476342,00000100,false,Rx,0,8,00,00,00,00,8E,01,C8,00,
58476589,00000101,false,Rx,0,8,00,FF,FE,00,00,00,00,00,
58476850,00000102,false,Rx,0,8,01,84,01,00,00,01,00,00,
58534299,00000528,false,Rx,0,6,07,02,67,0D,00,00,00,00,
58576335,00000100,false,Rx,0,8,00,00,00,00,8E,01,C8,00,
58576589,00000101,false,Rx,0,8,00,FF,FE,00,00,00,00,00,
58576836,00000102,false,Rx,0,8,01,84,01,00,00,01,00,00,
58626861,00000525,false,Rx,0,6,04,0B,BA,00,00,00,00,00,
58676336,00000100,false,Rx,0,8,00,00,00,00,8E,01,C8,00,
58676583,00000101,false,Rx,0,8,00,FF,FE,00,00,00,00,00,
58676831,00000102,false,Rx,0,8,01,84,01,00,00,01,00,00,
58727505,00000523,false,Rx,0,6,02,07,F7,FF,FF,FF,00,00,
58776336,00000100,false,Rx,0,8,00,00,00,00,8E,01,C8,00,
58776583,00000101,false,Rx,0,8,00,FF,FE,00,00,00,00,00,
58776831,00000102,false,Rx,0,8,01,84,01,00,00,01,00,00,
58797938,00000522,false,Rx,0,6,01,09,AC,D6,05,00,00,00,
58844256,00000524,false,Rx,0,6,03,08,FB,FF,FF,FF,00,00,
58876333,00000100,false,Rx,0,8,00,00,00,00,8E,01,C8,00,
58876579,00000101,false,Rx,0,8,00,FF,FE,00,00,00,00,00,
58876826,00000102,false,Rx,0,8,01,84,01,00,00,01,00,00,
