Time Stamp,ID,Extended,Dir,Bus,LEN,D1,D2,D3,D4,D5,D6,D7,D8
27790604,00000102,false,Rx,0,8,01,90,01,00,00,01,00,00,
27889653,00000523,false,Rx,0,6,02,03,FA,FF,FF,FF,00,00,
27890111,00000100,false,Rx,0,8,00,00,00,00,9A,01,C8,00,
27890350,00000101,false,Rx,0,8,00,FF,FE,00,00,00,00,00,
27890602,00000102,false,Rx,0,8,01,90,01,00,00,01,00,00,
27907787,00000521,false,Rx,0,6,00,0C,F5,FF,FF,FF,00,00,
27958227,00000525,false,Rx,0,6,04,02,8F,00,00,00,00,00,
27990118,00000100,false,Rx,0,8,00,00,00,00,9A,01,C8,00,
27990351,00000101,false,Rx,0,8,00,FF,FE,00,00,00,00,00,
27990596,00000102,false,Rx,0,8,01,90,01,00,00,01,00,00,
28090097,00000100,false,Rx,0,8,00,00,00,00,9A,01,C8,00,
28090358,00000101,false,Rx,0,8,00,FF,FE,00,00,00,00,00,
28090594,00000102,false,Rx,0,8,01,90,01,00,00,01,00,00,
28171909,00000522,false,Rx,0,6,01,02,C1,74,05,00,00,00,
28190106,00000100,false,Rx,0,8,00,00,00,00,9A,01,C8,00,
28190354,00000101,false,Rx,0,8,00,FF,FE,00,00,00,00,00,
28190593,00000102,false,Rx,0,8,01,90,01,00,00,01,00,00,
28242485,00000524,false,Rx,0,6,03,0F,F7,FF,FF,FF,00,00,
28289162,00000526,false,Rx,0,6,05,0C,02,00,00,00,00,00,
28290093,00000100,false,Rx,0,8,00,00,00,00,9A,01,C8,00,
28290345,00000101,false,Rx,0,8,00,FF,FE,00,00,00,00,00,
28290604,00000102,false,Rx,0,8,01,90,01,00,00,01,00,00,
28321158,00000527,false,Rx,0,6,06,0A,3D,A9,00,00,00,00,
28390110,00000100,false,Rx,0,8,00,00,00,00,9A,01,C8,00,
28390344,00000101,false,Rx,0,8,00,FF,FE,00,00,00,00,00,
28390590,00000102,false,Rx,0,8,01,90,01,00,00,01,00,00,
28403834,00000528,false,Rx,0,6,07,0B,46,10,00,00,00,00,
28490095,00000100,false,Rx,0,8,00,00,00,00,9A,01,C8,00,
28490341,00000101,false,Rx,0,8,00,FF,FE,00,00,00,00,00,
28490586,00000102,false,Rx,0,8,01,90,01,00,00,01,00,00,
28520686,00000521,false,Rx,0,6,00,0D,F7,FF,FF,FF,00,00,
28538843,00000523,false,Rx,0,6,02,04,E8,FF,FF,FF,00,00,
28590104,00000100,false,Rx,0,8,00,00,00,00,9A,01,C8,00,
28590337,00000101,false,Rx,0,8,00,FF,FE,00,00,00,00,00,
28590590,00000102,false,Rx,0,8,01,90,01,00,00,01,00,00,
28643694,00000525,false,Rx,0,6,04,03,8F,00,00,00,00,00,
28690097,00000100,false,Rx,0,8,00,00,00,00,9A,01,C8,00,
28690337,00000101,false,Rx,0,8,00,FF,FE,00,00,00,00,00,
28690583,00000102,false,Rx,0,8,01,90,01,00,00,01,00,00,
28790095,00000100,false,Rx,0,8,00,00,00,00,9A,01,C8,00,
28790335,00000101,false,Rx,0,8,00,FF,FE,00,00,00,00,00,
28790581,00000102,false,Rx,0,8,01,90,01,00,00,01,00,00,
28802935,00000522,false,Rx,0,6,01,03,C9,74,05,00,00,00,
28890091,00000100,false,Rx,0,8,00,00,00,00,9A,01,C8,00,
28890334,00000101,false,Rx,0,8,00,FF,FE,00,00,00,00,00,
28890580,00000102,false,Rx,0,8,01,90,01,00,00,01,00,00,
28909812,00000524,false,Rx,0,6,03,00,EF,FF,FF,FF,00,00,
28990106,00000100,false,Rx,0,8,00,00,00,00,9A,01,C8,00,
28990333,00000101,false,Rx,0,8,00,FF,FE,00,00,00,00,00,
28990579,00000102,false,Rx,0,8,01,90,01,00,00,01,00,00,
28992778,00000526,false,Rx,0,6,05,0D,00,00,00,00,00,00,
29042929,00000527,false,Rx,0,6,06,0B,3D,A9,00,00,00,00,
29090088,00000100,false,Rx,0,8,00,00,00,00,9A,01,C8,00,
29090330,00000101,false,Rx,0,8,00,FF,FE,00,00,00,00,00,
29090575,00000102,false,Rx,0,8,01,90,01,00,00,01,00,00,
29133588,00000521,false,Rx,0,6,00,0E,F8,FF,FF,FF,00,00,
29143744,00000528,false,Rx,0,6,07,0C,46,10,00,00,00,00,
29188037,00000523,false,Rx,0,6,02,05,E8,FF,FF,FF,00,00,
29190093,00000100,false,Rx,0,8,00,00,00,00,9A,01,C8,00,
29190326,00000101,false,Rx,0,8,00,FF,FE,00,00,00,00,00,
29190571,00000102,false,Rx,0,8,01,90,01,00,00,01,00,00,
29290071,00000100,false,Rx,0,8,00,00,00,00,9A,01,C8,00,
29290325,00000101,false,Rx,0,8,00,FF,FE,00,00,00,00,00,
29290571,00000102,false,Rx,0,8,01,90,01,00,00,01,00,00,
29329179,00000525,false,Rx,0,6,04,04,8F,00,00,00,00,00,
29390092,00000100,false,Rx,0,8,00,00,00,00,9A,01,C8,00,
29390320,00000101,false,Rx,0,8,00,FF,FE,00,00,00,00,00,
29390568,00000102,false,Rx,0,8,01,90,01,00,00,01,00,00,
29433993,00000522,false,Rx,0,6,01,04,C8,74,05,00,00,00,
29490071,00000100,false,Rx,0,8,00,00,00,00,9A,01,C8,00,
29490317,00000101,false,Rx,0,8,00,FF,FE,00,00,00,00,00,
29490566,00000102,false,Rx,0,8,01,90,01,00,00,01,00,00,
29577153,00000524,false,Rx,0,6,03,01,F1,FF,FF,FF,00,00,
29590088,00000100,false,Rx,0,8,00,00,00,00,9A,01,C8,00,
29590315,00000101,false,Rx,0,8,00,FF,FE,00,00,00,00,00,
29590567,00000102,false,Rx,0,8,01,90,01,00,00,01,00,00,
29690065,00000100,false,Rx,0,8,00,00,00,00,9A,01,C8,00,
29690319,00000101,false,Rx,0,8,00,FF,FE,00,00,00,00,00,
29690562,00000102,false,Rx,0,8,01,90,01,00,00,01,00,00,
29696251,00000526,false,Rx,0,6,05,0E,00,00,00,00,00,00,
29746495,00000521,false,Rx,0,6,00,0F,F9,FF,FF,FF,00,00,
29764707,00000527,false,Rx,0,6,06,0C,3D,A9,00,00,00,00,
29790073,00000100,false,Rx,0,8,00,00,00,00,9A,01,C8,00,
29790315,00000101,false,Rx,0,8,00,FF,FE,00,00,00,00,00,
29790561,00000102,false,Rx,0,8,01,90,01,00,00,01,00,00,
29837226,00000523,false,Rx,0,6,02,06,F8,FF,FF,FF,00,00,
29883669,00000528,false,Rx,0,6,07,0D,46,10,00,00,00,00,
29890063,00000100,false,Rx,0,8,00,00,00,00,9A,01,C8,00,
29890311,00000101,false,Rx,0,8,00,FF,FE,00,00,00,00,00,
29890556,00000102,false,Rx,0,8,01,90,01,00,00,01,00,00,
29990072,00000100,false,Rx,0,8,00,00,00,00,9A,01,C8,00,
29990307,00000101,false,Rx,0,8,00,FF,FE,00,00,00,00,00,
29990572,00000102,false,Rx,0,8,01,90,01,00,00,01,00,00,
30014675,00000525,false,Rx,0,6,04,05,8E,00,00,00,00,00,
30065048,00000522,false,Rx,0,6,01,05,C7,74,05,00,00,00,
30090058,00000100,false,Rx,0,8,00,00,00,00,9A,01,C8,00,
30090306,00000101,false,Rx,0,8,00,FF,FE,00,00,00,00,00,
30090558,00000102,false,Rx,0,8,01,90,01,00,00,01,00,00,
30190063,00000100,false,Rx,0,8,00,00,00,00,9A,01,C8,00,
30190303,00000101,false,Rx,0,8,00,FF,FE,00,00,00,00,00,
30190556,00000102,false,Rx,0,8,01,90,01,00,00,01,00,00,
30244494,00000524,false,Rx,0,6,03,02,E4,FF,FF,FF,00,00,
30290056,00000100,false,Rx,0,8,00,00,00,00,9A,01,C8,00,
30290307,00000101,false,Rx,0,8,00,FF,FE,00,00,00,00,00,
30290553,00000102,false,Rx,0,8,01,90,01,00,00,01,00,00,
30359411,00000521,false,Rx,0,6,00,00,F8,FF,FF,FF,00,00,
30390064,00000100,false,Rx,0,8,00,00,00,00,9A,01,C8,00,
30390301,00000101,false,Rx,0,8,00,FF,FE,00,00,00,00,00,
30390547,00000102,false,Rx,0,8,01,90,01,00,00,01,00,00,
30400065,00000526,false,Rx,0,6,05,0F,05,00,00,00,00,00,
30486762,00000523,false,Rx,0,6,02,07,EB,FF,FF,FF,00,00,
30486983,00000527,false,Rx,0,6,06,0D,3D,A9,00,00,00,00,
30490047,00000100,false,Rx,0,8,00,00,00,00,9A,01,C8,00,
30490299,00000101,false,Rx,0,8,00,FF,FE,00,00,00,00,00,
30490545,00000102,false,Rx,0,8,01,90,01,00,00,01,00,00,
30590054,00000100,false,Rx,0,8,00,00,00,00,9A,01,C8,00,
30590295,00000101,false,Rx,0,8,00,FF,FE,00,00,00,00,00,
30590547,00000102,false,Rx,0,8,01,90,01,00,00,01,00,00,
30623599,00000528,false,Rx,0,6,07,0E,46,10,00,00,00,00,
30690044,00000100,false,Rx,0,8,00,00,00,00,9A,01,C8,00,
30690292,00000101,false,Rx,0,8,00,FF,FE,00,00,00,00,00,
30690544,00000102,false,Rx,0,8,01,90,01,00,00,01,00,00,
30696136,00000522,false,Rx,0,6,01,06,D0,74,05,00,00,00,
30700156,00000525,false,Rx,0,6,04,06,8F,00,00,00,00,00,
30790053,00000100,false,Rx,0,8,00,00,00,00,9A,01,C8,00,
30790305,00000101,false,Rx,0,8,00,FF,FE,00,00,00,00,00,
30790541,00000102,false,Rx,0,8,01,90,01,00,00,01,00,00,
30890044,00000100,false,Rx,0,8,00,00,00,00,9A,01,C8,00,
30890291,00000101,false,Rx,0,8,00,FF,FE,00,00,00,00,00,
30890540,00000102,false,Rx,0,8,01,90,01,00,00,01,00,00,
30911849,00000524,false,Rx,0,6,03,03,EA,FF,FF,FF,00,00,
30972310,00000521,false,Rx,0,6,00,01,F5,FF,FF,FF,00,00,
30990048,00000100,false,Rx,0,8,00,00,00,00,9A,01,C8,00,
30990289,00000101,false,Rx,0,8,00,FF,FE,00,00,00,00,00,
30990535,00000102,false,Rx,0,8,01,90,01,00,00,01,00,00,
31090034,00000100,false,Rx,0,8,00,00,00,00,9A,01,C8,00,
31090287,00000101,false,Rx,0,8,00,FF,FE,00,00,00,00,00,
31090536,00000102,false,Rx,0,8,01,90,01,00,00,01,00,00,
31103701,00000526,false,Rx,0,6,05,00,FE,FF,FF,FF,00,00,
31135626,00000523,false,Rx,0,6,02,08,EB,FF,FF,FF,00,00,
31190045,00000100,false,Rx,0,8,00,00,00,00,9A,01,C8,00,
31190287,00000101,false,Rx,0,8,00,FF,FE,00,00,00,00,00,
31190536,00000102,false,Rx,0,8,01,90,01,00,00,01,00,00,
31208263,00000527,false,Rx,0,6,06,0E,3D,A9,00,00,00,00,
31290030,00000100,false,Rx,0,8,00,00,00,00,9A,01,C8,00,
31290284,00000101,false,Rx,0,8,00,FF,FE,00,00,00,00,00,
31290532,00000102,false,Rx,0,8,01,90,01,00,00,01,00,00,
31327157,00000522,false,Rx,0,6,01,07,D2,74,05,00,00,00,
31363515,00000528,false,Rx,0,6,07,0F,46,10,00,00,00,00,
31385638,00000525,false,Rx,0,6,04,07,8E,00,00,00,00,00,
31390038,00000100,false,Rx,0,8,00,00,00,00,9A,01,C8,00,
31390280,00000101,false,Rx,0,8,00,FF,FE,00,00,00,00,00,
31390538,00000102,false,Rx,0,8,01,90,01,00,00,01,00,00,
31490028,00000100,false,Rx,0,8,00,00,00,00,9A,01,C8,00,
31490276,00000101,false,Rx,0,8,00,FF,FE,00,00,00,00,00,
31490528,00000102,false,Rx,0,8,01,90,01,00,00,01,00,00,
31579183,00000524,false,Rx,0,6,03,04,FA,FF,FF,FF,00,00,
31585256,00000521,false,Rx,0,6,00,02,F8,FF,FF,FF,00,00,
31590039,00000100,false,Rx,0,8,00,00,00,00,9A,01,C8,00,
31590274,00000101,false,Rx,0,8,00,FF,FE,00,00,00,00,00,
31590526,00000102,false,Rx,0,8,01,90,01,00,00,01,00,00,
31690024,00000100,false,Rx,0,8,00,00,00,00,9A,01,C8,00,
31690271,00000101,false,Rx,0,8,00,FF,FE,00,00,00,00,00,
31690523,00000102,false,Rx,0,8,01,90,01,00,00,01,00,00,
31784859,00000523,false,Rx,0,6,02,09,EA,FF,FF,FF,00,00,
31790034,00000100,false,Rx,0,8,00,00,00,00,9A,01,C8,00,
31790272,00000101,false,Rx,0,8,00,FF,FE,00,00,00,00,00,
31790518,00000102,false,Rx,0,8,01,90,01,00,00,01,00,00,
31807342,00000526,false,Rx,0,6,05,01,07,00,00,00,00,00,
31890020,00000100,false,Rx,0,8,00,00,00,00,9A,01,C8,00,
31890267,00000101,false,Rx,0,8,00,FF,FE,00,00,00,00,00,
31890519,00000102,false,Rx,0,8,01,90,01,00,00,01,00,00,
31930053,00000527,false,Rx,0,6,06,0F,3D,A9,00,00,00,00,
31958195,00000522,false,Rx,0,6,01,08,D2,74,05,00,00,00,
31990027,00000100,false,Rx,0,8,00,00,00,00,9A,01,C8,00,
31990264,00000101,false,Rx,0,8,00,FF,FE,00,00,00,00,00,
31990516,00000102,false,Rx,0,8,01,90,01,00,00,01,00,00,
32071139,00000525,false,Rx,0,6,04,08,8E,00,00,00,00,00,
32090015,00000100,false,Rx,0,8,00,00,00,00,9A,01,C8,00,
32090265,00000101,false,Rx,0,8,00,FF,FE,00,00,00,00,00,
32090517,00000102,false,Rx,0,8,01,90,01,00,00,01,00,00,
32103441,00000528,false,Rx,0,6,07,00,46,10,00,00,00,00,
32190026,00000100,false,Rx,0,8,00,00,00,00,9A,01,C8,00,
32190261,00000101,false,Rx,0,8,00,FF,FE,00,00,00,00,00,
32190513,00000102,false,Rx,0,8,01,90,01,00,00,01,00,00,
32198124,00000521,false,Rx,0,6,00,03,F5,FF,FF,FF,00,00,
32246523,00000524,false,Rx,0,6,03,05,FC,FF,FF,FF,00,00,
32290011,00000100,false,Rx,0,8,00,00,00,00,9A,01,C8,00,
32290258,00000101,false,Rx,0,8,00,FF,FE,00,00,00,00,00,
32290510,00000102,false,Rx,0,8,01,90,01,00,00,01,00,00,
32390021,00000100,false,Rx,0,8,00,00,00,00,9A,01,C8,00,
32390262,00000101,false,Rx,0,8,00,FF,FE,00,00,00,00,00,
32390505,00000102,false,Rx,0,8,01,90,01,00,00,01,00,00,
32434018,00000523,false,Rx,0,6,02,0A,EA,FF,FF,FF,00,00,
32490009,00000100,false,Rx,0,8,00,00,00,00,9A,01,C8,00,
32490256,00000101,false,Rx,0,8,00,FF,FE,00,00,00,00,00,
32490505,00000102,false,Rx,0,8,01,90,01,00,00,01,00,00,
32510944,00000526,false,Rx,0,6,05,02,05,00,00,00,00,00,
32589253,00000522,false,Rx,0,6,01,09,D6,74,05,00,00,00,
32590016,00000100,false,Rx,0,8,00,00,00,00,9A,01,C8,00,
32590257,00000101,false,Rx,0,8,00,FF,FE,00,00,00,00,00,
32590503,00000102,false,Rx,0,8,01,90,01,00,00,01,00,00,
32651833,00000527,false,Rx,0,6,06,00,3D,A9,00,00,00,00,
32690007,00000100,false,Rx,0,8,00,00,00,00,9A,01,C8,00,
32690255,00000101,false,Rx,0,8,00,FF,FE,00,00,00,00,00,
32690500,00000102,false,Rx,0,8,01,90,01,00,00,01,00,00,
32756629,00000525,false,Rx,0,6,04,09,8E,00,00,00,00,00,
32790012,00000100,false,Rx,0,8,00,00,00,00,9A,01,C8,00,
32790248,00000101,false,Rx,0,8,00,FF,FE,00,00,00,00,00,
32790500,00000102,false,Rx,0,8,01,90,01,00,00,01,00,00,
32811075,00000521,false,Rx,0,6,00,04,F8,FF,FF,FF,00,00,
32843367,00000528,false,Rx,0,6,07,01,46,10,00,00,00,00,
32889999,00000100,false,Rx,0,8,00,00,00,00,9A,01,C8,00,
32890246,00000101,false,Rx,0,8,00,FF,FE,00,00,00,00,00,
32890514,00000102,false,Rx,0,8,01,90,01,00,00,01,00,00,
32913873,00000524,false,Rx,0,6,03,06,F2,FF,FF,FF,00,00,
32990008,00000100,false,Rx,0,8,00,00,00,00,9A,01,C8,00,
32990250,00000101,false,Rx,0,8,00,FF,FE,00,00,00,00,00,
32990496,00000102,false,Rx,0,8,01,90,01,00,00,01,00,00,
33083216,00000523,false,Rx,0,6,02,0B,EA,FF,FF,FF,00,00,
33089997,00000100,false,Rx,0,8,00,00,00,00,9A,01,C8,00,
33090245,00000101,false,Rx,0,8,00,FF,FE,00,00,00,00,00,
33090490,00000102,false,Rx,0,8,01,90,01,00,00,01,00,00,
33190003,00000100,false,Rx,0,8,00,00,00,00,9A,01,C8,00,
33190244,00000101,false,Rx,0,8,00,FF,FE,00,00,00,00,00,
33190490,00000102,false,Rx,0,8,01,90,01,00,00,01,00,00,
33214300,00000526,false,Rx,0,6,05,03,00,00,00,00,00,00,
33220304,00000522,false,Rx,0,6,01,0A,E5,74,05,00,00,00,
33289991,00000100,false,Rx,0,8,00,00,00,00,9A,01,C8,00,
33290240,00000101,false,Rx,0,8,00,FF,FE,00,00,00,00,00,
33290485,00000102,false,Rx,0,8,01,90,01,00,00,01,00,00,
33373595,00000527,false,Rx,0,6,06,01,3D,A9,00,00,00,00,
33390002,00000100,false,Rx,0,8,00,00,00,00,9A,01,C8,00,
33390239,00000101,false,Rx,0,8,00,FF,FE,00,00,00,00,00,
33390485,00000102,false,Rx,0,8,01,90,01,00,00,01,00,00,
33423939,00000521,false,Rx,0,6,00,05,F8,FF,FF,FF,00,00,
33442109,00000525,false,Rx,0,6,04,0A,8E,00,00,00,00,00,
33489985,00000100,false,Rx,0,8,00,00,00,00,9A,01,C8,00,
33490235,00000101,false,Rx,0,8,00,FF,FE,00,00,00,00,00,
33490486,00000102,false,Rx,0,8,01,90,01,00,00,01,00,00,
33581201,00000524,false,Rx,0,6,03,07,F8,FF,FF,FF,00,00,
33583288,00000528,false,Rx,0,6,07,02,46,10,00,00,00,00,
33589993,00000100,false,Rx,0,8,00,00,00,00,9A,01,C8,00,
33590233,00000101,false,Rx,0,8,00,FF,FE,00,00,00,00,00,
33590485,00000102,false,Rx,0,8,01,90,01,00,00,01,00,00,
33689981,00000100,false,Rx,0,8,00,00,00,00,9A,01,C8,00,
33690233,00000101,false,Rx,0,8,00,FF,FE,00,00,00,00,00,
33690479,00000102,false,Rx,0,8,01,90,01,00,00,01,00,00,
33732424,00000523,false,Rx,0,6,02,0C,EC,FF,FF,FF,00,00,
33789992,00000100,false,Rx,0,8,00,00,00,00,9A,01,C8,00,
33790244,00000101,false,Rx,0,8,00,FF,FE,00,00,00,00,00,
33790479,00000102,false,Rx,0,8,01,90,01,00,00,01,00,00,
33851356,00000522,false,Rx,0,6,01,0B,CF,74,05,00,00,00,
33889974,00000100,false,Rx,0,8,00,00,00,00,9A,01,C8,00,
33890227,00000101,false,Rx,0,8,00,FF,FE,00,00,00,00,00,
33890479,00000102,false,Rx,0,8,01,90,01,00,00,01,00,00,
33917973,00000526,false,Rx,0,6,05,04,07,00,00,00,00,00,
33989990,00000100,false,Rx,0,8,00,00,00,00,9A,01,C8,00,
33990225,00000101,false,Rx,0,8,00,FF,FE,00,00,00,00,00,
33990473,00000102,false,Rx,0,8,01,90,01,00,00,01,00,00,
34036849,00000521,false,Rx,0,6,00,06,F7,FF,FF,FF,00,00,
34089973,00000100,false,Rx,0,8,00,00,00,00,9A,01,C8,00,
34090226,00000101,false,Rx,0,8,00,FF,FE,00,00,00,00,00,
34090475,00000102,false,Rx,0,8,01,90,01,00,00,01,00,00,
34095393,00000527,false,Rx,0,6,06,02,3D,A9,00,00,00,00,
34127605,00000525,false,Rx,0,6,04,0B,8E,00,00,00,00,00,
34189983,00000100,false,Rx,0,8,00,00,00,00,9A,01,C8,00,
34190225,00000101,false,Rx,0,8,00,FF,FE,00,00,00,00,00,
34190467,00000102,false,Rx,0,8,01,90,01,00,00,01,00,00,
34248566,00000524,false,Rx,0,6,03,08,F9,FF,FF,FF,00,00,
34289968,00000100,false,Rx,0,8,00,00,00,00,9A,01,C8,00,
34290222,00000101,false,Rx,0,8,00,FF,FE,00,00,00,00,00,
34290468,00000102,false,Rx,0,8,01,90,01,00,00,01,00,00,
34323236,00000528,false,Rx,0,6,07,03,46,10,00,00,00,00,
34381633,00000523,false,Rx,0,6,02,0D,F0,FF,FF,FF,00,00,
34389978,00000100,false,Rx,0,8,00,00,00,00,9A,01,C8,00,
34390219,00000101,false,Rx,0,8,00,FF,FE,00,00,00,00,00,
34390475,00000102,false,Rx,0,8,01,90,01,00,00,01,00,00,
34482430,00000522,false,Rx,0,6,01,0C,CB,74,05,00,00,00,
34489969,00000100,false,Rx,0,8,00,00,00,00,9A,01,C8,00,
34490215,00000101,false,Rx,0,8,00,FF,FE,00,00,00,00,00,
34490468,00000102,false,Rx,0,8,01,90,01,00,00,01,00,00,
34589978,00000100,false,Rx,0,8,00,00,00,00,9A,01,C8,00,
34590213,00000101,false,Rx,0,8,00,FF,FE,00,00,00,00,00,
34590465,00000102,false,Rx,0,8,01,90,01,00,00,01,00,00,
34621880,00000526,false,Rx,0,6,05,05,00,00,00,00,00,00,
34649762,00000521,false,Rx,0,6,00,07,F9,FF,FF,FF,00,00,
34689960,00000100,false,Rx,0,8,00,00,00,00,9A,01,C8,00,
34690214,00000101,false,Rx,0,8,00,FF,FE,00,00,00,00,00,
34690460,00000102,false,Rx,0,8,01,90,01,00,00,01,00,00,
34789969,00000100,false,Rx,0,8,00,00,00,00,9A,01,C8,00,
34790210,00000101,false,Rx,0,8,00,FF,FE,00,00,00,00,00,
34790455,00000102,false,Rx,0,8,01,90,01,00,00,01,00,00,
34813112,00000525,false,Rx,0,6,04,0C,8E,00,00,00,00,00,
34817184,00000527,false,Rx,0,6,06,03,3D,A9,00,00,00,00,
34889959,00000100,false,Rx,0,8,00,00,00,00,9A,01,C8,00,
34890207,00000101,false,Rx,0,8,00,FF,FE,00,00,00,00,00,
34890459,00000102,false,Rx,0,8,01,90,01,00,00,01,00,00,
34915905,00000524,false,Rx,0,6,03,09,EA,FF,FF,FF,00,00,
34989964,00000100,false,Rx,0,8,00,00,00,00,9A,01,C8,00,
34990205,00000101,false,Rx,0,8,00,FF,FE,00,00,00,00,00,
34990450,00000102,false,Rx,0,8,01,90,01,00,00,01,00,00,
35030821,00000523,false,Rx,0,6,02,0E,F0,FF,FF,FF,00,00,
35063389,00000528,false,Rx,0,6,07,04,46,10,00,00,00,00,
35089954,00000100,false,Rx,0,8,00,00,00,00,9A,01,C8,00,
35090205,00000101,false,Rx,0,8,00,FF,FE,00,00,00,00,00,
35090451,00000102,false,Rx,0,8,01,90,01,00,00,01,00,00,
35113483,00000522,false,Rx,0,6,01,0D,EA,74,05,00,00,00,
35189963,00000100,false,Rx,0,8,00,00,00,00,9A,01,C8,00,
35190205,00000101,false,Rx,0,8,00,FF,FE,00,00,00,00,00,
35190451,00000102,false,Rx,0,8,01,90,01,00,00,01,00,00,
35243719,00000108,false,Rx,0,8,01,58,02,7D,9A,01,00,00,
35243959,00000109,false,Rx,0,8,02,02,00,00,00,20,FF,FE,
35263000,00000521,false,Rx,0,6,00,08,F8,FF,FF,FF,00,00,
35289945,00000100,false,Rx,0,8,00,00,00,00,9A,01,C8,00,
35290201,00000101,false,Rx,0,8,00,FF,FE,00,00,00,00,00,
35290447,00000102,false,Rx,0,8,01,90,01,00,00,01,00,00,
35325509,00000526,false,Rx,0,6,05,06,05,00,00,00,00,00,
35354490,00000108,false,Rx,0,8,01,58,02,7D,9A,01,00,00,
35354736,00000109,false,Rx,0,8,02,02,00,00,00,20,FF,FE,
35389956,00000100,false,Rx,0,8,00,00,00,00,9A,01,C8,00,
35390207,00000101,false,Rx,0,8,00,FF,FE,00,00,00,00,00,
35390449,00000102,false,Rx,0,8,01,90,01,00,00,01,00,00,
35453653,00000108,false,Rx,0,8,01,58,02,7D,9A,01,00,00,
35453907,00000109,false,Rx,0,8,02,02,00,00,00,20,FF,FE,
35489948,00000100,false,Rx,0,8,00,00,00,00,9A,01,C8,00,
35490196,00000101,false,Rx,0,8,00,FF,FE,00,00,00,00,00,
35490444,00000102,false,Rx,0,8,01,90,01,00,00,01,00,00,
35498586,00000525,false,Rx,0,6,04,0D,8F,00,00,00,00,00,
35538957,00000527,false,Rx,0,6,06,04,3D,A9,00,00,00,00,
35563729,00000108,false,Rx,0,8,01,58,02,7D,9A,01,00,00,
35563969,00000109,false,Rx,0,8,02,02,00,00,00,24,FF,FE,
35583257,00000524,false,Rx,0,6,03,0A,EB,FF,FF,FF,00,00,
35589952,00000100,false,Rx,0,8,00,00,00,00,9A,01,C8,00,
35590194,00000101,false,Rx,0,8,00,FF,FE,00,00,00,00,00,
35590445,00000102,false,Rx,0,8,01,90,01,00,00,01,00,00,
35663756,00000108,false,Rx,0,8,01,58,02,7D,9A,01,00,00,
35663997,00000109,false,Rx,0,8,02,02,00,00,00,24,FF,FE,
35680022,00000523,false,Rx,0,6,02,0F,F4,FF,FF,FF,00,00,
35689942,00000100,false,Rx,0,8,00,00,00,00,9A,01,C8,00,
35690190,00000101,false,Rx,0,8,00,FF,FE,00,00,00,00,00,
35690441,00000102,false,Rx,0,8,01,90,01,00,00,01,00,00,
35744543,00000522,false,Rx,0,6,01,0E,DB,74,05,00,00,00,
35773636,00000108,false,Rx,0,8,01,58,02,7D,9A,01,00,00,
35773876,00000109,false,Rx,0,8,02,02,00,00,00,24,FF,FE,
35789946,00000100,false,Rx,0,8,00,00,00,00,9A,01,C8,00,
35790188,00000101,false,Rx,0,8,00,FF,FE,00,00,00,00,00,
35790438,00000102,false,Rx,0,8,01,90,01,00,00,01,00,00,
35803091,00000528,false,Rx,0,6,07,05,46,10,00,00,00,00,
35874034,00000108,false,Rx,0,8,01,58,02,7D,9A,01,00,00,
35874281,00000109,false,Rx,0,8,02,02,00,00,00,24,FF,FE,
35875583,00000521,false,Rx,0,6,00,09,F5,FF,FF,FF,00,00,
35889934,00000100,false,Rx,0,8,00,00,00,00,9A,01,C8,00,
35890188,00000101,false,Rx,0,8,00,FF,FE,00,00,00,00,00,
35890438,00000102,false,Rx,0,8,01,90,01,00,00,01,00,00,
35984279,00000108,false,Rx,0,8,01,58,02,7D,9A,01,00,00,
35984525,00000109,false,Rx,0,8,02,02,00,00,00,24,FF,FE,
35989946,00000100,false,Rx,0,8,00,00,00,00,9A,01,C8,00,
35990188,00000101,false,Rx,0,8,00,FF,FE,00,00,00,00,00,
35990433,00000102,false,Rx,0,8,01,90,01,00,00,01,00,00,
36029147,00000526,false,Rx,0,6,05,07,05,00,00,00,00,00,
36089935,00000100,false,Rx,0,8,00,00,00,00,9A,01,C8,00,
36090183,00000101,false,Rx,0,8,00,FF,FE,00,00,00,00,00,
36090429,00000102,false,Rx,0,8,01,90,01,00,00,01,00,00,
36093782,00000108,false,Rx,0,8,01,58,02,7D,9A,01,00,00,
36094023,00000109,false,Rx,0,8,02,02,00,00,00,24,FF,FE,
36184074,00000525,false,Rx,0,6,04,0E,8E,00,00,00,00,00,
36189672,00000108,false,Rx,0,8,01,58,02,7D,9A,01,00,00,
36189933,00000109,false,Rx,0,8,02,02,00,00,00,24,FF,FE,
36190161,00000100,false,Rx,0,8,00,00,00,00,9A,01,C8,00,
36190413,00000101,false,Rx,0,8,00,FF,FE,00,00,00,00,00,
36190664,00000102,false,Rx,0,8,01,90,01,00,00,01,00,00,
36250604,00000524,false,Rx,0,6,03,0B,F7,FF,FF,FF,00,00,
36260983,00000527,false,Rx,0,6,06,05,3D,A9,00,00,00,00,
36283924,00000108,false,Rx,0,8,01,58,02,7D,9A,01,00,00,
36284164,00000109,false,Rx,0,8,02,02,00,00,00,24,FF,FE,
36289929,00000100,false,Rx,0,8,00,00,00,00,9A,01,C8,00,
36290178,00000101,false,Rx,0,8,00,FF,FE,00,00,00,00,00,
36290423,00000102,false,Rx,0,8,01,90,01,00,00,01,00,00,
36329226,00000523,false,Rx,0,6,02,00,F3,FF,FF,FF,00,00,
36375581,00000522,false,Rx,0,6,01,0F,EA,74,05,00,00,00,
36381276,00000108,false,Rx,0,8,01,58,02,7D,9A,01,00,00,
36381521,00000109,false,Rx,0,8,02,02,00,00,00,24,FF,FE,
36389940,00000100,false,Rx,0,8,00,00,00,00,9A,01,C8,00,
36390175,00000101,false,Rx,0,8,00,FF,FE,00,00,00,00,00,
36390427,00000102,false,Rx,0,8,01,90,01,00,00,01,00,00,
36483820,00000108,false,Rx,0,8,01,58,02,7D,9A,01,00,00,
36484061,00000109,false,Rx,0,8,02,02,00,00,00,24,FF,FE,
36488484,00000521,false,Rx,0,6,00,0A,F9,FF,FF,FF,00,00,
36489923,00000100,false,Rx,0,8,00,00,00,00,9A,01,C8,00,
36490170,00000101,false,Rx,0,8,00,FF,FE,00,00,00,00,00,
36490423,00000102,false,Rx,0,8,01,90,01,00,00,01,00,00,
36543001,00000528,false,Rx,0,6,07,06,46,10,00,00,00,00,
36589932,00000100,false,Rx,0,8,00,00,00,00,9A,01,C8,00,
36590174,00000101,false,Rx,0,8,00,FF,FE,00,00,00,00,00,
36590420,00000102,false,Rx,0,8,01,90,01,00,00,01,00,00,
36593736,00000108,false,Rx,0,8,01,58,02,7D,9A,01,00,00,
36593977,00000109,false,Rx,0,8,02,02,00,00,00,24,FF,FE,
36689922,00000100,false,Rx,0,8,00,00,00,00,9A,01,C8,00,
36690170,00000101,false,Rx,0,8,00,FF,FE,00,00,00,00,00,
36690416,00000102,false,Rx,0,8,01,90,01,00,00,01,00,00,
36694049,00000108,false,Rx,0,8,01,58,02,7D,9A,01,00,00,
36694290,00000109,false,Rx,0,8,02,02,00,00,00,24,FF,FE,
36732737,00000526,false,Rx,0,6,05,08,06,00,00,00,00,00,
36789927,00000100,false,Rx,0,8,00,00,00,00,9A,01,C8,00,
36790168,00000101,false,Rx,0,8,00,FF,FE,00,00,00,00,00,
36790414,00000102,false,Rx,0,8,01,90,01,00,00,01,00,00,
36795529,00000108,false,Rx,0,8,01,58,02,7D,9A,01,00,00,
36795775,00000109,false,Rx,0,8,02,02,00,00,00,24,FF,FE,
36869565,00000525,false,Rx,0,6,04,0F,8F,00,00,00,00,00,
36889918,00000100,false,Rx,0,8,00,00,00,00,9A,01,C8,00,
36890162,00000101,false,Rx,0,8,00,FF,FE,00,00,00,00,00,
36890414,00000102,false,Rx,0,8,01,90,01,00,00,01,00,00,
36894707,00000108,false,Rx,0,8,01,58,02,7D,9A,01,00,00,
36894954,00000109,false,Rx,0,8,02,02,00,00,00,24,FF,FE,
36917954,00000524,false,Rx,0,6,03,0C,03,00,00,00,00,00,
36978419,00000523,false,Rx,0,6,02,01,F3,FF,FF,FF,00,00,
36982509,00000527,false,Rx,0,6,06,06,3D,A9,00,00,00,00,
36989742,00000108,false,Rx,0,8,01,58,02,7D,9A,01,00,00,
36990000,00000100,false,Rx,0,8,00,00,00,00,9A,01,C8,00,
36990236,00000101,false,Rx,0,8,00,FF,FE,00,00,00,00,00,
36990488,00000102,false,Rx,0,8,01,90,01,00,00,01,00,00,
36990734,00000109,false,Rx,0,8,02,02,00,00,00,24,FF,FE,
37006634,00000522,false,Rx,0,6,01,00,CF,74,05,00,00,00,
37088074,00000108,false,Rx,0,8,01,58,02,7D,9A,01,00,00,
37088316,00000109,false,Rx,0,8,02,02,00,00,00,24,FF,FE,
37089917,00000100,false,Rx,0,8,00,00,00,00,9A,01,C8,00,
37090165,00000101,false,Rx,0,8,00,FF,FE,00,00,00,00,00,
37090410,00000102,false,Rx,0,8,01,90,01,00,00,01,00,00,
37101399,00000521,false,Rx,0,6,00,0B,F4,FF,FF,FF,00,00,
37189928,00000100,false,Rx,0,8,00,00,00,00,9A,01,C8,00,
37190174,00000101,false,Rx,0,8,00,FF,FE,00,00,00,00,00,
37190409,00000102,false,Rx,0,8,01,90,01,00,00,01,00,00,
37223667,00000108,false,Rx,0,8,01,58,02,7D,9A,01,00,00,
37223917,00000109,false,Rx,0,8,02,02,00,00,00,24,FF,FE,
37282935,00000528,false,Rx,0,6,07,07,46,10,00,00,00,00,
37289911,00000100,false,Rx,0,8,00,00,00,00,9A,01,C8,00,
37290158,00000101,false,Rx,0,8,00,FF,FE,00,00,00,00,00,
37290403,00000102,false,Rx,0,8,01,90,01,00,00,01,00,00,
37323639,00000108,false,Rx,0,8,01,58,02,7D,9A,01,00,00,
37323887,00000109,false,Rx,0,8,02,02,00,00,00,24,FF,FE,
37389917,00000100,false,Rx,0,8,00,00,00,00,9A,01,C8,00,
37390158,00000101,false,Rx,0,8,00,FF,FE,00,00,00,00,00,
37390407,00000102,false,Rx,0,8,01,90,01,00,00,01,00,00,
37423812,00000108,false,Rx,0,8,01,58,02,7D,9A,01,00,00,
37424058,00000109,false,Rx,0,8,02,02,00,00,00,24,FF,FE,
37436120,00000526,false,Rx,0,6,05,09,00,00,00,00,00,00,
37489907,00000100,false,Rx,0,8,00,00,00,00,9A,01,C8,00,
37490155,00000101,false,Rx,0,8,00,FF,FE,00,00,00,00,00,
37490403,00000102,false,Rx,0,8,01,90,01,00,00,01,00,00,
37528247,00000108,false,Rx,0,8,01,58,02,7D,9A,01,00,00,
37528493,00000109,false,Rx,0,8,02,02,00,00,00,24,FF,FE,
37555061,00000525,false,Rx,0,6,04,00,8E,00,00,00,00,00,
37585284,00000524,false,Rx,0,6,03,0D,EF,FF,FF,FF,00,00,
37589920,00000100,false,Rx,0,8,00,00,00,00,9A,01,C8,00,
37590149,00000101,false,Rx,0,8,00,FF,FE,00,00,00,00,00,
37590403,00000102,false,Rx,0,8,01,90,01,00,00,01,00,00,
37624368,00000108,false,Rx,0,8,01,58,02,7D,9A,01,00,00,
37624613,00000109,false,Rx,0,8,02,02,00,00,00,24,FF,FE,
37627621,00000523,false,Rx,0,6,02,02,F7,FF,FF,FF,00,00,
37637697,00000522,false,Rx,0,6,01,01,DD,74,05,00,00,00,
37689908,00000100,false,Rx,0,8,00,00,00,00,9A,01,C8,00,
37690149,00000101,false,Rx,0,8,00,FF,FE,00,00,00,00,00,
37690410,00000102,false,Rx,0,8,01,90,01,00,00,01,00,00,
37704291,00000527,false,Rx,0,6,06,07,3D,A9,00,00,00,00,
37714299,00000521,false,Rx,0,6,00,0C,FB,FF,FF,FF,00,00,
37719906,00000108,false,Rx,0,8,01,58,02,7D,9A,01,00,00,
37720146,00000109,false,Rx,0,8,02,02,00,00,00,24,FF,FE,
37789908,00000100,false,Rx,0,8,00,00,00,00,9A,01,C8,00,
37790150,00000101,false,Rx,0,8,00,FF,FE,00,00,00,00,00,
37790396,00000102,false,Rx,0,8,01,90,01,00,00,01,00,00,
37824264,00000108,false,Rx,0,8,01,58,02,7D,9A,01,00,00,
37824509,00000109,false,Rx,0,8,02,02,00,00,00,24,FF,FE,
37889893,00000100,false,Rx,0,8,00,00,00,00,9A,01,C8,00,
37890147,00000101,false,Rx,0,8,00,FF,FE,00,00,00,00,00,
37890393,00000102,false,Rx,0,8,01,90,01,00,00,01,00,00,
37924652,00000108,false,Rx,0,8,01,58,02,7D,9A,01,00,00,
37924893,00000109,false,Rx,0,8,02,02,00,00,00,24,FF,FE,
37989909,00000100,false,Rx,0,8,00,00,00,00,9A,01,C8,00,
37990144,00000101,false,Rx,0,8,00,FF,FE,00,00,00,00,00,
37990390,00000102,false,Rx,0,8,01,90,01,00,00,01,00,00,
38022844,00000528,false,Rx,0,6,07,08,46,10,00,00,00,00,
38024073,00000108,false,Rx,0,8,01,58,02,7D,9A,01,00,00,
38024321,00000109,false,Rx,0,8,02,02,00,00,00,24,FF,FE,
38089892,00000100,false,Rx,0,8,00,00,00,00,9A,01,C8,00,
38090139,00000101,false,Rx,0,8,00,FF,FE,00,00,00,00,00,
38090392,00000102,false,Rx,0,8,01,90,01,00,00,01,00,00,
38133688,00000108,false,Rx,0,8,01,58,02,7D,9A,01,00,00,
38133935,00000109,false,Rx,0,8,02,02,00,00,00,24,FF,FE,
38139753,00000526,false,Rx,0,6,05,0A,00,00,00,00,00,00,
38189907,00000100,false,Rx,0,8,00,00,00,00,9A,01,C8,00,
38190142,00000101,false,Rx,0,8,00,FF,FE,00,00,00,00,00,
38190388,00000102,false,Rx,0,8,01,90,01,00,00,01,00,00,
38240546,00000525,false,Rx,0,6,04,01,8E,00,00,00,00,00,
38243949,00000108,false,Rx,0,8,01,58,02,7D,9A,01,00,00,
38244189,00000109,false,Rx,0,8,02,02,00,00,00,24,FF,FE,
38252626,00000524,false,Rx,0,6,03,0E,F4,FF,FF,FF,00,00,
38268749,00000522,false,Rx,0,6,01,02,EF,74,05,00,00,00,
38276814,00000523,false,Rx,0,6,02,03,E1,FF,FF,FF,00,00,
38289891,00000100,false,Rx,0,8,00,00,00,00,9A,01,C8,00,
38290139,00000101,false,Rx,0,8,00,FF,FE,00,00,00,00,00,
38290386,00000102,false,Rx,0,8,01,90,01,00,00,01,00,00,
38327216,00000521,false,Rx,0,6,00,0D,F9,FF,FF,FF,00,00,
38340751,00000108,false,Rx,0,8,01,58,02,7D,9A,01,00,00,
38341624,00000109,false,Rx,0,8,02,02,00,00,00,24,FF,FE,
38389881,00000100,false,Rx,0,8,00,00,00,00,9A,01,C8,00,
38390134,00000101,false,Rx,0,8,00,FF,FE,00,00,00,00,00,
38390380,00000102,false,Rx,0,8,01,90,01,00,00,01,00,00,
38426067,00000527,false,Rx,0,6,06,08,3D,A9,00,00,00,00,
38453853,00000108,false,Rx,0,8,01,58,02,7D,9A,01,00,00,
38454098,00000109,false,Rx,0,8,02,02,00,00,00,24,FF,FE,
38489897,00000100,false,Rx,0,8,00,00,00,00,9A,01,C8,00,
38490133,00000101,false,Rx,0,8,00,FF,FE,00,00,00,00,00,
38490379,00000102,false,Rx,0,8,01,90,01,00,00,01,00,00,
38553816,00000108,false,Rx,0,8,01,58,02,7D,9A,01,00,00,
38554064,00000109,false,Rx,0,8,02,02,00,00,00,24,FF,FE,
38589879,00000100,false,Rx,0,8,00,00,00,00,9A,01,C8,00,
38590137,00000101,false,Rx,0,8,00,FF,FE,00,00,00,00,00,
38590377,00000102,false,Rx,0,8,01,90,01,00,00,01,00,00,
38653702,00000108,false,Rx,0,8,01,58,02,7D,9A,01,00,00,
38653950,00000109,false,Rx,0,8,02,02,00,00,00,24,FF,FE,
38689881,00000100,false,Rx,0,8,00,00,00,00,9A,01,C8,00,
38690128,00000101,false,Rx,0,8,00,FF,FE,00,00,00,00,00,
38690374,00000102,false,Rx,0,8,01,90,01,00,00,01,00,00,
38753756,00000108,false,Rx,0,8,01,58,02,7D,9A,01,00,00,
38753996,00000109,false,Rx,0,8,02,02,00,00,00,24,FF,FE,
38762769,00000528,false,Rx,0,6,07,09,46,10,00,00,00,00,
38789877,00000100,false,Rx,0,8,00,00,00,00,9A,01,C8,00,
38790128,00000101,false,Rx,0,8,00,FF,FE,00,00,00,00,00,
38790374,00000102,false,Rx,0,8,01,90,01,00,00,01,00,00,
38843670,00000526,false,Rx,0,6,05,0B,01,00,00,00,00,00,
38849488,00000108,false,Rx,0,8,01,58,02,7D,9A,01,00,00,
38849735,00000109,false,Rx,0,8,02,04,00,00,00,24,FF,FE,
38889874,00000100,false,Rx,0,8,00,00,00,00,9A,01,C8,00,
38890121,00000101,false,Rx,0,8,00,FF,FE,00,00,00,00,00,
38890373,00000102,false,Rx,0,8,01,90,01,00,00,01,00,00,
38899775,00000522,false,Rx,0,6,01,03,D7,74,05,00,00,00,
38919960,00000524,false,Rx,0,6,03,0F,EE,FF,FF,FF,00,00,
38926045,00000523,false,Rx,0,6,02,04,E1,FF,FF,FF,00,00,
38926267,00000525,false,Rx,0,6,04,02,8E,00,00,00,00,00,
38940100,00000521,false,Rx,0,6,00,0E,F4,FF,FF,FF,00,00,
38945597,00000108,false,Rx,0,8,01,58,02,7D,9A,01,00,00,
38945843,00000109,false,Rx,0,8,02,04,00,00,00,24,FF,FE,
38989873,00000100,false,Rx,0,8,00,00,00,00,9A,01,C8,00,
38990135,00000101,false,Rx,0,8,00,FF,FE,00,00,00,00,00,
38990368,00000102,false,Rx,0,8,01,90,01,00,00,01,00,00,
39043813,00000108,false,Rx,0,8,01,58,02,7D,9A,01,00,00,
39044053,00000109,false,Rx,0,8,02,04,00,00,00,24,FF,FE,
39089874,00000100,false,Rx,0,8,00,00,00,00,9A,01,C8,00,
39090127,00000101,false,Rx,0,8,00,FF,FE,00,00,00,00,00,
39090366,00000102,false,Rx,0,8,01,90,01,00,00,01,00,00,
39144595,00000108,false,Rx,0,8,01,58,02,7D,9A,01,00,00,
39144835,00000109,false,Rx,0,8,02,04,00,00,00,24,FF,FE,
39147825,00000527,false,Rx,0,6,06,09,3D,A9,00,00,00,00,
39189867,00000100,false,Rx,0,8,00,00,00,00,9A,01,C8,00,
39190126,00000101,false,Rx,0,8,00,FF,FE,00,00,00,00,00,
39190365,00000102,false,Rx,0,8,01,90,01,00,00,01,00,00,
39253887,00000108,false,Rx,0,8,01,58,02,7D,9A,01,00,00,
39254129,00000109,false,Rx,0,8,02,04,00,00,00,24,FF,FE,
39289866,00000100,false,Rx,0,8,00,00,00,00,9A,01,C8,00,
39290114,00000101,false,Rx,0,8,00,FF,FE,00,00,00,00,00,
39290366,00000102,false,Rx,0,8,01,90,01,00,00,01,00,00,
39353754,00000108,false,Rx,0,8,01,58,02,7D,9A,01,00,00,
39353994,00000109,false,Rx,0,8,02,04,00,00,00,24,FF,FE,
39389867,00000100,false,Rx,0,8,00,00,00,00,9A,01,C8,00,
39390126,00000101,false,Rx,0,8,00,FF,FE,00,00,00,00,00,
39390360,00000102,false,Rx,0,8,01,90,01,00,00,01,00,00,
39454158,00000108,false,Rx,0,8,01,58,02,7D,9A,01,00,00,
39454404,00000109,false,Rx,0,8,02,04,00,00,00,24,FF,FE,
39489861,00000100,false,Rx,0,8,00,00,00,00,9A,01,C8,00,
39490109,00000101,false,Rx,0,8,00,FF,FE,00,00,00,00,00,
39490361,00000102,false,Rx,0,8,01,90,01,00,00,01,00,00,
39502666,00000528,false,Rx,0,6,07,0A,46,10,00,00,00,00,
39530814,00000522,false,Rx,0,6,01,04,E4,74,05,00,00,00,
39546988,00000526,false,Rx,0,6,05,0C,00,00,00,00,00,00,
39552629,00000108,false,Rx,0,8,01,58,02,7D,9A,01,00,00,
39552875,00000109,false,Rx,0,8,02,04,00,00,00,24,FF,FE,
39553086,00000521,false,Rx,0,6,00,0F,F5,FF,FF,FF,00,00,
39575164,00000523,false,Rx,0,6,02,05,EA,FF,FF,FF,00,00,
39587601,00000524,false,Rx,0,6,03,00,FC,FF,FF,FF,00,00,
39589861,00000100,false,Rx,0,8,00,00,00,00,9A,01,C8,00,
39590125,00000101,false,Rx,0,8,00,FF,FE,00,00,00,00,00,
39590359,00000102,false,Rx,0,8,01,90,01,00,00,01,00,00,
39611490,00000525,false,Rx,0,6,04,03,8E,00,00,00,00,00,
39653977,00000108,false,Rx,0,8,01,58,02,7D,9A,01,00,00,
39654218,00000109,false,Rx,0,8,02,04,00,00,00,24,FF,FE,
39689861,00000100,false,Rx,0,8,00,00,00,00,9A,01,C8,00,
39690115,00000101,false,Rx,0,8,00,FF,FE,00,00,00,00,00,
39690355,00000102,false,Rx,0,8,01,90,01,00,00,01,00,00,
39754282,00000108,false,Rx,0,8,01,58,02,7D,9A,01,00,00,
39754528,00000109,false,Rx,0,8,02,04,00,00,00,24,FF,FE,
39789858,00000100,false,Rx,0,8,00,00,00,00,9A,01,C8,00,
39790123,00000101,false,Rx,0,8,00,FF,FE,00,00,00,00,00,
39790350,00000102,false,Rx,0,8,01,90,01,00,00,01,00,00,
39853979,00000108,false,Rx,0,8,01,58,02,7D,9A,01,00,00,
39854214,00000109,false,Rx,0,8,02,F6,01,00,00,24,FF,FE,
39869581,00000527,false,Rx,0,6,06,0A,3D,A9,00,00,00,00,
39889855,00000100,false,Rx,0,8,00,00,00,00,9A,01,C8,00,
39890108,00000101,false,Rx,0,8,00,FF,FE,00,00,00,00,00,
39890348,00000102,false,Rx,0,8,01,90,01,00,00,01,00,00,
39963723,00000108,false,Rx,0,8,01,58,02,7D,9A,01,00,00,
39963963,00000109,false,Rx,0,8,02,F7,01,00,00,24,FF,FE,
39989855,00000100,false,Rx,0,8,00,00,00,00,9A,01,C8,00,
39990121,00000101,false,Rx,0,8,00,FF,FE,00,00,00,00,00,
39990348,00000102,false,Rx,0,8,01,90,01,00,00,01,00,00,
40064002,00000108,false,Rx,0,8,01,58,02,7D,9A,01,00,00,
40064237,00000109,false,Rx,0,8,02,F7,01,00,00,24,FF,FE,
40089849,00000100,false,Rx,0,8,00,00,00,00,9A,01,C8,00,
40090101,00000101,false,Rx,0,8,00,FF,FE,00,00,00,00,00,
40090355,00000102,false,Rx,0,8,01,90,01,00,00,01,00,00,
40161839,00000522,false,Rx,0,6,01,05,E2,74,05,00,00,00,
40164033,00000108,false,Rx,0,8,01,58,02,7D,9A,01,00,00,
40164271,00000109,false,Rx,0,8,02,F7,01,00,00,24,FF,FE,
40165862,00000521,false,Rx,0,6,00,00,F5,FF,FF,FF,00,00,
40189846,00000100,false,Rx,0,8,00,00,00,00,9A,01,C8,00,
40190108,00000101,false,Rx,0,8,00,FF,FE,00,00,00,00,00,
40190356,00000102,false,Rx,0,8,01,90,01,00,00,01,00,00,
40224343,00000523,false,Rx,0,6,02,06,EA,FF,FF,FF,00,00,
40242553,00000528,false,Rx,0,6,07,0B,46,10,00,00,00,00,
40250880,00000526,false,Rx,0,6,05,0D,02,00,00,00,00,00,
40254584,00000524,false,Rx,0,6,03,01,EA,FF,FF,FF,00,00,
40269924,00000108,false,Rx,0,8,01,58,02,7D,9A,01,00,00,
40270158,00000109,false,Rx,0,8,02,F7,01,00,00,24,FF,FE,
40289842,00000100,false,Rx,0,8,00,00,00,00,9A,01,C8,00,
40290096,00000101,false,Rx,0,8,00,FF,FE,00,00,00,00,00,
40290349,00000102,false,Rx,0,8,01,90,01,00,00,01,00,00,
40296940,00000525,false,Rx,0,6,04,04,8E,00,00,00,00,00,
40374300,00000108,false,Rx,0,8,01,58,02,7D,9A,01,00,00,
40374539,00000109,false,Rx,0,8,02,F7,01,00,00,24,FF,FE,
40389842,00000100,false,Rx,0,8,00,00,00,00,9A,01,C8,00,
40390107,00000101,false,Rx,0,8,00,FF,FE,00,00,00,00,00,
40390341,00000102,false,Rx,0,8,01,90,01,00,00,01,00,00,
40474055,00000108,false,Rx,0,8,01,58,02,7D,9A,01,00,00,
40474289,00000109,false,Rx,0,8,02,F7,01,00,00,24,FF,FE,
40489843,00000100,false,Rx,0,8,00,00,00,00,9A,01,C8,00,
40490096,00000101,false,Rx,0,8,00,FF,FE,00,00,00,00,00,
40490342,00000102,false,Rx,0,8,01,90,01,00,00,01,00,00,
40574184,00000108,false,Rx,0,8,01,58,02,7D,9A,01,00,00,
40574417,00000109,false,Rx,0,8,02,F7,01,00,00,24,FF,FE,
40589839,00000100,false,Rx,0,8,00,00,00,00,9A,01,C8,00,
40590103,00000101,false,Rx,0,8,00,FF,FE,00,00,00,00,00,
40590337,00000102,false,Rx,0,8,01,90,01,00,00,01,00,00,
40591337,00000527,false,Rx,0,6,06,0B,3D,A9,00,00,00,00,
40673823,00000108,false,Rx,0,8,01,58,02,7D,9A,01,00,00,
40674057,00000109,false,Rx,0,8,02,F7,01,00,00,24,FF,FE,
40689836,00000100,false,Rx,0,8,00,00,00,00,9A,01,C8,00,
40690096,00000101,false,Rx,0,8,00,FF,FE,00,00,00,00,00,
40690336,00000102,false,Rx,0,8,01,90,01,00,00,01,00,00,
40773728,00000108,false,Rx,0,8,01,58,02,7D,9A,01,00,00,
40773969,00000109,false,Rx,0,8,02,F7,01,00,00,24,FF,FE,
40779073,00000521,false,Rx,0,6,00,01,FA,FF,FF,FF,00,00,
40789836,00000100,false,Rx,0,8,00,00,00,00,9A,01,C8,00,
40790093,00000101,false,Rx,0,8,00,FF,FE,00,00,00,00,00,
40790332,00000102,false,Rx,0,8,01,90,01,00,00,01,00,00,
40792875,00000522,false,Rx,0,6,01,06,E2,74,05,00,00,00,
40873524,00000523,false,Rx,0,6,02,07,EA,FF,FF,FF,00,00,
40873999,00000108,false,Rx,0,8,01,58,02,7D,9A,01,00,00,
40874240,00000109,false,Rx,0,8,02,F7,01,00,00,24,FF,FE,
40889837,00000100,false,Rx,0,8,00,00,00,00,9A,01,C8,00,
40890091,00000101,false,Rx,0,8,00,FF,FE,00,00,00,00,00,
40890330,00000102,false,Rx,0,8,01,90,01,00,00,01,00,00,
40921924,00000524,false,Rx,0,6,03,02,E5,FF,FF,FF,00,00,
40954466,00000526,false,Rx,0,6,05,0E,FE,FF,FF,FF,00,00,
40982627,00000525,false,Rx,0,6,04,05,8E,00,00,00,00,00,
40982848,00000528,false,Rx,0,6,07,0C,46,10,00,00,00,00,
40984547,00000108,false,Rx,0,8,01,58,02,7D,9A,01,00,00,
40984787,00000109,false,Rx,0,8,02,F7,01,00,00,24,FF,FE,
40989830,00000100,false,Rx,0,8,00,00,00,00,9A,01,C8,00,
40990109,00000101,false,Rx,0,8,00,FF,FE,00,00,00,00,00,
40990331,00000102,false,Rx,0,8,01,90,01,00,00,01,00,00,
41089832,00000100,false,Rx,0,8,00,00,00,00,9A,01,C8,00,
41090088,00000101,false,Rx,0,8,00,FF,FE,00,00,00,00,00,
41090328,00000102,false,Rx,0,8,01,90,01,00,00,01,00,00,
41093756,00000108,false,Rx,0,8,01,58,02,7D,9A,01,00,00,
41093990,00000109,false,Rx,0,8,02,F7,01,00,00,24,FF,FE,
41189824,00000100,false,Rx,0,8,00,00,00,00,9A,01,C8,00,
41190095,00000101,false,Rx,0,8,00,FF,FE,00,00,00,00,00,
41190322,00000102,false,Rx,0,8,01,90,01,00,00,01,00,00,
41193760,00000108,false,Rx,0,8,01,58,02,7D,9A,01,00,00,
41194000,00000109,false,Rx,0,8,02,F7,01,00,00,24,FF,FE,
41289824,00000100,false,Rx,0,8,00,00,00,00,9A,01,C8,00,
41290071,00000101,false,Rx,0,8,00,FF,FE,00,00,00,00,00,
41290325,00000102,false,Rx,0,8,01,90,01,00,00,01,00,00,
41293807,00000108,false,Rx,0,8,01,58,02,7D,9A,01,00,00,
41294043,00000109,false,Rx,0,8,02,F7,01,00,00,24,FF,FE,
41313097,00000527,false,Rx,0,6,06,0C,3D,A9,00,00,00,00,
41389824,00000100,false,Rx,0,8,00,00,00,00,9A,01,C8,00,
41390089,00000101,false,Rx,0,8,00,FF,FE,00,00,00,00,00,
41390323,00000102,false,Rx,0,8,01,90,01,00,00,01,00,00,
41391651,00000521,false,Rx,0,6,00,02,F6,FF,FF,FF,00,00,
41395418,00000108,false,Rx,0,8,01,58,02,7D,9A,01,00,00,
41395651,00000109,false,Rx,0,8,02,F7,01,00,00,24,FF,FE,
41423906,00000522,false,Rx,0,6,01,07,E6,74,05,00,00,00,
41489822,00000100,false,Rx,0,8,00,00,00,00,9A,01,C8,00,
41490068,00000101,false,Rx,0,8,00,FF,FE,00,00,00,00,00,
41490316,00000102,false,Rx,0,8,01,90,01,00,00,01,00,00,
41493812,00000108,false,Rx,0,8,01,58,02,7D,9A,01,00,00,
41494046,00000109,false,Rx,0,8,02,F7,01,00,00,24,FF,FE,
41522743,00000523,false,Rx,0,6,02,08,FA,FF,FF,FF,00,00,
41589257,00000524,false,Rx,0,6,03,03,DE,FF,FF,FF,00,00,
41589818,00000100,false,Rx,0,8,00,00,00,00,9A,01,C8,00,
41590075,00000101,false,Rx,0,8,00,FF,FE,00,00,00,00,00,
41590316,00000102,false,Rx,0,8,01,90,01,00,00,01,00,00,
41594016,00000108,false,Rx,0,8,01,58,02,7D,9A,01,00,00,
41594258,00000109,false,Rx,0,8,02,F8,01,00,00,24,FF,FE,
41658116,00000526,false,Rx,0,6,05,0F,03,00,00,00,00,00,
41667896,00000525,false,Rx,0,6,04,06,8E,00,00,00,00,00,
41689815,00000100,false,Rx,0,8,00,00,00,00,9A,01,C8,00,
41690068,00000101,false,Rx,0,8,00,FF,FE,00,00,00,00,00,
41690317,00000102,false,Rx,0,8,01,90,01,00,00,01,00,00,
41694246,00000108,false,Rx,0,8,01,58,02,7D,9A,01,00,00,
41694486,00000109,false,Rx,0,8,02,F8,01,00,00,24,FF,FE,
41722374,00000528,false,Rx,0,6,07,0D,46,10,00,00,00,00,
41789817,00000100,false,Rx,0,8,00,00,00,00,9A,01,C8,00,
41790075,00000101,false,Rx,0,8,00,FF,FE,00,00,00,00,00,
41790313,00000102,false,Rx,0,8,01,90,01,00,00,01,00,00,
41796484,00000108,false,Rx,0,8,01,58,02,7D,9A,01,00,00,
41796724,00000109,false,Rx,0,8,02,F8,01,00,00,24,FF,FE,
41889812,00000100,false,Rx,0,8,00,00,00,00,9A,01,C8,00,
41890058,00000101,false,Rx,0,8,00,FF,FE,00,00,00,00,00,
41890310,00000102,false,Rx,0,8,01,90,01,00,00,01,00,00,
41895528,00000108,false,Rx,0,8,01,58,02,7D,9A,01,00,00,
41895774,00000109,false,Rx,0,8,02,F8,01,00,00,24,FF,FE,
41989812,00000100,false,Rx,0,8,00,00,00,00,9A,01,C8,00,
41990070,00000101,false,Rx,0,8,00,FF,FE,00,00,00,00,00,
41990308,00000102,false,Rx,0,8,01,90,01,00,00,01,00,00,
41995375,00000108,false,Rx,0,8,01,58,02,7D,9A,01,00,00,
41995614,00000109,false,Rx,0,8,02,F8,01,00,00,24,FF,FE,
42004603,00000521,false,Rx,0,6,00,03,F8,FF,FF,FF,00,00,
42034869,00000527,false,Rx,0,6,06,0D,3D,A9,00,00,00,00,
42054954,00000522,false,Rx,0,6,01,08,EB,74,05,00,00,00,
42089809,00000100,false,Rx,0,8,00,00,00,00,9A,01,C8,00,
42090055,00000101,false,Rx,0,8,00,FF,FE,00,00,00,00,00,
42090325,00000102,false,Rx,0,8,01,90,01,00,00,01,00,00,
42095545,00000108,false,Rx,0,8,01,58,02,7D,9A,01,00,00,
42095785,00000109,false,Rx,0,8,02,F8,01,00,00,24,FF,FE,
42171907,00000523,false,Rx,0,6,02,09,F2,FF,FF,FF,00,00,
42189806,00000100,false,Rx,0,8,00,00,00,00,9A,01,C8,00,
42190068,00000101,false,Rx,0,8,00,FF,FE,00,00,00,00,00,
42190301,00000102,false,Rx,0,8,01,90,01,00,00,01,00,00,
42193856,00000108,false,Rx,0,8,01,58,02,7D,9A,01,00,00,
42194110,00000109,false,Rx,0,8,02,F8,01,00,00,24,FF,FE,
42256587,00000524,false,Rx,0,6,03,04,EE,FF,FF,FF,00,00,
42289802,00000100,false,Rx,0,8,00,00,00,00,9A,01,C8,00,
42290054,00000101,false,Rx,0,8,00,FF,FE,00,00,00,00,00,
42290300,00000102,false,Rx,0,8,01,90,01,00,00,01,00,00,
42295386,00000108,false,Rx,0,8,01,58,02,7D,9A,01,00,00,
42295624,00000109,false,Rx,0,8,02,F8,01,00,00,24,FF,FE,
42353387,00000525,false,Rx,0,6,04,07,8E,00,00,00,00,00,
42361572,00000526,false,Rx,0,6,05,00,04,00,00,00,00,00,
42389804,00000100,false,Rx,0,8,00,00,00,00,9A,01,C8,00,
42390062,00000101,false,Rx,0,8,00,FF,FE,00,00,00,00,00,
42390297,00000102,false,Rx,0,8,01,90,01,00,00,01,00,00,
42396450,00000108,false,Rx,0,8,01,58,02,7D,9A,01,00,00,
42396696,00000109,false,Rx,0,8,02,F8,01,00,00,24,FF,FE,
42462303,00000528,false,Rx,0,6,07,0E,46,10,00,00,00,00,
42489800,00000100,false,Rx,0,8,00,00,00,00,9A,01,C8,00,
42490046,00000101,false,Rx,0,8,00,FF,FE,00,00,00,00,00,
42490293,00000102,false,Rx,0,8,01,90,01,00,00,01,00,00,
42493907,00000108,false,Rx,0,8,01,58,02,7D,9A,01,00,00,
42494143,00000109,false,Rx,0,8,02,F8,01,00,00,24,FF,FE,
42589796,00000100,false,Rx,0,8,00,00,00,00,9A,01,C8,00,
42590053,00000101,false,Rx,0,8,00,FF,FE,00,00,00,00,00,
42590295,00000102,false,Rx,0,8,01,90,01,00,00,01,00,00,
42593931,00000108,false,Rx,0,8,01,58,02,7D,9A,01,00,00,
42594173,00000109,false,Rx,0,8,02,F8,01,00,00,24,FF,FE,
42617465,00000521,false,Rx,0,6,00,04,F5,FF,FF,FF,00,00,
42686015,00000522,false,Rx,0,6,01,09,E3,74,05,00,00,00,
42689794,00000100,false,Rx,0,8,00,00,00,00,9A,01,C8,00,
42690041,00000101,false,Rx,0,8,00,FF,FE,00,00,00,00,00,
42690295,00000102,false,Rx,0,8,01,90,01,00,00,01,00,00,
42691721,00000108,false,Rx,0,8,01,58,02,7D,9A,01,00,00,
42691968,00000109,false,Rx,0,8,02,F8,01,00,00,24,FF,FE,
42756662,00000527,false,Rx,0,6,06,0E,3D,A9,00,00,00,00,
42784305,00000108,false,Rx,0,8,01,58,02,7D,9A,01,00,00,
42784545,00000109,false,Rx,0,8,02,F8,01,00,00,24,FF,FE,
42789793,00000100,false,Rx,0,8,00,00,00,00,9A,01,C8,00,
42790049,00000101,false,Rx,0,8,00,FF,FE,00,00,00,00,00,
42790291,00000102,false,Rx,0,8,01,90,01,00,00,01,00,00,
42821118,00000523,false,Rx,0,6,02,0A,F2,FF,FF,FF,00,00,
42889792,00000100,false,Rx,0,8,00,00,00,00,9A,01,C8,00,
42890038,00000101,false,Rx,0,8,00,FF,FE,00,00,00,00,00,
42890286,00000102,false,Rx,0,8,01,90,01,00,00,01,00,00,
42893960,00000108,false,Rx,0,8,01,58,02,7D,9A,01,00,00,
42894202,00000109,false,Rx,0,8,02,F8,01,00,00,24,FF,FE,
42923946,00000524,false,Rx,0,6,03,05,F6,FF,FF,FF,00,00,
42989789,00000100,false,Rx,0,8,00,00,00,00,9A,01,C8,00,
42990046,00000101,false,Rx,0,8,00,FF,FE,00,00,00,00,00,
42990287,00000102,false,Rx,0,8,01,90,01,00,00,01,00,00,
42994469,00000108,false,Rx,0,8,01,58,02,7D,9A,01,00,00,
42994708,00000109,false,Rx,0,8,02,F8,01,00,00,24,FF,FE,
43038893,00000525,false,Rx,0,6,04,08,8E,00,00,00,00,00,
43065409,00000526,false,Rx,0,6,05,01,05,00,00,00,00,00,
43089786,00000100,false,Rx,0,8,00,00,00,00,9A,01,C8,00,
43090039,00000101,false,Rx,0,8,00,FF,FE,00,00,00,00,00,
43090287,00000102,false,Rx,0,8,01,90,01,00,00,01,00,00,
43094057,00000108,false,Rx,0,8,01,58,02,7D,9A,01,00,00,
43094299,00000109,false,Rx,0,8,02,F8,01,00,00,24,FF,FE,
43189787,00000100,false,Rx,0,8,00,00,00,00,9A,01,C8,00,
43190043,00000101,false,Rx,0,8,00,FF,FE,00,00,00,00,00,
43190285,00000102,false,Rx,0,8,01,90,01,00,00,01,00,00,
43194245,00000108,false,Rx,0,8,01,58,02,7D,9A,01,00,00,
43194491,00000109,false,Rx,0,8,02,F8,01,00,00,24,FF,FE,
43202244,00000528,false,Rx,0,6,07,0F,46,10,00,00,00,00,
43230397,00000521,false,Rx,0,6,00,05,F9,FF,FF,FF,00,00,
43289780,00000100,false,Rx,0,8,00,00,00,00,9A,01,C8,00,
43290033,00000101,false,Rx,0,8,00,FF,FE,00,00,00,00,00,
43290281,00000102,false,Rx,0,8,01,90,01,00,00,01,00,00,
43297461,00000108,false,Rx,0,8,01,58,02,7D,9A,01,00,00,
43297701,00000109,false,Rx,0,8,02,F8,01,00,00,24,FF,FE,
43317089,00000522,false,Rx,0,6,01,0A,F0,74,05,00,00,00,
43389783,00000100,false,Rx,0,8,00,00,00,00,9A,01,C8,00,
43390041,00000101,false,Rx,0,8,00,FF,FE,00,00,00,00,00,
43390276,00000102,false,Rx,0,8,01,90,01,00,00,01,00,00,
43395361,00000108,false,Rx,0,8,01,58,02,7D,9A,01,00,00,
43395600,00000109,false,Rx,0,8,02,F8,01,00,00,24,FF,FE,
43470344,00000523,false,Rx,0,6,02,0B,EB,FF,FF,FF,00,00,
43478447,00000527,false,Rx,0,6,06,0F,3D,A9,00,00,00,00,
43489776,00000100,false,Rx,0,8,00,00,00,00,9A,01,C8,00,
43490029,00000101,false,Rx,0,8,00,FF,FE,00,00,00,00,00,
43490276,00000102,false,Rx,0,8,01,90,01,00,00,01,00,00,
43495407,00000108,false,Rx,0,8,01,58,02,7D,9A,01,00,00,
43495653,00000109,false,Rx,0,8,02,F8,01,00,00,24,FF,FE,
43589780,00000100,false,Rx,0,8,00,00,00,00,9A,01,C8,00,
43590037,00000101,false,Rx,0,8,00,FF,FE,00,00,00,00,00,
43590278,00000102,false,Rx,0,8,01,90,01,00,00,01,00,00,
43591321,00000524,false,Rx,0,6,03,06,EE,FF,FF,FF,00,00,
43595521,00000108,false,Rx,0,8,01,58,02,7D,9A,01,00,00,
43595767,00000109,false,Rx,0,8,02,F8,01,00,00,24,FF,FE,
43689774,00000100,false,Rx,0,8,00,00,00,00,9A,01,C8,00,
43690020,00000101,false,Rx,0,8,00,FF,FE,00,00,00,00,00,
43690274,00000102,false,Rx,0,8,01,90,01,00,00,01,00,00,
43693928,00000108,false,Rx,0,8,01,58,02,7D,9A,01,00,00,
43694169,00000109,false,Rx,0,8,02,F8,01,00,00,26,00,00,
43724379,00000525,false,Rx,0,6,04,09,8E,00,00,00,00,00,
43769063,00000526,false,Rx,0,6,05,02,0B,00,00,00,00,00,
43789772,00000100,false,Rx,0,8,00,00,00,00,9A,01,C8,00,
43790036,00000101,false,Rx,0,8,00,FF,FE,00,00,00,00,00,
43790270,00000102,false,Rx,0,8,01,90,01,00,00,01,00,00,
43795437,00000108,false,Rx,0,8,01,58,02,7D,9A,01,00,00,
43795683,00000109,false,Rx,0,8,02,F8,01,00,00,26,00,00,
43843310,00000521,false,Rx,0,6,00,06,F5,FF,FF,FF,00,00,
43889769,00000100,false,Rx,0,8,00,00,00,00,9A,01,C8,00,
43890021,00000101,false,Rx,0,8,00,FF,FE,00,00,00,00,00,
43890268,00000102,false,Rx,0,8,01,90,01,00,00,01,00,00,
43893931,00000108,false,Rx,0,8,01,58,02,7D,9A,01,00,00,
43894179,00000109,false,Rx,0,8,02,F8,01,00,00,26,00,00,
43942423,00000528,false,Rx,0,6,07,00,46,10,00,00,00,00,
43948149,00000522,false,Rx,0,6,01,0B,E6,74,05,00,00,00,
43989764,00000100,false,Rx,0,8,00,00,00,00,9A,01,C8,00,
43990028,00000101,false,Rx,0,8,00,FF,FE,00,00,00,00,00,
43990263,00000102,false,Rx,0,8,01,90,01,00,00,01,00,00,
43993824,00000108,false,Rx,0,8,01,58,02,7D,9A,01,00,00,
43994064,00000109,false,Rx,0,8,02,02,00,00,00,26,00,00,
44089769,00000100,false,Rx,0,8,00,00,00,00,9A,01,C8,00,
44090015,00000101,false,Rx,0,8,00,FF,FE,00,00,00,00,00,
44090262,00000102,false,Rx,0,8,01,90,01,00,00,01,00,00,
44093812,00000108,false,Rx,0,8,01,58,02,7D,9A,01,00,00,
44094058,00000109,false,Rx,0,8,02,02,00,00,00,22,00,00,
44119534,00000523,false,Rx,0,6,02,0C,EF,FF,FF,FF,00,00,
44189765,00000100,false,Rx,0,8,00,00,00,00,9A,01,C8,00,
44190021,00000101,false,Rx,0,8,00,FF,FE,00,00,00,00,00,
44190263,00000102,false,Rx,0,8,01,90,01,00,00,01,00,00,
44195309,00000108,false,Rx,0,8,01,58,02,7D,9A,01,00,00,
44195548,00000109,false,Rx,0,8,02,02,00,00,00,22,00,00,
44200238,00000527,false,Rx,0,6,06,00,3D,A9,00,00,00,00,
44258650,00000524,false,Rx,0,6,03,07,E8,FF,FF,FF,00,00,
44289762,00000100,false,Rx,0,8,00,00,00,00,9A,01,C8,00,
44290015,00000101,false,Rx,0,8,00,FF,FE,00,00,00,00,00,
44290263,00000102,false,Rx,0,8,01,90,01,00,00,01,00,00,
44295382,00000108,false,Rx,0,8,01,58,02,7D,9A,01,00,00,
44295628,00000109,false,Rx,0,8,02,02,00,00,00,22,00,00,
44389756,00000100,false,Rx,0,8,00,00,00,00,9A,01,C8,00,
44390020,00000101,false,Rx,0,8,00,FF,FE,00,00,00,00,00,
44390254,00000102,false,Rx,0,8,01,90,01,00,00,01,00,00,
44395509,00000108,false,Rx,0,8,01,58,02,7D,9A,01,00,00,
44395754,00000109,false,Rx,0,8,02,02,00,00,00,22,00,00,
44409866,00000525,false,Rx,0,6,04,0A,8E,00,00,00,00,00,
44456522,00000521,false,Rx,0,6,00,07,F8,FF,FF,FF,00,00,
44472682,00000526,false,Rx,0,6,05,03,02,00,00,00,00,00,
44489755,00000100,false,Rx,0,8,00,00,00,00,9A,01,C8,00,
44490008,00000101,false,Rx,0,8,00,FF,FE,00,00,00,00,00,
44490256,00000102,false,Rx,0,8,01,90,01,00,00,01,00,00,
44493984,00000108,false,Rx,0,8,01,58,02,7D,9A,01,00,00,
44494232,00000109,false,Rx,0,8,02,02,00,00,00,22,00,00,
44579191,00000522,false,Rx,0,6,01,0C,EC,74,05,00,00,00,
44589756,00000100,false,Rx,0,8,00,00,00,00,9A,01,C8,00,
44590019,00000101,false,Rx,0,8,00,FF,FE,00,00,00,00,00,
44590254,00000102,false,Rx,0,8,01,90,01,00,00,01,00,00,
44595326,00000108,false,Rx,0,8,01,58,02,7D,9A,01,00,00,
44595566,00000109,false,Rx,0,8,02,02,00,00,00,22,00,00,
44682093,00000528,false,Rx,0,6,07,01,46,10,00,00,00,00,
44689760,00000100,false,Rx,0,8,00,00,00,00,9A,01,C8,00,
44690001,00000101,false,Rx,0,8,00,FF,FE,00,00,00,00,00,
44690248,00000102,false,Rx,0,8,01,90,01,00,00,01,00,00,
44690703,00000108,false,Rx,0,8,01,58,02,7D,9A,01,00,00,
44690950,00000109,false,Rx,0,8,02,02,00,00,00,22,00,00,
44768723,00000523,false,Rx,0,6,02,0D,EF,FF,FF,FF,00,00,
44789752,00000100,false,Rx,0,8,00,00,00,00,9A,01,C8,00,
44790009,00000101,false,Rx,0,8,00,FF,FE,00,00,00,00,00,
44790251,00000102,false,Rx,0,8,01,90,01,00,00,01,00,00,
44793923,00000108,false,Rx,0,8,01,58,02,7D,9A,01,00,00,
44794163,00000109,false,Rx,0,8,02,02,00,00,00,22,00,00,
44889751,00000100,false,Rx,0,8,00,00,00,00,9A,01,C8,00,
44889997,00000101,false,Rx,0,8,00,FF,FE,00,00,00,00,00,
44890245,00000102,false,Rx,0,8,01,90,01,00,00,01,00,00,
44893870,00000108,false,Rx,0,8,01,58,02,7D,9A,01,00,00,
44894111,00000109,false,Rx,0,8,02,02,00,00,00,22,00,00,
44922247,00000527,false,Rx,0,6,06,01,3D,A9,00,00,00,00,
44925983,00000524,false,Rx,0,6,03,08,FA,FF,FF,FF,00,00,
44989749,00000100,false,Rx,0,8,00,00,00,00,9A,01,C8,00,
44990007,00000101,false,Rx,0,8,00,FF,FE,00,00,00,00,00,
44990241,00000102,false,Rx,0,8,01,90,01,00,00,01,00,00,
44994008,00000108,false,Rx,0,8,01,58,02,7D,9A,01,00,00,
44994257,00000109,false,Rx,0,8,02,02,00,00,00,22,00,00,
45069124,00000521,false,Rx,0,6,00,08,FA,FF,FF,FF,00,00,
45089742,00000100,false,Rx,0,8,00,00,00,00,9A,01,C8,00,
45089992,00000101,false,Rx,0,8,00,FF,FE,00,00,00,00,00,
45090239,00000102,false,Rx,0,8,01,90,01,00,00,01,00,00,
45095352,00000525,false,Rx,0,6,04,0B,8E,00,00,00,00,00,
45095592,00000108,false,Rx,0,8,01,58,02,7D,9A,01,00,00,
45095838,00000109,false,Rx,0,8,02,02,00,00,00,22,00,00,
45176278,00000526,false,Rx,0,6,05,04,06,00,00,00,00,00,
45189742,00000100,false,Rx,0,8,00,00,00,00,9A,01,C8,00,
45190002,00000101,false,Rx,0,8,00,FF,FE,00,00,00,00,00,
45190243,00000102,false,Rx,0,8,01,90,01,00,00,01,00,00,
45195502,00000108,false,Rx,0,8,01,58,02,7D,9A,01,00,00,
45195748,00000109,false,Rx,0,8,02,02,00,00,00,22,00,00,
45210281,00000522,false,Rx,0,6,01,0D,EF,74,05,00,00,00,
45289743,00000100,false,Rx,0,8,00,00,00,00,9A,01,C8,00,
45289989,00000101,false,Rx,0,8,00,FF,FE,00,00,00,00,00,
45290237,00000102,false,Rx,0,8,01,90,01,00,00,01,00,00,
45293886,00000108,false,Rx,0,8,01,58,02,7D,9A,01,00,00,
45294133,00000109,false,Rx,0,8,02,02,00,00,00,22,00,00,
45389736,00000100,false,Rx,0,8,00,00,00,00,9A,01,C8,00,
45390011,00000101,false,Rx,0,8,00,FF,FE,00,00,00,00,00,
45390235,00000102,false,Rx,0,8,01,90,01,00,00,01,00,00,
45393916,00000108,false,Rx,0,8,01,58,02,7D,9A,01,00,00,
45394164,00000109,false,Rx,0,8,02,02,00,00,00,22,00,00,
45417934,00000523,false,Rx,0,6,02,0E,F5,FF,FF,FF,00,00,
45422022,00000528,false,Rx,0,6,07,02,46,10,00,00,00,00,
45489737,00000100,false,Rx,0,8,00,00,00,00,9A,01,C8,00,
45489990,00000101,false,Rx,0,8,00,FF,FE,00,00,00,00,00,
45490235,00000102,false,Rx,0,8,01,90,01,00,00,01,00,00,
45493817,00000108,false,Rx,0,8,01,58,02,7D,9A,01,00,00,
45494064,00000109,false,Rx,0,8,02,02,00,00,00,22,00,00,
45589732,00000100,false,Rx,0,8,00,00,00,00,9A,01,C8,00,
45589995,00000101,false,Rx,0,8,00,FF,FE,00,00,00,00,00,
45590233,00000102,false,Rx,0,8,01,90,01,00,00,01,00,00,
45593332,00000524,false,Rx,0,6,03,09,ED,FF,FF,FF,00,00,
45593794,00000108,false,Rx,0,8,01,58,02,7D,9A,01,00,00,
45594041,00000109,false,Rx,0,8,02,02,00,00,00,22,00,00,
45643795,00000527,false,Rx,0,6,06,02,3D,A9,00,00,00,00,
45682029,00000521,false,Rx,0,6,00,09,FB,FF,FF,FF,00,00,
45687521,00000108,false,Rx,0,8,01,58,02,7D,9A,01,00,00,
45687760,00000109,false,Rx,0,8,02,02,00,00,00,22,00,00,
45689730,00000100,false,Rx,0,8,00,00,00,00,9A,01,C8,00,
45689983,00000101,false,Rx,0,8,00,FF,FE,00,00,00,00,00,
45690232,00000102,false,Rx,0,8,01,90,01,00,00,01,00,00,
45780853,00000525,false,Rx,0,6,04,0C,8E,00,00,00,00,00,
45785380,00000108,false,Rx,0,8,01,58,02,7D,9A,01,00,00,
45785626,00000109,false,Rx,0,8,02,02,00,00,00,22,00,00,
45789732,00000100,false,Rx,0,8,00,00,00,00,9A,01,C8,00,
45789988,00000101,false,Rx,0,8,00,FF,FE,00,00,00,00,00,
45790227,00000102,false,Rx,0,8,01,90,01,00,00,01,00,00,
45841306,00000522,false,Rx,0,6,01,0E,FE,74,05,00,00,00,
45879942,00000526,false,Rx,0,6,05,05,05,00,00,00,00,00,
45885392,00000108,false,Rx,0,8,01,58,02,7D,9A,01,00,00,
45885631,00000109,false,Rx,0,8,02,02,00,00,00,22,00,00,
45889731,00000100,false,Rx,0,8,00,00,00,00,9A,01,C8,00,
45889977,00000101,false,Rx,0,8,00,FF,FE,00,00,00,00,00,
45890225,00000102,false,Rx,0,8,01,90,01,00,00,01,00,00,
45983760,00000108,false,Rx,0,8,01,58,02,7D,9A,01,00,00,
45984007,00000109,false,Rx,0,8,02,02,00,00,00,22,00,00,
45989726,00000100,false,Rx,0,8,00,00,00,00,9A,01,C8,00,
45989983,00000101,false,Rx,0,8,00,FF,FE,00,00,00,00,00,
45990225,00000102,false,Rx,0,8,01,90,01,00,00,01,00,00,
46067110,00000523,false,Rx,0,6,02,0F,E9,FF,FF,FF,00,00,
46089726,00000100,false,Rx,0,8,00,00,00,00,9A,01,C8,00,
46089972,00000101,false,Rx,0,8,00,FF,FE,00,00,00,00,00,
46090226,00000102,false,Rx,0,8,01,90,01,00,00,01,00,00,
46093776,00000108,false,Rx,0,8,01,58,02,7D,9A,01,00,00,
46094016,00000109,false,Rx,0,8,02,02,00,00,00,22,00,00,
46161946,00000528,false,Rx,0,6,07,03,46,10,00,00,00,00,
46189721,00000100,false,Rx,0,8,00,00,00,00,9A,01,C8,00,
46189984,00000101,false,Rx,0,8,00,FF,FE,00,00,00,00,00,
46190220,00000102,false,Rx,0,8,01,90,01,00,00,01,00,00,
46195214,00000108,false,Rx,0,8,01,58,02,7D,9A,01,00,00,
46195454,00000109,false,Rx,0,8,02,02,00,00,00,22,00,00,
46260656,00000524,false,Rx,0,6,03,0A,E9,FF,FF,FF,00,00,
46289718,00000100,false,Rx,0,8,00,00,00,00,9A,01,C8,00,
46289971,00000101,false,Rx,0,8,00,FF,FE,00,00,00,00,00,
46290219,00000102,false,Rx,0,8,01,90,01,00,00,01,00,00,
46293831,00000108,false,Rx,0,8,01,58,02,7D,9A,01,00,00,
46294086,00000109,false,Rx,0,8,02,02,00,00,00,22,00,00,
46294918,00000521,false,Rx,0,6,00,0A,F9,FF,FF,FF,00,00,
46365555,00000527,false,Rx,0,6,06,03,3D,A9,00,00,00,00,
46389715,00000100,false,Rx,0,8,00,00,00,00,9A,01,C8,00,
46389979,00000101,false,Rx,0,8,00,FF,FE,00,00,00,00,00,
46390213,00000102,false,Rx,0,8,01,90,01,00,00,01,00,00,
46393793,00000108,false,Rx,0,8,01,58,02,7D,9A,01,00,00,
46394039,00000109,false,Rx,0,8,02,02,00,00,00,22,00,00,
46466313,00000525,false,Rx,0,6,04,0D,8E,00,00,00,00,00,
46472330,00000522,false,Rx,0,6,01,0F,E4,74,05,00,00,00,
46489713,00000100,false,Rx,0,8,00,00,00,00,9A,01,C8,00,
46489966,00000101,false,Rx,0,8,00,FF,FE,00,00,00,00,00,
46490214,00000102,false,Rx,0,8,01,90,01,00,00,01,00,00,
46493883,00000108,false,Rx,0,8,01,58,02,7D,9A,01,00,00,
46494130,00000109,false,Rx,0,8,02,02,00,00,00,22,00,00,
46583370,00000526,false,Rx,0,6,05,06,02,00,00,00,00,00,
46589714,00000100,false,Rx,0,8,00,00,00,00,9A,01,C8,00,
46589971,00000101,false,Rx,0,8,00,FF,FE,00,00,00,00,00,
46590213,00000102,false,Rx,0,8,01,90,01,00,00,01,00,00,
46590865,00000108,false,Rx,0,8,01,58,02,7D,9A,01,00,00,
46591113,00000109,false,Rx,0,8,02,02,00,00,00,22,00,00,
46683934,00000108,false,Rx,0,8,01,58,02,7D,9A,01,00,00,
46684174,00000109,false,Rx,0,8,02,02,00,00,00,22,00,00,
46689712,00000100,false,Rx,0,8,00,00,00,00,9A,01,C8,00,
46689965,00000101,false,Rx,0,8,00,FF,FE,00,00,00,00,00,
46690213,00000102,false,Rx,0,8,01,90,01,00,00,01,00,00,
46716280,00000523,false,Rx,0,6,02,00,E9,FF,FF,FF,00,00,
46789706,00000100,false,Rx,0,8,00,00,00,00,9A,01,C8,00,
46789970,00000101,false,Rx,0,8,00,FF,FE,00,00,00,00,00,
46790204,00000102,false,Rx,0,8,01,90,01,00,00,01,00,00,
46792958,00000108,false,Rx,0,8,01,58,02,7D,9A,01,00,00,
46793421,00000109,false,Rx,0,8,02,02,00,00,00,22,00,00,
46889706,00000100,false,Rx,0,8,00,00,00,00,9A,01,C8,00,
46889959,00000101,false,Rx,0,8,00,FF,FE,00,00,00,00,00,
46890206,00000102,false,Rx,0,8,01,90,01,00,00,01,00,00,
46900392,00000108,false,Rx,0,8,01,58,02,7D,9A,01,00,00,
46900631,00000109,false,Rx,0,8,02,02,00,00,00,22,00,00,
46901834,00000528,false,Rx,0,6,07,04,46,10,00,00,00,00,
46907808,00000521,false,Rx,0,6,00,0B,F9,FF,FF,FF,00,00,
46927980,00000524,false,Rx,0,6,03,0B,F0,FF,FF,FF,00,00,
46989703,00000100,false,Rx,0,8,00,00,00,00,9A,01,C8,00,
46989968,00000101,false,Rx,0,8,00,FF,FE,00,00,00,00,00,
46990202,00000102,false,Rx,0,8,01,90,01,00,00,01,00,00,
46993883,00000108,false,Rx,0,8,01,58,02,7D,9A,01,00,00,
46994124,00000109,false,Rx,0,8,02,02,00,00,00,22,00,00,
47087547,00000527,false,Rx,0,6,06,04,3D,A9,00,00,00,00,
47089702,00000100,false,Rx,0,8,00,00,00,00,9A,01,C8,00,
47089950,00000101,false,Rx,0,8,00,FF,FE,00,00,00,00,00,
47090204,00000102,false,Rx,0,8,01,90,01,00,00,01,00,00,
47093200,00000108,false,Rx,0,8,01,58,02,7D,9A,01,00,00,
47093439,00000109,false,Rx,0,8,02,02,00,00,00,22,00,00,
47103355,00000522,false,Rx,0,6,01,00,EA,74,05,00,00,00,
47151778,00000525,false,Rx,0,6,04,0E,8E,00,00,00,00,00,
47189700,00000100,false,Rx,0,8,00,00,00,00,9A,01,C8,00,
47189965,00000101,false,Rx,0,8,00,FF,FE,00,00,00,00,00,
47190202,00000102,false,Rx,0,8,01,90,01,00,00,01,00,00,
47195266,00000108,false,Rx,0,8,01,58,02,7D,9A,01,00,00,
47195505,00000109,false,Rx,0,8,02,02,00,00,00,22,00,00,
47287173,00000526,false,Rx,0,6,05,07,02,00,00,00,00,00,
47289699,00000100,false,Rx,0,8,00,00,00,00,9A,01,C8,00,
47289952,00000101,false,Rx,0,8,00,FF,FE,00,00,00,00,00,
47290199,00000102,false,Rx,0,8,01,90,01,00,00,01,00,00,
47292860,00000108,false,Rx,0,8,01,58,02,7D,9A,01,00,00,
47293107,00000109,false,Rx,0,8,02,02,00,00,00,22,00,00,
47365457,00000523,false,Rx,0,6,02,01,F7,FF,FF,FF,00,00,
47389700,00000100,false,Rx,0,8,00,00,00,00,9A,01,C8,00,
47389957,00000101,false,Rx,0,8,00,FF,FE,00,00,00,00,00,
47390198,00000102,false,Rx,0,8,01,90,01,00,00,01,00,00,
47393983,00000108,false,Rx,0,8,01,58,02,7D,9A,01,00,00,
47394231,00000109,false,Rx,0,8,02,02,00,00,00,22,00,00,
47489697,00000100,false,Rx,0,8,00,00,00,00,9A,01,C8,00,
47489943,00000101,false,Rx,0,8,00,FF,FE,00,00,00,00,00,
47490193,00000102,false,Rx,0,8,01,90,01,00,00,01,00,00,
47494645,00000108,false,Rx,0,8,01,58,02,7D,9A,01,00,00,
47494893,00000109,false,Rx,0,8,02,02,00,00,00,22,00,00,
47520687,00000521,false,Rx,0,6,00,0C,FC,FF,FF,FF,00,00,
47589695,00000100,false,Rx,0,8,00,00,00,00,9A,01,C8,00,
47589951,00000101,false,Rx,0,8,00,FF,FE,00,00,00,00,00,
47590190,00000102,false,Rx,0,8,01,90,01,00,00,01,00,00,
47595304,00000524,false,Rx,0,6,03,0C,F1,FF,FF,FF,00,00,
47595544,00000108,false,Rx,0,8,01,58,02,7D,9A,01,00,00,
47595790,00000109,false,Rx,0,8,02,02,00,00,00,22,00,00,
47641739,00000528,false,Rx,0,6,07,05,46,10,00,00,00,00,
47689695,00000100,false,Rx,0,8,00,00,00,00,9A,01,C8,00,
47689942,00000101,false,Rx,0,8,00,FF,FE,00,00,00,00,00,
47690194,00000102,false,Rx,0,8,01,90,01,00,00,01,00,00,
47695229,00000108,false,Rx,0,8,01,58,02,7D,9A,01,00,00,
47695475,00000109,false,Rx,0,8,02,02,00,00,00,22,00,00,
47734387,00000522,false,Rx,0,6,01,01,F3,74,05,00,00,00,
47789687,00000100,false,Rx,0,8,00,00,00,00,9A,01,C8,00,
47789951,00000101,false,Rx,0,8,00,FF,FE,00,00,00,00,00,
47790186,00000102,false,Rx,0,8,01,90,01,00,00,01,00,00,
47795200,00000108,false,Rx,0,8,01,58,02,7D,9A,01,00,00,
47795447,00000109,false,Rx,0,8,02,02,00,00,00,22,00,00,
47809050,00000527,false,Rx,0,6,06,05,3D,A9,00,00,00,00,
47837241,00000525,false,Rx,0,6,04,0F,8E,00,00,00,00,00,
47889687,00000100,false,Rx,0,8,00,00,00,00,9A,01,C8,00,
47889934,00000101,false,Rx,0,8,00,FF,FE,00,00,00,00,00,
47890182,00000102,false,Rx,0,8,01,90,01,00,00,01,00,00,
47895533,00000108,false,Rx,0,8,01,58,02,7D,9A,01,00,00,
47895778,00000109,false,Rx,0,8,02,02,00,00,00,22,00,00,
47989685,00000100,false,Rx,0,8,00,00,00,00,9A,01,C8,00,
47989948,00000101,false,Rx,0,8,00,FF,FE,00,00,00,00,00,
47990183,00000102,false,Rx,0,8,01,90,01,00,00,01,00,00,
47990768,00000526,false,Rx,0,6,05,08,04,00,00,00,00,00,
47995507,00000108,false,Rx,0,8,01,58,02,7D,9A,01,00,00,
47995753,00000109,false,Rx,0,8,02,02,00,00,00,22,00,00,
48014639,00000523,false,Rx,0,6,02,02,EB,FF,FF,FF,00,00,
48089681,00000100,false,Rx,0,8,00,00,00,00,9A,01,C8,00,
48089934,00000101,false,Rx,0,8,00,FF,FE,00,00,00,00,00,
48090182,00000102,false,Rx,0,8,01,90,01,00,00,01,00,00,
48095244,00000108,false,Rx,0,8,01,58,02,7D,9A,01,00,00,
48095490,00000109,false,Rx,0,8,02,02,00,00,00,22,00,00,
48133578,00000521,false,Rx,0,6,00,0D,F6,FF,FF,FF,00,00,
48189684,00000100,false,Rx,0,8,00,00,00,00,9A,01,C8,00,
48189942,00000101,false,Rx,0,8,00,FF,FE,00,00,00,00,00,
48190177,00000102,false,Rx,0,8,01,90,01,00,00,01,00,00,
48195421,00000108,false,Rx,0,8,01,58,02,7D,9A,01,00,00,
48195666,00000109,false,Rx,0,8,02,02,00,00,00,22,00,00,
48262622,00000524,false,Rx,0,6,03,0D,F2,FF,FF,FF,00,00,
48289677,00000100,false,Rx,0,8,00,00,00,00,9A,01,C8,00,
48289930,00000101,false,Rx,0,8,00,FF,FE,00,00,00,00,00,
48290177,00000102,false,Rx,0,8,01,90,01,00,00,01,00,00,
48293990,00000108,false,Rx,0,8,01,58,02,7D,9A,01,00,00,
48294232,00000109,false,Rx,0,8,02,02,00,00,00,22,00,00,
48365435,00000522,false,Rx,0,6,01,02,F2,74,05,00,00,00,
48381634,00000528,false,Rx,0,6,07,06,46,10,00,00,00,00,
48387337,00000108,false,Rx,0,8,01,58,02,7D,9A,01,00,00,
48387576,00000109,false,Rx,0,8,02,02,00,00,00,22,00,00,
48389675,00000100,false,Rx,0,8,00,00,00,00,9A,01,C8,00,
48389939,00000101,false,Rx,0,8,00,FF,FE,00,00,00,00,00,
48390174,00000102,false,Rx,0,8,01,90,01,00,00,01,00,00,
48483986,00000108,false,Rx,0,8,01,58,02,7D,9A,01,00,00,
48484227,00000109,false,Rx,0,8,02,02,00,00,00,22,00,00,
48489676,00000100,false,Rx,0,8,00,00,00,00,9A,01,C8,00,
48489928,00000101,false,Rx,0,8,00,FF,FE,00,00,00,00,00,
48490176,00000102,false,Rx,0,8,01,90,01,00,00,01,00,00,
48522712,00000525,false,Rx,0,6,04,00,8E,00,00,00,00,00,
48530823,00000527,false,Rx,0,6,06,06,3D,A9,00,00,00,00,
48589674,00000100,false,Rx,0,8,00,00,00,00,9A,01,C8,00,
48589932,00000101,false,Rx,0,8,00,FF,FE,00,00,00,00,00,
48590174,00000102,false,Rx,0,8,01,90,01,00,00,01,00,00,
48593991,00000108,false,Rx,0,8,01,58,02,7D,9A,01,00,00,
48594231,00000109,false,Rx,0,8,02,02,00,00,00,22,00,00,
48663817,00000523,false,Rx,0,6,02,03,EB,FF,FF,FF,00,00,
48689670,00000100,false,Rx,0,8,00,00,00,00,9A,01,C8,00,
48689919,00000101,false,Rx,0,8,00,FF,FE,00,00,00,00,00,
48690167,00000102,false,Rx,0,8,01,90,01,00,00,01,00,00,
48694392,00000526,false,Rx,0,6,05,09,07,00,00,00,00,00,
48694748,00000108,false,Rx,0,8,01,58,02,7D,9A,01,00,00,
48694995,00000109,false,Rx,0,8,02,02,00,00,00,22,00,00,
48746466,00000521,false,Rx,0,6,00,0E,F6,FF,FF,FF,00,00,
48789667,00000100,false,Rx,0,8,00,00,00,00,9A,01,C8,00,
48789927,00000101,false,Rx,0,8,00,FF,FE,00,00,00,00,00,
48790169,00000102,false,Rx,0,8,01,90,01,00,00,01,00,00,
48802570,00000108,false,Rx,0,8,01,58,02,7D,9A,01,00,00,
48803008,00000109,false,Rx,0,8,02,02,00,00,00,22,00,00,
48889662,00000100,false,Rx,0,8,00,00,00,00,9A,01,C8,00,
48889916,00000101,false,Rx,0,8,00,FF,FE,00,00,00,00,00,
48890164,00000102,false,Rx,0,8,01,90,01,00,00,01,00,00,
48895235,00000108,false,Rx,0,8,01,58,02,7D,9A,01,00,00,
48895480,00000109,false,Rx,0,8,02,02,00,00,00,22,00,00,
48929959,00000524,false,Rx,0,6,03,0E,FC,FF,FF,FF,00,00,
48989663,00000100,false,Rx,0,8,00,00,00,00,9A,01,C8,00,
48989929,00000101,false,Rx,0,8,00,FF,FE,00,00,00,00,00,
48990164,00000102,false,Rx,0,8,01,90,01,00,00,01,00,00,
48994309,00000108,false,Rx,0,8,01,58,02,7D,9A,01,00,00,
48994554,00000109,false,Rx,0,8,02,02,00,00,00,22,00,00,
48996470,00000522,false,Rx,0,6,01,03,F8,74,05,00,00,00,
49089663,00000100,false,Rx,0,8,00,00,00,00,9A,01,C8,00,
49089930,00000101,false,Rx,0,8,00,FF,FE,00,00,00,00,00,
49090160,00000102,false,Rx,0,8,01,90,01,00,00,01,00,00,
49093926,00000108,false,Rx,0,8,01,58,02,7D,9A,01,00,00,
49094175,00000109,false,Rx,0,8,02,02,00,00,00,22,00,00,
49121543,00000528,false,Rx,0,6,07,07,46,10,00,00,00,00,
49189656,00000100,false,Rx,0,8,00,00,00,00,9A,01,C8,00,
49189924,00000101,false,Rx,0,8,00,FF,FE,00,00,00,00,00,
49190155,00000102,false,Rx,0,8,01,90,01,00,00,01,00,00,
49195240,00000108,false,Rx,0,8,01,58,02,7D,9A,01,00,00,
49195486,00000109,false,Rx,0,8,02,02,00,00,00,22,00,00,
49208182,00000525,false,Rx,0,6,04,01,8E,00,00,00,00,00,
49252583,00000527,false,Rx,0,6,06,07,3D,A9,00,00,00,00,
49289660,00000100,false,Rx,0,8,00,00,00,00,9A,01,C8,00,
49289912,00000101,false,Rx,0,8,00,FF,FE,00,00,00,00,00,
49290159,00000102,false,Rx,0,8,01,90,01,00,00,01,00,00,
49295354,00000108,false,Rx,0,8,01,58,02,7D,9A,01,00,00,
49295599,00000109,false,Rx,0,8,02,02,00,00,00,22,00,00,
49313015,00000523,false,Rx,0,6,02,04,F9,FF,FF,FF,00,00,
49359366,00000521,false,Rx,0,6,00,0F,F4,FF,FF,FF,00,00,
49389656,00000100,false,Rx,0,8,00,00,00,00,9A,01,C8,00,
49389914,00000101,false,Rx,0,8,00,FF,FE,00,00,00,00,00,
49390154,00000102,false,Rx,0,8,01,90,01,00,00,01,00,00,
49395447,00000108,false,Rx,0,8,01,58,02,7D,9A,01,00,00,
49395692,00000109,false,Rx,0,8,02,02,00,00,00,22,00,00,
49397985,00000526,false,Rx,0,6,05,0A,07,00,00,00,00,00,
49489652,00000100,false,Rx,0,8,00,00,00,00,9A,01,C8,00,
49489906,00000101,false,Rx,0,8,00,FF,FE,00,00,00,00,00,
49490150,00000102,false,Rx,0,8,01,90,01,00,00,01,00,00,
49494454,00000108,false,Rx,0,8,01,58,02,7D,9A,01,00,00,
49494700,00000109,false,Rx,0,8,02,02,00,00,00,22,00,00,
49589651,00000100,false,Rx,0,8,00,00,00,00,9A,01,C8,00,
49589919,00000101,false,Rx,0,8,00,FF,FE,00,00,00,00,00,
49590149,00000102,false,Rx,0,8,01,90,01,00,00,01,00,00,
49593916,00000108,false,Rx,0,8,01,58,02,7D,9A,01,00,00,
49594157,00000109,false,Rx,0,8,02,02,00,00,00,22,00,00,
49597289,00000524,false,Rx,0,6,03,0F,F9,FF,FF,FF,00,00,
49627543,00000522,false,Rx,0,6,01,04,ED,74,05,00,00,00,
49689653,00000100,false,Rx,0,8,00,00,00,00,9A,01,C8,00,
49689904,00000101,false,Rx,0,8,00,FF,FE,00,00,00,00,00,
49690152,00000102,false,Rx,0,8,01,90,01,00,00,01,00,00,
49694054,00000108,false,Rx,0,8,01,58,02,7D,9A,01,00,00,
49694294,00000109,false,Rx,0,8,02,02,00,00,00,22,00,00,
49789644,00000100,false,Rx,0,8,00,00,00,00,9A,01,C8,00,
49789908,00000101,false,Rx,0,8,00,FF,FE,00,00,00,00,00,
49790143,00000102,false,Rx,0,8,01,90,01,00,00,01,00,00,
49794069,00000108,false,Rx,0,8,01,58,02,7D,9A,01,00,00,
49794317,00000109,false,Rx,0,8,02,02,00,00,00,22,00,00,
49861462,00000528,false,Rx,0,6,07,08,46,10,00,00,00,00,
49889644,00000100,false,Rx,0,8,00,00,00,00,9A,01,C8,00,
49889904,00000101,false,Rx,0,8,00,FF,FE,00,00,00,00,00,
49890145,00000102,false,Rx,0,8,01,90,01,00,00,01,00,00,
49893667,00000525,false,Rx,0,6,04,02,8E,00,00,00,00,00,
49895213,00000108,false,Rx,0,8,01,58,02,7D,9A,01,00,00,
49895452,00000109,false,Rx,0,8,02,02,00,00,00,22,00,00,
49962195,00000523,false,Rx,0,6,02,05,E7,FF,FF,FF,00,00,
49972313,00000521,false,Rx,0,6,00,00,F6,FF,FF,FF,00,00,
49974351,00000527,false,Rx,0,6,06,08,3D,A9,00,00,00,00,
49989645,00000100,false,Rx,0,8,00,00,00,00,9A,01,C8,00,
49989909,00000101,false,Rx,0,8,00,FF,FE,00,00,00,00,00,
49990145,00000102,false,Rx,0,8,01,90,01,00,00,01,00,00,
49995296,00000108,false,Rx,0,8,01,58,02,7D,9A,01,00,00,
49995543,00000109,false,Rx,0,8,02,02,00,00,00,22,00,00,
50089642,00000100,false,Rx,0,8,00,00,00,00,9A,01,C8,00,
50089891,00000101,false,Rx,0,8,00,FF,FE,00,00,00,00,00,
50090139,00000102,false,Rx,0,8,01,90,01,00,00,01,00,00,
50101613,00000526,false,Rx,0,6,05,0B,08,00,00,00,00,00,
50125076,00000108,false,Rx,0,8,01,58,02,7D,9A,01,00,00,
50125360,00000109,false,Rx,0,8,02,02,00,00,00,22,00,00,
50189640,00000100,false,Rx,0,8,00,00,00,00,9A,01,C8,00,
50189908,00000101,false,Rx,0,8,00,FF,FE,00,00,00,00,00,
50190137,00000102,false,Rx,0,8,01,90,01,00,00,01,00,00,
50234297,00000108,false,Rx,0,8,01,58,02,7D,9A,01,00,00,
50234537,00000109,false,Rx,0,8,02,02,00,00,00,22,00,00,
50258558,00000522,false,Rx,0,6,01,05,F6,74,05,00,00,00,
50264617,00000524,false,Rx,0,6,03,00,EA,FF,FF,FF,00,00,
50289640,00000100,false,Rx,0,8,00,00,00,00,9A,01,C8,00,
50289886,00000101,false,Rx,0,8,00,FF,FE,00,00,00,00,00,
50290134,00000102,false,Rx,0,8,01,90,01,00,00,01,00,00,
50334492,00000108,false,Rx,0,8,01,58,02,7D,9A,01,00,00,
50334737,00000109,false,Rx,0,8,02,02,00,00,00,22,00,00,
50389638,00000100,false,Rx,0,8,00,00,00,00,9A,01,C8,00,
50389885,00000101,false,Rx,0,8,00,FF,FE,00,00,00,00,00,
50390132,00000102,false,Rx,0,8,01,90,01,00,00,01,00,00,
50434485,00000108,false,Rx,0,8,01,58,02,7D,9A,01,00,00,
50434731,00000109,false,Rx,0,8,02,02,00,00,00,22,00,00,
50489634,00000100,false,Rx,0,8,00,00,00,00,9A,01,C8,00,
50489887,00000101,false,Rx,0,8,00,FF,FE,00,00,00,00,00,
50490135,00000102,false,Rx,0,8,01,90,01,00,00,01,00,00,
50534314,00000108,false,Rx,0,8,01,58,02,7D,9A,01,00,00,
50534553,00000109,false,Rx,0,8,02,02,00,00,00,22,00,00,
50579147,00000525,false,Rx,0,6,04,03,8E,00,00,00,00,00,
50585158,00000521,false,Rx,0,6,00,01,F4,FF,FF,FF,00,00,
50589628,00000100,false,Rx,0,8,00,00,00,00,9A,01,C8,00,
50589882,00000101,false,Rx,0,8,00,FF,FE,00,00,00,00,00,
50590128,00000102,false,Rx,0,8,01,90,01,00,00,01,00,00,
50601367,00000528,false,Rx,0,6,07,09,46,10,00,00,00,00,
50611375,00000523,false,Rx,0,6,02,06,E7,FF,FF,FF,00,00,
50634089,00000108,false,Rx,0,8,01,58,02,7D,9A,01,00,00,
50634329,00000109,false,Rx,0,8,02,02,00,00,00,22,00,00,
50689631,00000100,false,Rx,0,8,00,00,00,00,9A,01,C8,00,
50689877,00000101,false,Rx,0,8,00,FF,FE,00,00,00,00,00,
50690125,00000102,false,Rx,0,8,01,90,01,00,00,01,00,00,
50696110,00000527,false,Rx,0,6,06,09,3D,A9,00,00,00,00,
50734562,00000108,false,Rx,0,8,01,58,02,7D,9A,01,00,00,
50734808,00000109,false,Rx,0,8,02,02,00,00,00,22,00,00,
50789626,00000100,false,Rx,0,8,00,00,00,00,9A,01,C8,00,
50789878,00000101,false,Rx,0,8,00,FF,FE,00,00,00,00,00,
50790127,00000102,false,Rx,0,8,01,90,01,00,00,01,00,00,
50805069,00000526,false,Rx,0,6,05,0C,00,00,00,00,00,00,
50833937,00000108,false,Rx,0,8,01,58,02,7D,9A,01,00,00,
50834184,00000109,false,Rx,0,8,02,02,00,00,00,22,00,00,
50889625,00000100,false,Rx,0,8,00,00,00,00,9A,01,C8,00,
50889878,00000101,false,Rx,0,8,00,FF,FE,00,00,00,00,00,
50890125,00000102,false,Rx,0,8,01,90,01,00,00,01,00,00,
50890328,00000522,false,Rx,0,6,01,06,FC,74,05,00,00,00,
50931947,00000524,false,Rx,0,6,03,01,F6,FF,FF,FF,00,00,
50933997,00000108,false,Rx,0,8,01,58,02,7D,9A,01,00,00,
50934238,00000109,false,Rx,0,8,02,02,00,00,00,22,00,00,
50989626,00000100,false,Rx,0,8,00,00,00,00,9A,01,C8,00,
50989871,00000101,false,Rx,0,8,00,FF,FE,00,00,00,00,00,
50990144,00000102,false,Rx,0,8,01,90,01,00,00,01,00,00,
51044460,00000108,false,Rx,0,8,01,58,02,7D,9A,01,00,00,
51044707,00000109,false,Rx,0,8,02,02,00,00,00,22,00,00,
51089623,00000100,false,Rx,0,8,00,00,00,00,9A,01,C8,00,
51089869,00000101,false,Rx,0,8,00,FF,FE,00,00,00,00,00,
51090123,00000102,false,Rx,0,8,01,90,01,00,00,01,00,00,
51144023,00000108,false,Rx,0,8,01,58,02,7D,9A,01,00,00,
51144270,00000109,false,Rx,0,8,02,02,00,00,00,22,00,00,
51189623,00000100,false,Rx,0,8,00,00,00,00,9A,01,C8,00,
51189868,00000101,false,Rx,0,8,00,FF,FE,00,00,00,00,00,
51190127,00000102,false,Rx,0,8,01,90,01,00,00,01,00,00,
51198098,00000521,false,Rx,0,6,00,02,F5,FF,FF,FF,00,00,
51254045,00000108,false,Rx,0,8,01,58,02,7D,9A,01,00,00,
51254292,00000109,false,Rx,0,8,02,02,00,00,00,22,00,00,
51260586,00000523,false,Rx,0,6,02,07,F5,FF,FF,FF,00,00,
51264611,00000525,false,Rx,0,6,04,04,8E,00,00,00,00,00,
51289615,00000100,false,Rx,0,8,00,00,00,00,9A,01,C8,00,
51289867,00000101,false,Rx,0,8,00,FF,FE,00,00,00,00,00,
51290114,00000102,false,Rx,0,8,01,90,01,00,00,01,00,00,
51341277,00000528,false,Rx,0,6,07,0A,46,10,00,00,00,00,
51347062,00000108,false,Rx,0,8,01,58,02,7D,9A,01,00,00,
51347311,00000109,false,Rx,0,8,02,02,00,00,00,22,00,00,
51389613,00000100,false,Rx,0,8,00,00,00,00,9A,01,C8,00,
51389866,00000101,false,Rx,0,8,00,FF,FE,00,00,00,00,00,
51390125,00000102,false,Rx,0,8,01,90,01,00,00,01,00,00,
51417880,00000527,false,Rx,0,6,06,0A,3D,A9,00,00,00,00,
51443983,00000108,false,Rx,0,8,01,58,02,7D,9A,01,00,00,
51444230,00000109,false,Rx,0,8,02,02,00,00,00,22,00,00,
51489614,00000100,false,Rx,0,8,00,00,00,00,9A,01,C8,00,
51489859,00000101,false,Rx,0,8,00,FF,FE,00,00,00,00,00,
51490114,00000102,false,Rx,0,8,01,90,01,00,00,01,00,00,
51508861,00000526,false,Rx,0,6,05,0D,05,00,00,00,00,00,
51520635,00000522,false,Rx,0,6,01,07,00,75,05,00,00,00,
51556222,00000108,false,Rx,0,8,01,58,02,7D,9A,01,00,00,
51557155,00000109,false,Rx,0,8,02,02,00,00,00,22,00,00,
51589613,00000100,false,Rx,0,8,00,00,00,00,9A,01,C8,00,
51589859,00000101,false,Rx,0,8,00,FF,FE,00,00,00,00,00,
51590124,00000102,false,Rx,0,8,01,90,01,00,00,01,00,00,
51599278,00000524,false,Rx,0,6,03,02,F8,FF,FF,FF,00,00,
51674063,00000108,false,Rx,0,8,01,58,02,7D,9A,01,00,00,
51674311,00000109,false,Rx,0,8,02,02,00,00,00,22,00,00,
51689607,00000100,false,Rx,0,8,00,00,00,00,9A,01,C8,00,
51689858,00000101,false,Rx,0,8,00,FF,FE,00,00,00,00,00,
51690112,00000102,false,Rx,0,8,01,90,01,00,00,01,00,00,
51774352,00000108,false,Rx,0,8,01,58,02,7D,9A,01,00,00,
51774592,00000109,false,Rx,0,8,02,02,00,00,00,22,00,00,
51789604,00000100,false,Rx,0,8,00,00,00,00,9A,01,C8,00,
51789856,00000101,false,Rx,0,8,00,FF,FE,00,00,00,00,00,
51790120,00000102,false,Rx,0,8,01,90,01,00,00,01,00,00,
51810947,00000521,false,Rx,0,6,00,03,FA,FF,FF,FF,00,00,
51874461,00000108,false,Rx,0,8,01,58,02,7D,9A,01,00,00,
51874707,00000109,false,Rx,0,8,02,02,00,00,00,22,00,00,
51889608,00000100,false,Rx,0,8,00,00,00,00,9A,01,C8,00,
51889853,00000101,false,Rx,0,8,00,FF,FE,00,00,00,00,00,
51890114,00000102,false,Rx,0,8,01,90,01,00,00,01,00,00,
51909755,00000523,false,Rx,0,6,02,08,EB,FF,FF,FF,00,00,
51950095,00000525,false,Rx,0,6,04,05,8E,00,00,00,00,00,
51984311,00000108,false,Rx,0,8,01,58,02,7D,9A,01,00,00,
51984558,00000109,false,Rx,0,8,02,02,00,00,00,22,00,00,
51989605,00000100,false,Rx,0,8,00,00,00,00,9A,01,C8,00,
51989850,00000101,false,Rx,0,8,00,FF,FE,00,00,00,00,00,
51990114,00000102,false,Rx,0,8,01,90,01,00,00,01,00,00,
52081187,00000528,false,Rx,0,6,07,0B,46,10,00,00,00,00,
52084108,00000108,false,Rx,0,8,01,58,02,7D,9A,01,00,00,
52084347,00000109,false,Rx,0,8,02,02,00,00,00,22,00,00,
52089603,00000100,false,Rx,0,8,00,00,00,00,9A,01,C8,00,
52089849,00000101,false,Rx,0,8,00,FF,FE,00,00,00,00,00,
52090110,00000102,false,Rx,0,8,01,90,01,00,00,01,00,00,
52139652,00000527,false,Rx,0,6,06,0B,3D,A9,00,00,00,00,
52151674,00000522,false,Rx,0,6,01,08,F9,74,05,00,00,00,
52189598,00000100,false,Rx,0,8,00,00,00,00,9A,01,C8,00,
52189851,00000101,false,Rx,0,8,00,FF,FE,00,00,00,00,00,
52190107,00000102,false,Rx,0,8,01,90,01,00,00,01,00,00,
52194511,00000108,false,Rx,0,8,01,58,02,7D,9A,01,00,00,
52194744,00000109,false,Rx,0,8,02,02,00,00,00,32,00,00,
52212508,00000526,false,Rx,0,6,05,0E,03,00,00,00,00,00,
52266616,00000524,false,Rx,0,6,03,03,04,00,00,00,00,00,
52289595,00000100,false,Rx,0,8,00,00,00,00,9A,01,C8,00,
52289848,00000101,false,Rx,0,8,00,FF,FE,00,00,00,00,00,
52290096,00000102,false,Rx,0,8,01,90,01,00,00,01,00,00,
52389591,00000100,false,Rx,0,8,00,00,00,00,9A,01,C8,00,
52389843,00000101,false,Rx,0,8,00,FF,FE,00,00,00,00,00,
52390107,00000102,false,Rx,0,8,01,90,01,00,00,01,00,00,
52423854,00000521,false,Rx,0,6,00,04,F8,FF,FF,FF,00,00,
52489596,00000100,false,Rx,0,8,00,00,00,00,9A,01,C8,00,
52489841,00000101,false,Rx,0,8,00,FF,FE,00,00,00,00,00,
52490094,00000102,false,Rx,0,8,01,90,01,00,00,01,00,00,
52558937,00000523,false,Rx,0,6,02,09,EB,FF,FF,FF,00,00,
52589589,00000100,false,Rx,0,8,00,00,00,00,9A,01,C8,00,
52589839,00000101,false,Rx,0,8,00,FF,FE,00,00,00,00,00,
52590102,00000102,false,Rx,0,8,01,90,01,00,00,01,00,00,
52635564,00000525,false,Rx,0,6,04,06,8E,00,00,00,00,00,
52689586,00000100,false,Rx,0,8,00,00,00,00,9A,01,C8,00,
52689839,00000101,false,Rx,0,8,00,FF,FE,00,00,00,00,00,
52690091,00000102,false,Rx,0,8,01,90,01,00,00,01,00,00,
52782710,00000522,false,Rx,0,6,01,09,00,75,05,00,00,00,
52789589,00000100,false,Rx,0,8,00,00,00,00,9A,01,C8,00,
52789837,00000101,false,Rx,0,8,00,FF,FE,00,00,00,00,00,
52790094,00000102,false,Rx,0,8,01,90,01,00,00,01,00,00,
52821112,00000528,false,Rx,0,6,07,0C,46,10,00,00,00,00,
52861418,00000527,false,Rx,0,6,06,0C,3D,A9,00,00,00,00,
52889584,00000100,false,Rx,0,8,00,00,00,00,9A,01,C8,00,
52889831,00000101,false,Rx,0,8,00,FF,FE,00,00,00,00,00,
52890085,00000102,false,Rx,0,8,01,90,01,00,00,01,00,00,
52916114,00000526,false,Rx,0,6,05,0F,0B,00,00,00,00,00,
52933955,00000524,false,Rx,0,6,03,04,F2,FF,FF,FF,00,00,
52989583,00000100,false,Rx,0,8,00,00,00,00,9A,01,C8,00,
52989829,00000101,false,Rx,0,8,00,FF,FE,00,00,00,00,00,
52990105,00000102,false,Rx,0,8,01,90,01,00,00,01,00,00,
53036749,00000521,false,Rx,0,6,00,05,F7,FF,FF,FF,00,00,
53089579,00000100,false,Rx,0,8,00,00,00,00,9A,01,C8,00,
53089831,00000101,false,Rx,0,8,00,FF,FE,00,00,00,00,00,
53090075,00000102,false,Rx,0,8,01,90,01,00,00,01,00,00,
