Time Stamp,ID,Extended,Dir,Bus,LEN,D1,D2,D3,D4,D5,D6,D7,D8
2071998,00000526,false,Rx,0,6,05,0B,28,01,00,00,00,00,
2186225,00000523,false,Rx,0,6,02,04,EC,FF,FF,FF,00,00,
2222537,00000527,false,Rx,0,6,06,0F,8B,94,00,00,00,00,
2409265,00000522,false,Rx,0,6,01,0F,B8,DC,05,00,00,00,
2412267,00000521,false,Rx,0,6,00,0E,03,FD,FF,FF,00,00,
2415362,00000528,false,Rx,0,6,07,06,A2,0F,00,00,00,00,
2483629,00000525,false,Rx,0,6,04,0B,17,01,00,00,00,00,
2576349,00000524,false,Rx,0,6,03,0E,F1,FF,FF,FF,00,00,
2773168,00000526,false,Rx,0,6,05,0C,2B,01,00,00,00,00,
2833218,00000523,false,Rx,0,6,02,05,EB,FF,FF,FF,00,00,
2941794,00000527,false,Rx,0,6,06,00,8C,94,00,00,00,00,
3023099,00000521,false,Rx,0,6,00,0F,FD,FC,FF,FF,00,00,
3038165,00000522,false,Rx,0,6,01,00,C1,DC,05,00,00,00,
3152787,00000528,false,Rx,0,6,07,07,A2,0F,00,00,00,00,
3166798,00000525,false,Rx,0,6,04,0C,17,01,00,00,00,00,
3241127,00000524,false,Rx,0,6,03,0F,EC,FF,FF,FF,00,00,
3474529,00000526,false,Rx,0,6,05,0D,26,01,00,00,00,00,
3480549,00000523,false,Rx,0,6,02,06,F6,FF,FF,FF,00,00,
3633938,00000521,false,Rx,0,6,00,00,FD,FC,FF,FF,00,00,
3661453,00000527,false,Rx,0,6,06,01,8C,94,00,00,00,00,
3667100,00000522,false,Rx,0,6,01,01,BE,DC,05,00,00,00,
3849971,00000525,false,Rx,0,6,04,0D,17,01,00,00,00,00,
3890213,00000528,false,Rx,0,6,07,08,A2,0F,00,00,00,00,
3906226,00000524,false,Rx,0,6,03,00,E7,FF,FF,FF,00,00,
4127247,00000523,false,Rx,0,6,02,07,F6,FF,FF,FF,00,00,
4175611,00000526,false,Rx,0,6,05,0E,24,01,00,00,00,00,
4244793,00000521,false,Rx,0,6,00,01,01,FD,FF,FF,00,00,
4296020,00000522,false,Rx,0,6,01,02,BE,DC,05,00,00,00,
4380492,00000527,false,Rx,0,6,06,02,8D,94,00,00,00,00,
4533155,00000525,false,Rx,0,6,04,0E,17,01,00,00,00,00,
4571316,00000524,false,Rx,0,6,03,01,FE,FF,FF,FF,00,00,
4627645,00000528,false,Rx,0,6,07,09,A2,0F,00,00,00,00,
4774264,00000523,false,Rx,0,6,02,08,FA,FF,FF,FF,00,00,
4855636,00000521,false,Rx,0,6,00,02,04,FD,FF,FF,00,00,
4877072,00000526,false,Rx,0,6,05,0F,27,01,00,00,00,00,
4924949,00000522,false,Rx,0,6,01,03,C2,DC,05,00,00,00,
5099835,00000527,false,Rx,0,6,06,03,8D,94,00,00,00,00,
5216330,00000525,false,Rx,0,6,04,0F,17,01,00,00,00,00,
5236420,00000524,false,Rx,0,6,03,02,EA,FF,FF,FF,00,00,
5365079,00000528,false,Rx,0,6,07,0A,A2,0F,00,00,00,00,
5421265,00000523,false,Rx,0,6,02,09,EE,FF,FF,FF,00,00,
5466783,00000521,false,Rx,0,6,00,03,05,FD,FF,FF,00,00,
5553874,00000522,false,Rx,0,6,01,04,BD,DC,05,00,00,00,
5578325,00000526,false,Rx,0,6,05,00,22,01,00,00,00,00,
5819171,00000527,false,Rx,0,6,06,04,8E,94,00,00,00,00,
5899504,00000525,false,Rx,0,6,04,00,17,01,00,00,00,00,
5901492,00000524,false,Rx,0,6,03,03,F4,FF,FF,FF,00,00,
6068269,00000523,false,Rx,0,6,02,0A,EE,FF,FF,FF,00,00,
6077301,00000521,false,Rx,0,6,00,04,02,FD,FF,FF,00,00,
6102778,00000528,false,Rx,0,6,07,0B,A2,0F,00,00,00,00,
6182782,00000522,false,Rx,0,6,01,05,B7,DC,05,00,00,00,
6279789,00000526,false,Rx,0,6,05,01,28,01,00,00,00,00,
6538508,00000527,false,Rx,0,6,06,05,8F,94,00,00,00,00,
6566590,00000524,false,Rx,0,6,03,04,F6,FF,FF,FF,00,00,
6582678,00000525,false,Rx,0,6,04,01,17,01,00,00,00,00,
6688133,00000521,false,Rx,0,6,00,05,03,FD,FF,FF,00,00,
6715283,00000523,false,Rx,0,6,02,0B,F3,FF,FF,FF,00,00,
6811719,00000522,false,Rx,0,6,01,06,C7,DC,05,00,00,00,
6839933,00000528,false,Rx,0,6,07,0C,A2,0F,00,00,00,00,
6980652,00000526,false,Rx,0,6,05,02,23,01,00,00,00,00,
7231675,00000524,false,Rx,0,6,03,05,F6,FF,FF,FF,00,00,
7257931,00000527,false,Rx,0,6,06,06,8F,94,00,00,00,00,
7265851,00000525,false,Rx,0,6,04,02,17,01,00,00,00,00,
7298975,00000521,false,Rx,0,6,00,06,07,FD,FF,FF,00,00,
7362277,00000523,false,Rx,0,6,02,0C,FC,FF,FF,FF,00,00,
7440635,00000522,false,Rx,0,6,01,07,CB,DC,05,00,00,00,
7577354,00000528,false,Rx,0,6,07,0D,A2,0F,00,00,00,00,
7682081,00000526,false,Rx,0,6,05,03,2A,01,00,00,00,00,
7896776,00000524,false,Rx,0,6,03,06,ED,FF,FF,FF,00,00,
7909819,00000521,false,Rx,0,6,00,07,FF,FC,FF,FF,00,00,
7949023,00000525,false,Rx,0,6,04,03,17,01,00,00,00,00,
7977200,00000527,false,Rx,0,6,06,07,90,94,00,00,00,00,
8009290,00000523,false,Rx,0,6,02,0D,FC,FF,FF,FF,00,00,
8069554,00000522,false,Rx,0,6,01,08,CD,DC,05,00,00,00,
8314777,00000528,false,Rx,0,6,07,0E,A2,0F,00,00,00,00,
8383175,00000526,false,Rx,0,6,05,04,22,01,00,00,00,00,
8520653,00000521,false,Rx,0,6,00,08,02,FD,FF,FF,00,00,
8561858,00000524,false,Rx,0,6,03,07,F3,FF,FF,FF,00,00,
8632204,00000525,false,Rx,0,6,04,04,17,01,00,00,00,00,
8656300,00000523,false,Rx,0,6,02,0E,EB,FF,FF,FF,00,00,
8696543,00000527,false,Rx,0,6,06,08,90,94,00,00,00,00,
8698476,00000522,false,Rx,0,6,01,09,D5,DC,05,00,00,00,
9052206,00000528,false,Rx,0,6,07,0F,A3,0F,00,00,00,00,
9084619,00000526,false,Rx,0,6,05,05,2C,01,00,00,00,00,
9131505,00000521,false,Rx,0,6,00,09,01,FD,FF,FF,00,00,
9226969,00000524,false,Rx,0,6,03,08,ED,FF,FF,FF,00,00,
9303325,00000523,false,Rx,0,6,02,0F,F9,FF,FF,FF,00,00,
9315383,00000525,false,Rx,0,6,04,05,18,01,00,00,00,00,
9327739,00000522,false,Rx,0,6,01,0A,CB,DC,05,00,00,00,
9415970,00000527,false,Rx,0,6,06,09,91,94,00,00,00,00,
9742369,00000521,false,Rx,0,6,00,0A,04,FD,FF,FF,00,00,
9785894,00000526,false,Rx,0,6,05,06,1E,01,00,00,00,00,
9789649,00000528,false,Rx,0,6,07,00,A3,0F,00,00,00,00,
9892075,00000524,false,Rx,0,6,03,09,E5,FF,FF,FF,00,00,
9950332,00000523,false,Rx,0,6,02,00,F9,FF,FF,FF,00,00,
9956343,00000522,false,Rx,0,6,01,0B,D1,DC,05,00,00,00,
9998573,00000525,false,Rx,0,6,04,06,17,01,00,00,00,00,
10135252,00000527,false,Rx,0,6,06,0A,91,94,00,00,00,00,
10353504,00000521,false,Rx,0,6,00,0B,01,FD,FF,FF,00,00,
10487128,00000526,false,Rx,0,6,05,07,28,01,00,00,00,00,
10527097,00000528,false,Rx,0,6,07,01,A3,0F,00,00,00,00,
10557166,00000524,false,Rx,0,6,03,0A,03,00,00,00,00,00,
10585283,00000522,false,Rx,0,6,01,0C,D8,DC,05,00,00,00,
10597344,00000523,false,Rx,0,6,02,01,F6,FF,FF,FF,00,00,
10681752,00000525,false,Rx,0,6,04,07,18,01,00,00,00,00,
10854596,00000527,false,Rx,0,6,06,0B,92,94,00,00,00,00,
10964031,00000521,false,Rx,0,6,00,0C,FE,FC,FF,FF,00,00,
11188230,00000526,false,Rx,0,6,05,08,25,01,00,00,00,00,
11214195,00000522,false,Rx,0,6,01,0D,E9,DC,05,00,00,00,
11222257,00000524,false,Rx,0,6,03,0B,F2,FF,FF,FF,00,00,
11244340,00000523,false,Rx,0,6,02,02,E9,FF,FF,FF,00,00,
11264499,00000528,false,Rx,0,6,07,02,A3,0F,00,00,00,00,
11364927,00000525,false,Rx,0,6,04,08,17,01,00,00,00,00,
11573939,00000527,false,Rx,0,6,06,0C,92,94,00,00,00,00,
11574890,00000521,false,Rx,0,6,00,0D,FD,FC,FF,FF,00,00,
11843114,00000522,false,Rx,0,6,01,0E,D7,DC,05,00,00,00,
11872796,00000100,false,Rx,0,8,00,00,00,00,9A,01,C8,00,
11873041,00000101,false,Rx,0,8,00,FF,FE,00,00,00,00,00,
11873288,00000102,false,Rx,0,8,00,90,01,00,00,00,64,00,
11887338,00000524,false,Rx,0,6,03,0C,E7,FF,FF,FF,00,00,
11889708,00000526,false,Rx,0,6,05,09,23,01,00,00,00,00,
11891363,00000523,false,Rx,0,6,02,03,E9,FF,FF,FF,00,00,
11972789,00000100,false,Rx,0,8,00,00,00,00,9A,01,C8,00,
11973041,00000101,false,Rx,0,8,00,FF,FE,00,00,00,00,00,
11973288,00000102,false,Rx,0,8,00,90,01,00,00,00,64,00,
12001936,00000528,false,Rx,0,6,07,03,A3,0F,00,00,00,00,
12048103,00000525,false,Rx,0,6,04,09,17,01,00,00,00,00,
12072789,00000100,false,Rx,0,8,00,00,00,00,9A,01,C8,00,
12073034,00000101,false,Rx,0,8,00,FF,FE,00,00,00,00,00,
12073281,00000102,false,Rx,0,8,00,90,01,00,00,00,64,00,
12172785,00000100,false,Rx,0,8,00,00,00,00,9A,01,C8,00,
12173038,00000101,false,Rx,0,8,00,FF,FE,00,00,00,00,00,
12173279,00000102,false,Rx,0,8,00,90,01,00,00,00,64,00,
12185715,00000521,false,Rx,0,6,00,0E,FF,FC,FF,FF,00,00,
12272783,00000100,false,Rx,0,8,00,00,00,00,9A,01,C8,00,
12273036,00000101,false,Rx,0,8,00,FF,FE,00,00,00,00,00,
12273282,00000102,false,Rx,0,8,00,90,01,00,00,00,64,00,
12293276,00000527,false,Rx,0,6,06,0D,93,94,00,00,00,00,
12372783,00000100,false,Rx,0,8,00,00,00,00,9A,01,C8,00,
12373029,00000101,false,Rx,0,8,00,FF,FE,00,00,00,00,00,
12373275,00000102,false,Rx,0,8,00,90,01,00,00,00,64,00,
12472047,00000522,false,Rx,0,6,01,0F,CA,DC,05,00,00,00,
12472782,00000100,false,Rx,0,8,00,00,00,00,9A,01,C8,00,
12473031,00000101,false,Rx,0,8,00,FF,FE,00,00,00,00,00,
12473279,00000102,false,Rx,0,8,00,90,01,00,00,00,64,00,
12538371,00000523,false,Rx,0,6,02,04,F1,FF,FF,FF,00,00,
12552480,00000524,false,Rx,0,6,03,0D,FF,FF,FF,FF,00,00,
12572780,00000100,false,Rx,0,8,00,00,00,00,9A,01,C8,00,
12573025,00000101,false,Rx,0,8,00,FF,FE,00,00,00,00,00,
12573274,00000102,false,Rx,0,8,00,90,01,00,00,00,64,00,
12590750,00000526,false,Rx,0,6,05,0A,28,01,00,00,00,00,
12672777,00000100,false,Rx,0,8,00,00,00,00,9A,01,C8,00,
12673022,00000101,false,Rx,0,8,00,FF,FE,00,00,00,00,00,
12673272,00000102,false,Rx,0,8,00,90,01,00,00,00,64,00,
12731289,00000525,false,Rx,0,6,04,0A,17,01,00,00,00,00,
12739368,00000528,false,Rx,0,6,07,04,A3,0F,00,00,00,00,
12772770,00000100,false,Rx,0,8,00,00,00,00,9A,01,C8,00,
12773022,00000101,false,Rx,0,8,00,FF,FE,00,00,00,00,00,
12773275,00000102,false,Rx,0,8,00,90,01,00,00,00,64,00,
12796554,00000521,false,Rx,0,6,00,0F,F8,FC,FF,FF,00,00,
12872772,00000100,false,Rx,0,8,00,00,00,00,9A,01,C8,00,
12873024,00000101,false,Rx,0,8,00,FF,FE,00,00,00,00,00,
12873270,00000102,false,Rx,0,8,00,90,01,00,00,00,64,00,
12972767,00000100,false,Rx,0,8,00,00,00,00,9A,01,C8,00,
12973019,00000101,false,Rx,0,8,00,FF,FE,00,00,00,00,00,
12973263,00000102,false,Rx,0,8,00,90,01,00,00,00,64,00,
13012643,00000527,false,Rx,0,6,06,0E,94,94,00,00,00,00,
13072768,00000100,false,Rx,0,8,00,00,00,00,9A,01,C8,00,
13073014,00000101,false,Rx,0,8,00,FF,FE,00,00,00,00,00,
13073266,00000102,false,Rx,0,8,00,90,01,00,00,00,64,00,
13100980,00000522,false,Rx,0,6,01,00,E2,DC,05,00,00,00,
13172762,00000100,false,Rx,0,8,00,00,00,00,9A,01,C8,00,
13173014,00000101,false,Rx,0,8,00,FF,FE,00,00,00,00,00,
13173269,00000102,false,Rx,0,8,00,90,01,00,00,00,64,00,
13185709,00000523,false,Rx,0,6,02,05,ED,FF,FF,FF,00,00,
13217544,00000524,false,Rx,0,6,03,0E,F3,FF,FF,FF,00,00,
13272761,00000100,false,Rx,0,8,00,00,00,00,9A,01,C8,00,
13273013,00000101,false,Rx,0,8,00,FF,FE,00,00,00,00,00,
13273264,00000102,false,Rx,0,8,00,90,01,00,00,00,64,00,
13292221,00000526,false,Rx,0,6,05,0B,2F,01,00,00,00,00,
13372762,00000100,false,Rx,0,8,00,00,00,00,9A,01,C8,00,
13373007,00000101,false,Rx,0,8,00,FF,FE,00,00,00,00,00,
13373251,00000102,false,Rx,0,8,00,90,01,00,00,00,64,00,
13407423,00000521,false,Rx,0,6,00,00,FF,FC,FF,FF,00,00,
13414485,00000525,false,Rx,0,6,04,0B,17,01,00,00,00,00,
13472758,00000100,false,Rx,0,8,00,00,00,00,9A,01,C8,00,
13473010,00000101,false,Rx,0,8,00,FF,FE,00,00,00,00,00,
13473256,00000102,false,Rx,0,8,00,90,01,00,00,00,64,00,
13476830,00000528,false,Rx,0,6,07,05,A3,0F,00,00,00,00,
13572758,00000100,false,Rx,0,8,00,00,00,00,9A,01,C8,00,
13573004,00000101,false,Rx,0,8,00,FF,FE,00,00,00,00,00,
13573252,00000102,false,Rx,0,8,00,90,01,00,00,00,64,00,
13672755,00000100,false,Rx,0,8,00,00,00,00,9A,01,C8,00,
13673007,00000101,false,Rx,0,8,00,FF,FE,00,00,00,00,00,
13673256,00000102,false,Rx,0,8,00,90,01,00,00,00,64,00,
13729931,00000522,false,Rx,0,6,01,01,DB,DC,05,00,00,00,
13732012,00000527,false,Rx,0,6,06,0F,94,94,00,00,00,00,
13772749,00000100,false,Rx,0,8,00,00,00,00,9A,01,C8,00,
13773001,00000101,false,Rx,0,8,00,FF,FE,00,00,00,00,00,
13773249,00000102,false,Rx,0,8,00,90,01,00,00,00,64,00,
13832411,00000523,false,Rx,0,6,02,06,ED,FF,FF,FF,00,00,
13872752,00000100,false,Rx,0,8,00,00,00,00,9A,01,C8,00,
13873001,00000101,false,Rx,0,8,00,FF,FE,00,00,00,00,00,
13873249,00000102,false,Rx,0,8,00,90,01,00,00,00,64,00,
13882666,00000524,false,Rx,0,6,03,0F,F9,FF,FF,FF,00,00,
13972750,00000100,false,Rx,0,8,00,00,00,00,9A,01,C8,00,
13972996,00000101,false,Rx,0,8,00,FF,FE,00,00,00,00,00,
13973243,00000102,false,Rx,0,8,00,90,01,00,00,01,64,00,
13993494,00000526,false,Rx,0,6,05,0C,2D,01,00,00,00,00,
14018276,00000521,false,Rx,0,6,00,01,01,FD,FF,FF,00,00,
14072745,00000100,false,Rx,0,8,00,00,00,00,9A,01,C8,00,
14072997,00000101,false,Rx,0,8,00,FF,FE,00,00,00,00,00,
14073244,00000102,false,Rx,0,8,00,90,01,00,00,01,64,00,
14097672,00000525,false,Rx,0,6,04,0C,17,01,00,00,00,00,
14172744,00000100,false,Rx,0,8,00,00,00,00,9A,01,C8,00,
14172996,00000101,false,Rx,0,8,00,FF,FE,00,00,00,00,00,
14173236,00000102,false,Rx,0,8,00,90,01,00,00,01,64,00,
14214277,00000528,false,Rx,0,6,07,06,A3,0F,00,00,00,00,
14272743,00000100,false,Rx,0,8,00,00,00,00,9A,01,C8,00,
14273007,00000101,false,Rx,0,8,00,FF,FE,00,00,00,00,00,
14273235,00000102,false,Rx,0,8,00,90,01,00,00,01,64,00,
14358864,00000522,false,Rx,0,6,01,02,E4,DC,05,00,00,00,
14372741,00000100,false,Rx,0,8,00,00,00,00,9A,01,C8,00,
14372993,00000101,false,Rx,0,8,00,FF,FE,00,00,00,00,00,
14373232,00000102,false,Rx,0,8,00,90,01,00,00,01,64,00,
14451691,00000527,false,Rx,0,6,06,00,95,94,00,00,00,00,
14472740,00000100,false,Rx,0,8,00,00,00,00,9A,01,C8,00,
14472986,00000101,false,Rx,0,8,00,FF,FE,00,00,00,00,00,
14473231,00000102,false,Rx,0,8,00,90,01,00,00,01,64,00,
14479436,00000523,false,Rx,0,6,02,07,F6,FF,FF,FF,00,00,
14547766,00000524,false,Rx,0,6,03,00,EF,FF,FF,FF,00,00,
14572737,00000100,false,Rx,0,8,00,00,00,00,9A,01,C8,00,
14572983,00000101,false,Rx,0,8,00,FF,FE,00,00,00,00,00,
14573228,00000102,false,Rx,0,8,00,90,01,00,00,01,64,00,
14629458,00000521,false,Rx,0,6,00,02,00,FD,FF,FF,00,00,
14672737,00000100,false,Rx,0,8,00,00,00,00,9A,01,C8,00,
14672982,00000101,false,Rx,0,8,00,FF,FE,00,00,00,00,00,
14673227,00000102,false,Rx,0,8,00,90,01,00,00,01,64,00,
14694741,00000526,false,Rx,0,6,05,0D,1D,01,00,00,00,00,
14772734,00000100,false,Rx,0,8,00,00,00,00,9A,01,C8,00,
14772979,00000101,false,Rx,0,8,00,FF,FE,00,00,00,00,00,
14773228,00000102,false,Rx,0,8,00,90,01,00,00,01,64,00,
14780869,00000525,false,Rx,0,6,04,0D,17,01,00,00,00,00,
14872730,00000100,false,Rx,0,8,00,00,00,00,9A,01,C8,00,
14872982,00000101,false,Rx,0,8,00,FF,FE,00,00,00,00,00,
14873223,00000102,false,Rx,0,8,00,90,01,00,00,01,64,00,
14951724,00000528,false,Rx,0,6,07,07,A3,0F,00,00,00,00,
14972724,00000100,false,Rx,0,8,00,00,00,00,9A,01,C8,00,
14972976,00000101,false,Rx,0,8,00,FF,FE,00,00,00,00,00,
14973222,00000102,false,Rx,0,8,00,90,01,00,00,01,64,00,
14987814,00000522,false,Rx,0,6,01,03,D2,DC,05,00,00,00,
15072722,00000100,false,Rx,0,8,00,00,00,00,9A,01,C8,00,
15072974,00000101,false,Rx,0,8,00,FF,FE,00,00,00,00,00,
15073220,00000102,false,Rx,0,8,00,90,01,00,00,01,64,00,
15126473,00000523,false,Rx,0,6,02,08,E4,FF,FF,FF,00,00,
15171047,00000527,false,Rx,0,6,06,01,95,94,00,00,00,00,
15172721,00000100,false,Rx,0,8,00,00,00,00,9A,01,C8,00,
15172972,00000101,false,Rx,0,8,00,FF,FE,00,00,00,00,00,
15173219,00000102,false,Rx,0,8,00,90,01,00,00,01,64,00,
15212884,00000524,false,Rx,0,6,03,01,F1,FF,FF,FF,00,00,
15240985,00000521,false,Rx,0,6,00,03,FC,FC,FF,FF,00,00,
15272721,00000100,false,Rx,0,8,00,00,00,00,9A,01,C8,00,
15272973,00000101,false,Rx,0,8,00,FF,FE,00,00,00,00,00,
15273213,00000102,false,Rx,0,8,00,90,01,00,00,01,64,00,
15372719,00000100,false,Rx,0,8,00,00,00,00,9A,01,C8,00,
15372971,00000101,false,Rx,0,8,00,FF,FE,00,00,00,00,00,
15373211,00000102,false,Rx,0,8,00,90,01,00,00,01,64,00,
15395863,00000526,false,Rx,0,6,05,0E,2A,01,00,00,00,00,
15464057,00000525,false,Rx,0,6,04,0E,17,01,00,00,00,00,
15472714,00000100,false,Rx,0,8,00,00,00,00,9A,01,C8,00,
15472969,00000101,false,Rx,0,8,00,FF,FE,00,00,00,00,00,
15473209,00000102,false,Rx,0,8,00,90,01,00,00,01,64,00,
15572716,00000100,false,Rx,0,8,00,00,00,00,9A,01,C8,00,
15572968,00000101,false,Rx,0,8,00,FF,FE,00,00,00,00,00,
15573207,00000102,false,Rx,0,8,00,90,01,00,00,01,64,00,
15616727,00000522,false,Rx,0,6,01,04,E1,DC,05,00,00,00,
15672713,00000100,false,Rx,0,8,00,00,00,00,9A,01,C8,00,
15672966,00000101,false,Rx,0,8,00,FF,FE,00,00,00,00,00,
15673205,00000102,false,Rx,0,8,00,90,01,00,00,01,64,00,
15689152,00000528,false,Rx,0,6,07,08,A3,0F,00,00,00,00,
15772708,00000100,false,Rx,0,8,00,00,00,00,9A,01,C8,00,
15772961,00000101,false,Rx,0,8,00,FF,FE,00,00,00,00,00,
15773207,00000102,false,Rx,0,8,00,90,01,00,00,01,64,00,
15773474,00000523,false,Rx,0,6,02,09,E4,FF,FF,FF,00,00,
15851829,00000521,false,Rx,0,6,00,04,FF,FC,FF,FF,00,00,
15872706,00000100,false,Rx,0,8,00,00,00,00,9A,01,C8,00,
15872961,00000101,false,Rx,0,8,00,FF,FE,00,00,00,00,00,
15873200,00000102,false,Rx,0,8,00,90,01,00,00,01,64,00,
15877964,00000524,false,Rx,0,6,03,02,F2,FF,FF,FF,00,00,
15890072,00000527,false,Rx,0,6,06,02,96,94,00,00,00,00,
15972707,00000100,false,Rx,0,8,00,00,00,00,9A,01,C8,00,
15972970,00000101,false,Rx,0,8,00,FF,FE,00,00,00,00,00,
15973198,00000102,false,Rx,0,8,00,90,01,00,00,01,64,00,
16072703,00000100,false,Rx,0,8,00,00,00,00,9A,01,C8,00,
16072955,00000101,false,Rx,0,8,00,FF,FE,00,00,00,00,00,
16073198,00000102,false,Rx,0,8,00,90,01,00,00,01,64,00,
16097282,00000526,false,Rx,0,6,05,0F,29,01,00,00,00,00,
16147220,00000525,false,Rx,0,6,04,0F,17,01,00,00,00,00,
16172704,00000100,false,Rx,0,8,00,00,00,00,9A,01,C8,00,
16172949,00000101,false,Rx,0,8,00,FF,FE,00,00,00,00,00,
16173194,00000102,false,Rx,0,8,00,90,01,00,00,01,64,00,
16245644,00000522,false,Rx,0,6,01,05,E0,DC,05,00,00,00,
16272702,00000100,false,Rx,0,8,00,00,00,00,9A,01,C8,00,
16272948,00000101,false,Rx,0,8,00,FF,FE,00,00,00,00,00,
16273193,00000102,false,Rx,0,8,00,90,01,00,00,01,64,00,
16372697,00000100,false,Rx,0,8,00,00,00,00,9A,01,C8,00,
16372949,00000101,false,Rx,0,8,00,FF,FE,00,00,00,00,00,
16373191,00000102,false,Rx,0,8,00,90,01,00,00,01,64,00,
16420455,00000523,false,Rx,0,6,02,0A,EF,FF,FF,FF,00,00,
16426572,00000528,false,Rx,0,6,07,09,A3,0F,00,00,00,00,
16462646,00000521,false,Rx,0,6,00,05,03,FD,FF,FF,00,00,
16472697,00000100,false,Rx,0,8,00,00,00,00,9A,01,C8,00,
16472943,00000101,false,Rx,0,8,00,FF,FE,00,00,00,00,00,
16473191,00000102,false,Rx,0,8,00,90,01,00,00,01,64,00,
16543039,00000524,false,Rx,0,6,03,03,E9,FF,FF,FF,00,00,
16572696,00000100,false,Rx,0,8,00,00,00,00,9A,01,C8,00,
16572941,00000101,false,Rx,0,8,00,FF,FE,00,00,00,00,00,
16573197,00000102,false,Rx,0,8,00,90,01,00,00,01,64,00,
16609663,00000527,false,Rx,0,6,06,03,96,94,00,00,00,00,
16672690,00000100,false,Rx,0,8,00,00,00,00,9A,01,C8,00,
16672942,00000101,false,Rx,0,8,00,FF,FE,00,00,00,00,00,
16673188,00000102,false,Rx,0,8,00,90,01,00,00,01,64,00,
16772688,00000100,false,Rx,0,8,00,00,00,00,9A,01,C8,00,
16772940,00000101,false,Rx,0,8,00,FF,FE,00,00,00,00,00,
16773187,00000102,false,Rx,0,8,00,90,01,00,00,01,64,00,
16798610,00000526,false,Rx,0,6,05,00,2F,01,00,00,00,00,
16830386,00000525,false,Rx,0,6,04,00,17,01,00,00,00,00,
16872689,00000100,false,Rx,0,8,00,00,00,00,9A,01,C8,00,
16872934,00000101,false,Rx,0,8,00,FF,FE,00,00,00,00,00,
16873181,00000102,false,Rx,0,8,00,90,01,00,00,01,64,00,
16874566,00000522,false,Rx,0,6,01,06,E4,DC,05,00,00,00,
16972684,00000100,false,Rx,0,8,00,00,00,00,9A,01,C8,00,
16972936,00000101,false,Rx,0,8,00,FF,FE,00,00,00,00,00,
16973182,00000102,false,Rx,0,8,00,90,01,00,00,01,64,00,
17067475,00000523,false,Rx,0,6,02,0B,F3,FF,FF,FF,00,00,
17072684,00000100,false,Rx,0,8,00,00,00,00,9A,01,C8,00,
17072933,00000101,false,Rx,0,8,00,FF,FE,00,00,00,00,00,
17073178,00000102,false,Rx,0,8,00,90,01,00,00,01,64,00,
17073968,00000521,false,Rx,0,6,00,06,07,FD,FF,FF,00,00,
17164295,00000528,false,Rx,0,6,07,0A,A3,0F,00,00,00,00,
17172678,00000100,false,Rx,0,8,00,00,00,00,9A,01,C8,00,
17172933,00000101,false,Rx,0,8,00,FF,FE,00,00,00,00,00,
17173172,00000102,false,Rx,0,8,00,90,01,00,00,01,64,00,
17208123,00000524,false,Rx,0,6,03,04,F9,FF,FF,FF,00,00,
17272682,00000100,false,Rx,0,8,00,00,00,00,9A,01,C8,00,
17272928,00000101,false,Rx,0,8,00,FF,FE,00,00,00,00,00,
17273173,00000102,false,Rx,0,8,00,90,01,00,00,01,64,00,
17328741,00000527,false,Rx,0,6,06,04,97,94,00,00,00,00,
17372675,00000100,false,Rx,0,8,00,00,00,00,9A,01,C8,00,
17372923,00000101,false,Rx,0,8,00,FF,FE,00,00,00,00,00,
17373169,00000102,false,Rx,0,8,00,90,01,00,00,01,64,00,
17472672,00000100,false,Rx,0,8,00,00,00,00,9A,01,C8,00,
17472924,00000101,false,Rx,0,8,00,FF,FE,00,00,00,00,00,
17473170,00000102,false,Rx,0,8,00,90,01,00,00,01,64,00,
17499801,00000526,false,Rx,0,6,05,01,22,01,00,00,00,00,
17503482,00000522,false,Rx,0,6,01,07,DB,DC,05,00,00,00,
17513546,00000525,false,Rx,0,6,04,01,17,01,00,00,00,00,
17572676,00000100,false,Rx,0,8,00,00,00,00,9A,01,C8,00,
17572933,00000101,false,Rx,0,8,00,FF,FE,00,00,00,00,00,
17573168,00000102,false,Rx,0,8,00,90,01,00,00,01,64,00,
17672673,00000100,false,Rx,0,8,00,00,00,00,9A,01,C8,00,
17672919,00000101,false,Rx,0,8,00,FF,FE,00,00,00,00,00,
17673168,00000102,false,Rx,0,8,00,90,01,00,00,01,64,00,
17684326,00000521,false,Rx,0,6,00,07,02,FD,FF,FF,00,00,
17714474,00000523,false,Rx,0,6,02,0C,F3,FF,FF,FF,00,00,
17772667,00000100,false,Rx,0,8,00,00,00,00,9A,01,C8,00,
17772920,00000101,false,Rx,0,8,00,FF,FE,00,00,00,00,00,
17773163,00000102,false,Rx,0,8,00,90,01,00,00,01,64,00,
17872666,00000100,false,Rx,0,8,00,00,00,00,9A,01,C8,00,
17872919,00000101,false,Rx,0,8,00,FF,FE,00,00,00,00,00,
17873162,00000102,false,Rx,0,8,00,90,01,00,00,01,64,00,
17873371,00000524,false,Rx,0,6,03,05,EF,FF,FF,FF,00,00,
17901408,00000528,false,Rx,0,6,07,0B,A3,0F,00,00,00,00,
17972665,00000100,false,Rx,0,8,00,00,00,00,9A,01,C8,00,
17972918,00000101,false,Rx,0,8,00,FF,FE,00,00,00,00,00,
17973160,00000102,false,Rx,0,8,00,90,01,00,00,01,64,00,
18048085,00000527,false,Rx,0,6,06,05,97,94,00,00,00,00,
18072662,00000100,false,Rx,0,8,00,00,00,00,9A,01,C8,00,
18072914,00000101,false,Rx,0,8,00,FF,FE,00,00,00,00,00,
18073160,00000102,false,Rx,0,8,00,90,01,00,00,01,64,00,
18132408,00000522,false,Rx,0,6,01,08,E2,DC,05,00,00,00,
18172659,00000100,false,Rx,0,8,00,00,00,00,9A,01,C8,00,
18172911,00000101,false,Rx,0,8,00,FF,FE,00,00,00,00,00,
18173167,00000102,false,Rx,0,8,00,90,01,00,00,01,64,00,
18196739,00000525,false,Rx,0,6,04,02,18,01,00,00,00,00,
18201072,00000526,false,Rx,0,6,05,02,29,01,00,00,00,00,
18272660,00000100,false,Rx,0,8,00,00,00,00,9A,01,C8,00,
18272912,00000101,false,Rx,0,8,00,FF,FE,00,00,00,00,00,
18273151,00000102,false,Rx,0,8,00,90,01,00,00,01,64,00,
18295170,00000521,false,Rx,0,6,00,08,F8,FC,FF,FF,00,00,
18361494,00000523,false,Rx,0,6,02,0D,F6,FF,FF,FF,00,00,
18372657,00000100,false,Rx,0,8,00,00,00,00,9A,01,C8,00,
18372903,00000101,false,Rx,0,8,00,FF,FE,00,00,00,00,00,
18373148,00000102,false,Rx,0,8,00,90,01,00,00,01,64,00,
18472657,00000100,false,Rx,0,8,00,00,00,00,9A,01,C8,00,
18472902,00000101,false,Rx,0,8,00,FF,FE,00,00,00,00,00,
18473148,00000102,false,Rx,0,8,00,90,01,00,00,01,64,00,
18538329,00000524,false,Rx,0,6,03,06,F0,FF,FF,FF,00,00,
18572654,00000100,false,Rx,0,8,00,00,00,00,9A,01,C8,00,
18572902,00000101,false,Rx,0,8,00,FF,FE,00,00,00,00,00,
18573148,00000102,false,Rx,0,8,00,90,01,00,00,01,64,00,
18638851,00000528,false,Rx,0,6,07,0C,A3,0F,00,00,00,00,
18672647,00000100,false,Rx,0,8,00,00,00,00,9A,01,C8,00,
18672901,00000101,false,Rx,0,8,00,FF,FE,00,00,00,00,00,
18673147,00000102,false,Rx,0,8,00,90,01,00,00,01,64,00,
18761387,00000522,false,Rx,0,6,01,09,EA,DC,05,00,00,00,
18767705,00000527,false,Rx,0,6,06,06,98,94,00,00,00,00,
18772643,00000100,false,Rx,0,8,00,00,00,00,9A,01,C8,00,
18772894,00000101,false,Rx,0,8,00,FF,FE,00,00,00,00,00,
18773139,00000102,false,Rx,0,8,00,90,01,00,00,01,64,00,
18872643,00000100,false,Rx,0,8,00,00,00,00,9A,01,C8,00,
18872896,00000101,false,Rx,0,8,00,FF,FE,00,00,00,00,00,
18873142,00000102,false,Rx,0,8,00,90,01,00,00,01,64,00,
18879932,00000525,false,Rx,0,6,04,03,17,01,00,00,00,00,
18902303,00000526,false,Rx,0,6,05,03,2C,01,00,00,00,00,
18906015,00000521,false,Rx,0,6,00,09,FA,FC,FF,FF,00,00,
18972645,00000100,false,Rx,0,8,00,00,00,00,9A,01,C8,00,
18972891,00000101,false,Rx,0,8,00,FF,FE,00,00,00,00,00,
18973137,00000102,false,Rx,0,8,00,90,01,00,00,01,64,00,
19008502,00000523,false,Rx,0,6,02,0E,F3,FF,FF,FF,00,00,
19072638,00000100,false,Rx,0,8,00,00,00,00,9A,01,C8,00,
19072891,00000101,false,Rx,0,8,00,FF,FE,00,00,00,00,00,
19073133,00000102,false,Rx,0,8,00,90,01,00,00,01,64,00,
19172639,00000100,false,Rx,0,8,00,00,00,00,9A,01,C8,00,
19172891,00000101,false,Rx,0,8,00,FF,FE,00,00,00,00,00,
19173133,00000102,false,Rx,0,8,00,90,01,00,00,01,64,00,
19203411,00000524,false,Rx,0,6,03,07,F5,FF,FF,FF,00,00,
19272639,00000100,false,Rx,0,8,00,00,00,00,9A,01,C8,00,
19272885,00000101,false,Rx,0,8,00,FF,FE,00,00,00,00,00,
19273128,00000102,false,Rx,0,8,00,90,01,00,00,01,64,00,
19372636,00000100,false,Rx,0,8,00,00,00,00,9A,01,C8,00,
19372882,00000101,false,Rx,0,8,00,FF,FE,00,00,00,00,00,
19373131,00000102,false,Rx,0,8,00,90,01,00,00,01,64,00,
19376283,00000528,false,Rx,0,6,07,0D,A3,0F,00,00,00,00,
19390263,00000522,false,Rx,0,6,01,0A,DF,DC,05,00,00,00,
19472635,00000100,false,Rx,0,8,00,00,00,00,9A,01,C8,00,
19472881,00000101,false,Rx,0,8,00,FF,FE,00,00,00,00,00,
19473130,00000102,false,Rx,0,8,00,90,01,00,00,01,64,00,
19486856,00000527,false,Rx,0,6,06,07,99,94,00,00,00,00,
19516851,00000521,false,Rx,0,6,00,0A,FE,FC,FF,FF,00,00,
19563094,00000525,false,Rx,0,6,04,04,17,01,00,00,00,00,
19572628,00000100,false,Rx,0,8,00,00,00,00,9A,01,C8,00,
19572880,00000101,false,Rx,0,8,00,FF,FE,00,00,00,00,00,
19573125,00000102,false,Rx,0,8,00,90,01,00,00,01,64,00,
19603412,00000526,false,Rx,0,6,05,04,1D,01,00,00,00,00,
19655512,00000523,false,Rx,0,6,02,0F,F3,FF,FF,FF,00,00,
19672629,00000100,false,Rx,0,8,00,00,00,00,9A,01,C8,00,
19672881,00000101,false,Rx,0,8,00,FF,FE,00,00,00,00,00,
19673121,00000102,false,Rx,0,8,00,90,01,00,00,01,64,00,
19772626,00000100,false,Rx,0,8,00,00,00,00,9A,01,C8,00,
19772878,00000101,false,Rx,0,8,00,FF,FE,00,00,00,00,00,
19773118,00000102,false,Rx,0,8,00,90,01,00,00,01,64,00,
19868509,00000524,false,Rx,0,6,03,08,F3,FF,FF,FF,00,00,
19872622,00000100,false,Rx,0,8,00,00,00,00,9A,01,C8,00,
19872875,00000101,false,Rx,0,8,00,FF,FE,00,00,00,00,00,
19873120,00000102,false,Rx,0,8,00,90,01,00,00,01,64,00,
19972621,00000100,false,Rx,0,8,00,00,00,00,9A,01,C8,00,
19972873,00000101,false,Rx,0,8,00,FF,FE,00,00,00,00,00,
19973120,00000102,false,Rx,0,8,00,90,01,00,00,01,64,00,
20019183,00000522,false,Rx,0,6,01,0B,E8,DC,05,00,00,00,
20072622,00000100,false,Rx,0,8,00,00,00,00,9A,01,C8,00,
20072874,00000101,false,Rx,0,8,00,FF,FE,00,00,00,00,00,
20073113,00000102,false,Rx,0,8,00,90,01,00,00,01,64,00,
20113712,00000528,false,Rx,0,6,07,0E,A3,0F,00,00,00,00,
20127697,00000521,false,Rx,0,6,00,0B,09,FD,FF,FF,00,00,
20172615,00000100,false,Rx,0,8,00,00,00,00,9A,01,C8,00,
20172870,00000101,false,Rx,0,8,00,FF,FE,00,00,00,00,00,
20173110,00000102,false,Rx,0,8,00,90,01,00,00,01,64,00,
20206132,00000527,false,Rx,0,6,06,08,99,94,00,00,00,00,
20246276,00000525,false,Rx,0,6,04,05,17,01,00,00,00,00,
20272619,00000100,false,Rx,0,8,00,00,00,00,9A,01,C8,00,
20272868,00000101,false,Rx,0,8,00,FF,FE,00,00,00,00,00,
20273114,00000102,false,Rx,0,8,00,90,01,00,00,01,64,00,
20302518,00000523,false,Rx,0,6,02,00,FC,FF,FF,FF,00,00,
20304838,00000526,false,Rx,0,6,05,05,26,01,00,00,00,00,
20372617,00000100,false,Rx,0,8,00,00,00,00,9A,01,C8,00,
20372863,00000101,false,Rx,0,8,00,FF,FE,00,00,00,00,00,
20373109,00000102,false,Rx,0,8,00,90,01,00,00,01,64,00,
20472615,00000100,false,Rx,0,8,00,00,00,00,9A,01,C8,00,
20472861,00000101,false,Rx,0,8,00,FF,FE,00,00,00,00,00,
20473107,00000102,false,Rx,0,8,00,90,01,00,00,01,64,00,
20533598,00000524,false,Rx,0,6,03,09,F2,FF,FF,FF,00,00,
20572608,00000100,false,Rx,0,8,00,00,00,00,9A,01,C8,00,
20572862,00000101,false,Rx,0,8,00,FF,FE,00,00,00,00,00,
20573102,00000102,false,Rx,0,8,00,90,01,00,00,01,64,00,
20648098,00000522,false,Rx,0,6,01,0C,E9,DC,05,00,00,00,
20672611,00000100,false,Rx,0,8,00,00,00,00,9A,01,C8,00,
20672870,00000101,false,Rx,0,8,00,FF,FE,00,00,00,00,00,
20673099,00000102,false,Rx,0,8,00,90,01,00,00,01,64,00,
20738530,00000521,false,Rx,0,6,00,0C,FB,FC,FF,FF,00,00,
20772601,00000100,false,Rx,0,8,00,00,00,00,9A,01,C8,00,
20772853,00000101,false,Rx,0,8,00,FF,FE,00,00,00,00,00,
20773098,00000102,false,Rx,0,8,00,90,01,00,00,01,64,00,
20851124,00000528,false,Rx,0,6,07,0F,A4,0F,00,00,00,00,
20872605,00000100,false,Rx,0,8,00,00,00,00,9A,01,C8,00,
20872856,00000101,false,Rx,0,8,00,FF,FE,00,00,00,00,00,
20873102,00000102,false,Rx,0,8,00,90,01,00,00,01,64,00,
20925471,00000527,false,Rx,0,6,06,09,9A,94,00,00,00,00,
20929453,00000525,false,Rx,0,6,04,06,17,01,00,00,00,00,
20949514,00000523,false,Rx,0,6,02,01,F4,FF,FF,FF,00,00,
20972604,00000100,false,Rx,0,8,00,00,00,00,9A,01,C8,00,
20972850,00000101,false,Rx,0,8,00,FF,FE,00,00,00,00,00,
20973094,00000102,false,Rx,0,8,00,90,01,00,00,01,64,00,
21005919,00000526,false,Rx,0,6,05,06,20,01,00,00,00,00,
21072597,00000100,false,Rx,0,8,00,00,00,00,9A,01,C8,00,
21072849,00000101,false,Rx,0,8,00,FF,FE,00,00,00,00,00,
21073091,00000102,false,Rx,0,8,00,90,01,00,00,01,64,00,
21172597,00000100,false,Rx,0,8,00,00,00,00,9A,01,C8,00,
21172850,00000101,false,Rx,0,8,00,FF,FE,00,00,00,00,00,
21173092,00000102,false,Rx,0,8,00,90,01,00,00,01,64,00,
21198678,00000524,false,Rx,0,6,03,0A,F6,FF,FF,FF,00,00,
21272593,00000100,false,Rx,0,8,00,00,00,00,9A,01,C8,00,
21272845,00000101,false,Rx,0,8,00,FF,FE,00,00,00,00,00,
21273105,00000102,false,Rx,0,8,00,90,01,00,00,01,64,00,
21277017,00000522,false,Rx,0,6,01,0D,E5,DC,05,00,00,00,
21349361,00000521,false,Rx,0,6,00,0D,00,FD,FF,FF,00,00,
21372593,00000100,false,Rx,0,8,00,00,00,00,9A,01,C8,00,
21372844,00000101,false,Rx,0,8,00,FF,FE,00,00,00,00,00,
21373084,00000102,false,Rx,0,8,00,90,01,00,00,01,64,00,
21472588,00000100,false,Rx,0,8,00,00,00,00,9A,01,C8,00,
21472841,00000101,false,Rx,0,8,00,FF,FE,00,00,00,00,00,
21473087,00000102,false,Rx,0,8,00,90,01,00,00,01,64,00,
21572585,00000100,false,Rx,0,8,00,00,00,00,9A,01,C8,00,
21572837,00000101,false,Rx,0,8,00,FF,FE,00,00,00,00,00,
21573083,00000102,false,Rx,0,8,00,90,01,00,00,01,64,00,
21588543,00000528,false,Rx,0,6,07,00,A4,0F,00,00,00,00,
21596512,00000523,false,Rx,0,6,02,02,F4,FF,FF,FF,00,00,
21612605,00000525,false,Rx,0,6,04,07,18,01,00,00,00,00,
21644797,00000527,false,Rx,0,6,06,0A,9A,94,00,00,00,00,
21672589,00000100,false,Rx,0,8,00,00,00,00,9A,01,C8,00,
21672837,00000101,false,Rx,0,8,00,FF,FE,00,00,00,00,00,
21673083,00000102,false,Rx,0,8,00,90,01,00,00,01,64,00,
21707359,00000526,false,Rx,0,6,05,07,28,01,00,00,00,00,
21772582,00000100,false,Rx,0,8,00,00,00,00,9A,01,C8,00,
21772835,00000101,false,Rx,0,8,00,FF,FE,00,00,00,00,00,
21773081,00000102,false,Rx,0,8,00,90,01,00,00,01,64,00,
21863754,00000524,false,Rx,0,6,03,0B,F4,FF,FF,FF,00,00,
21872583,00000100,false,Rx,0,8,00,00,00,00,9A,01,C8,00,
21872831,00000101,false,Rx,0,8,00,FF,FE,00,00,00,00,00,
21873077,00000102,false,Rx,0,8,00,90,01,00,00,01,64,00,
21905927,00000522,false,Rx,0,6,01,0E,F3,DC,05,00,00,00,
21960191,00000521,false,Rx,0,6,00,0E,FE,FC,FF,FF,00,00,
21972579,00000100,false,Rx,0,8,00,00,00,00,9A,01,C8,00,
21972834,00000101,false,Rx,0,8,00,FF,FE,00,00,00,00,00,
21973073,00000102,false,Rx,0,8,00,90,01,00,00,01,64,00,
22072579,00000100,false,Rx,0,8,00,00,00,00,9A,01,C8,00,
22072836,00000101,false,Rx,0,8,00,FF,FE,00,00,00,00,00,
22073070,00000102,false,Rx,0,8,00,90,01,00,00,01,64,00,
22172576,00000100,false,Rx,0,8,00,00,00,00,9A,01,C8,00,
22172827,00000101,false,Rx,0,8,00,FF,FE,00,00,00,00,00,
22173070,00000102,false,Rx,0,8,00,90,01,00,00,01,64,00,
22243499,00000523,false,Rx,0,6,02,03,F3,FF,FF,FF,00,00,
22272573,00000100,false,Rx,0,8,00,00,00,00,9A,01,C8,00,
22272825,00000101,false,Rx,0,8,00,FF,FE,00,00,00,00,00,
22273070,00000102,false,Rx,0,8,00,90,01,00,00,01,64,00,
22295758,00000525,false,Rx,0,6,04,08,17,01,00,00,00,00,
22325949,00000528,false,Rx,0,6,07,01,A4,0F,00,00,00,00,
22364118,00000527,false,Rx,0,6,06,0B,9B,94,00,00,00,00,
22372570,00000100,false,Rx,0,8,00,00,00,00,9A,01,C8,00,
22372822,00000101,false,Rx,0,8,00,FF,FE,00,00,00,00,00,
22373063,00000102,false,Rx,0,8,00,90,01,00,00,01,64,00,
22408663,00000526,false,Rx,0,6,05,08,29,01,00,00,00,00,
22472569,00000100,false,Rx,0,8,00,00,00,00,9A,01,C8,00,
22472822,00000101,false,Rx,0,8,00,FF,FE,00,00,00,00,00,
22473064,00000102,false,Rx,0,8,00,90,01,00,00,01,64,00,
22529147,00000524,false,Rx,0,6,03,0C,EB,FF,FF,FF,00,00,
22534831,00000522,false,Rx,0,6,01,0F,E8,DC,05,00,00,00,
22571004,00000521,false,Rx,0,6,00,0F,FF,FC,FF,FF,00,00,
22572568,00000100,false,Rx,0,8,00,00,00,00,9A,01,C8,00,
22572820,00000101,false,Rx,0,8,00,FF,FE,00,00,00,00,00,
22573064,00000102,false,Rx,0,8,00,90,01,00,00,01,64,00,
22672567,00000100,false,Rx,0,8,00,00,00,00,9A,01,C8,00,
22672820,00000101,false,Rx,0,8,00,FF,FE,00,00,00,00,00,
22673073,00000102,false,Rx,0,8,00,90,01,00,00,01,64,00,
22772567,00000100,false,Rx,0,8,00,00,00,00,9A,01,C8,00,
22772813,00000101,false,Rx,0,8,00,FF,FE,00,00,00,00,00,
22773059,00000102,false,Rx,0,8,00,90,01,00,00,01,64,00,
22872561,00000100,false,Rx,0,8,00,00,00,00,9A,01,C8,00,
22872813,00000101,false,Rx,0,8,00,FF,FE,00,00,00,00,00,
22873059,00000102,false,Rx,0,8,00,90,01,00,00,01,64,00,
22890802,00000523,false,Rx,0,6,02,04,EB,FF,FF,FF,00,00,
22972561,00000100,false,Rx,0,8,00,00,00,00,9A,01,C8,00,
22972807,00000101,false,Rx,0,8,00,FF,FE,00,00,00,00,00,
22973052,00000102,false,Rx,0,8,00,90,01,00,00,01,64,00,
22978909,00000525,false,Rx,0,6,04,09,18,01,00,00,00,00,
23063363,00000528,false,Rx,0,6,07,02,A4,0F,00,00,00,00,
23072556,00000100,false,Rx,0,8,00,00,00,00,9A,01,C8,00,
23072811,00000101,false,Rx,0,8,00,FF,FE,00,00,00,00,00,
23073050,00000102,false,Rx,0,8,00,90,01,00,00,01,64,00,
23083454,00000527,false,Rx,0,6,06,0C,9B,94,00,00,00,00,
23109803,00000526,false,Rx,0,6,05,09,20,01,00,00,00,00,
23163747,00000522,false,Rx,0,6,01,00,E1,DC,05,00,00,00,
23172559,00000100,false,Rx,0,8,00,00,00,00,9A,01,C8,00,
23172808,00000101,false,Rx,0,8,00,FF,FE,00,00,00,00,00,
23173054,00000102,false,Rx,0,8,00,90,01,00,00,01,64,00,
23181826,00000521,false,Rx,0,6,00,00,FD,FC,FF,FF,00,00,
23193895,00000524,false,Rx,0,6,03,0D,E2,FF,FF,FF,00,00,
23272556,00000100,false,Rx,0,8,00,00,00,00,9A,01,C8,00,
23272802,00000101,false,Rx,0,8,00,FF,FE,00,00,00,00,00,
23273047,00000102,false,Rx,0,8,00,90,01,00,00,01,64,00,
23372552,00000100,false,Rx,0,8,00,00,00,00,9A,01,C8,00,
23372805,00000101,false,Rx,0,8,00,FF,FE,00,00,00,00,00,
23373044,00000102,false,Rx,0,8,00,90,01,00,00,01,64,00,
23472552,00000100,false,Rx,0,8,00,00,00,00,9A,01,C8,00,
23472810,00000101,false,Rx,0,8,00,FF,FE,00,00,00,00,00,
23473045,00000102,false,Rx,0,8,00,90,01,00,00,01,64,00,
23537500,00000523,false,Rx,0,6,02,05,EB,FF,FF,FF,00,00,
23572545,00000100,false,Rx,0,8,00,00,00,00,9A,01,C8,00,
23572797,00000101,false,Rx,0,8,00,FF,FE,00,00,00,00,00,
23573042,00000102,false,Rx,0,8,00,90,01,00,00,01,64,00,
23662088,00000525,false,Rx,0,6,04,0A,17,01,00,00,00,00,
23672544,00000100,false,Rx,0,8,00,00,00,00,9A,01,C8,00,
23672796,00000101,false,Rx,0,8,00,FF,FE,00,00,00,00,00,
23673041,00000102,false,Rx,0,8,00,90,01,00,00,01,64,00,
23772543,00000100,false,Rx,0,8,00,00,00,00,9A,01,C8,00,
23772795,00000101,false,Rx,0,8,00,FF,FE,00,00,00,00,00,
23773038,00000102,false,Rx,0,8,00,90,01,00,00,01,64,00,
23792990,00000521,false,Rx,0,6,00,01,04,FD,FF,FF,00,00,
23793204,00000522,false,Rx,0,6,01,01,E9,DC,05,00,00,00,
23800779,00000528,false,Rx,0,6,07,03,A4,0F,00,00,00,00,
23802792,00000527,false,Rx,0,6,06,0D,9C,94,00,00,00,00,
23810903,00000526,false,Rx,0,6,05,0A,16,01,00,00,00,00,
23858992,00000524,false,Rx,0,6,03,0E,FB,FF,FF,FF,00,00,
23872542,00000100,false,Rx,0,8,00,00,00,00,9A,01,C8,00,
23872787,00000101,false,Rx,0,8,00,FF,FE,00,00,00,00,00,
23873032,00000102,false,Rx,0,8,00,90,01,00,00,01,64,00,
23972540,00000100,false,Rx,0,8,00,00,00,00,9A,01,C8,00,
23972786,00000101,false,Rx,0,8,00,FF,FE,00,00,00,00,00,
23973035,00000102,false,Rx,0,8,00,90,01,00,00,01,64,00,
24072533,00000100,false,Rx,0,8,00,00,00,00,9A,01,C8,00,
24072785,00000101,false,Rx,0,8,00,FF,FE,00,00,00,00,00,
24073039,00000102,false,Rx,0,8,00,90,01,00,00,01,64,00,
24172536,00000100,false,Rx,0,8,00,00,00,00,9A,01,C8,00,
24172782,00000101,false,Rx,0,8,00,FF,FE,00,00,00,00,00,
24173027,00000102,false,Rx,0,8,00,90,01,00,00,01,64,00,
24184506,00000523,false,Rx,0,6,02,06,E9,FF,FF,FF,00,00,
24272530,00000100,false,Rx,0,8,00,00,00,00,9A,01,C8,00,
24272783,00000101,false,Rx,0,8,00,FF,FE,00,00,00,00,00,
24273029,00000102,false,Rx,0,8,00,90,01,00,00,01,64,00,
24345275,00000525,false,Rx,0,6,04,0B,17,01,00,00,00,00,
24372527,00000100,false,Rx,0,8,00,00,00,00,9A,01,C8,00,
24372779,00000101,false,Rx,0,8,00,FF,FE,00,00,00,00,00,
24373025,00000102,false,Rx,0,8,00,90,01,00,00,01,64,00,
24403518,00000521,false,Rx,0,6,00,02,03,FD,FF,FF,00,00,
24421608,00000522,false,Rx,0,6,01,02,FB,DC,05,00,00,00,
24472531,00000100,false,Rx,0,8,00,00,00,00,9A,01,C8,00,
24472777,00000101,false,Rx,0,8,00,FF,FE,00,00,00,00,00,
24473023,00000102,false,Rx,0,8,00,90,01,00,00,01,64,00,
24512356,00000526,false,Rx,0,6,05,0B,25,01,00,00,00,00,
24522146,00000527,false,Rx,0,6,06,0E,9C,94,00,00,00,00,
24524094,00000524,false,Rx,0,6,03,0F,F5,FF,FF,FF,00,00,
24538226,00000528,false,Rx,0,6,07,04,A4,0F,00,00,00,00,
24572528,00000100,false,Rx,0,8,00,00,00,00,9A,01,C8,00,
24572774,00000101,false,Rx,0,8,00,FF,FE,00,00,00,00,00,
24573021,00000102,false,Rx,0,8,00,90,01,00,00,01,64,00,
24672527,00000100,false,Rx,0,8,00,00,00,00,9A,01,C8,00,
24672773,00000101,false,Rx,0,8,00,FF,FE,00,00,00,00,00,
24673018,00000102,false,Rx,0,8,00,90,01,00,00,01,64,00,
24772521,00000100,false,Rx,0,8,00,00,00,00,9A,01,C8,00,
24772772,00000101,false,Rx,0,8,00,FF,FE,00,00,00,00,00,
24773019,00000102,false,Rx,0,8,00,90,01,00,00,01,64,00,
24831518,00000523,false,Rx,0,6,02,07,F4,FF,FF,FF,00,00,
24872517,00000100,false,Rx,0,8,00,00,00,00,9A,01,C8,00,
24872772,00000101,false,Rx,0,8,00,FF,FE,00,00,00,00,00,
24873011,00000102,false,Rx,0,8,00,90,01,00,00,01,64,00,
24972518,00000100,false,Rx,0,8,00,00,00,00,9A,01,C8,00,
24972770,00000101,false,Rx,0,8,00,FF,FE,00,00,00,00,00,
24973009,00000102,false,Rx,0,8,00,90,01,00,00,01,64,00,
25014354,00000521,false,Rx,0,6,00,03,04,FD,FF,FF,00,00,
25028470,00000525,false,Rx,0,6,04,0C,17,01,00,00,00,00,
25050525,00000522,false,Rx,0,6,01,03,FF,DC,05,00,00,00,
25072512,00000100,false,Rx,0,8,00,00,00,00,9A,01,C8,00,
25072763,00000101,false,Rx,0,8,00,FF,FE,00,00,00,00,00,
25073010,00000102,false,Rx,0,8,00,90,01,00,00,01,64,00,
25172512,00000100,false,Rx,0,8,00,00,00,00,9A,01,C8,00,
25172764,00000101,false,Rx,0,8,00,FF,FE,00,00,00,00,00,
25173010,00000102,false,Rx,0,8,00,90,01,00,00,01,64,00,
25189196,00000524,false,Rx,0,6,03,00,EC,FF,FF,FF,00,00,
25213446,00000526,false,Rx,0,6,05,0C,2D,01,00,00,00,00,
25241815,00000527,false,Rx,0,6,06,0F,9D,94,00,00,00,00,
25272514,00000100,false,Rx,0,8,00,00,00,00,9A,01,C8,00,
25272759,00000101,false,Rx,0,8,00,FF,FE,00,00,00,00,00,
25273004,00000102,false,Rx,0,8,00,90,01,00,00,01,64,00,
25275659,00000528,false,Rx,0,6,07,05,A4,0F,00,00,00,00,
25372510,00000100,false,Rx,0,8,00,00,00,00,9A,01,C8,00,
25372762,00000101,false,Rx,0,8,00,FF,FE,00,00,00,00,00,
25373004,00000102,false,Rx,0,8,00,90,01,00,00,01,64,00,
25472508,00000100,false,Rx,0,8,00,00,00,00,9A,01,C8,00,
25472760,00000101,false,Rx,0,8,00,FF,FE,00,00,00,00,00,
25473002,00000102,false,Rx,0,8,00,90,01,00,00,01,64,00,
25478543,00000523,false,Rx,0,6,02,08,F4,FF,FF,FF,00,00,
25572506,00000100,false,Rx,0,8,00,00,00,00,9A,01,C8,00,
25572758,00000101,false,Rx,0,8,00,FF,FE,00,00,00,00,00,
25573002,00000102,false,Rx,0,8,00,90,01,00,00,01,64,00,
25625215,00000521,false,Rx,0,6,00,04,FD,FC,FF,FF,00,00,
25672506,00000100,false,Rx,0,8,00,00,00,00,9A,01,C8,00,
25672752,00000101,false,Rx,0,8,00,FF,FE,00,00,00,00,00,
25672997,00000102,false,Rx,0,8,00,90,01,00,00,01,64,00,
25679473,00000522,false,Rx,0,6,01,04,EE,DC,05,00,00,00,
25711647,00000525,false,Rx,0,6,04,0D,17,01,00,00,00,00,
25772503,00000100,false,Rx,0,8,00,00,00,00,9A,01,C8,00,
25772755,00000101,false,Rx,0,8,00,FF,FE,00,00,00,00,00,
25772998,00000102,false,Rx,0,8,00,90,01,00,00,01,64,00,
25854303,00000524,false,Rx,0,6,03,01,F5,FF,FF,FF,00,00,
25872498,00000100,false,Rx,0,8,00,00,00,00,9A,01,C8,00,
25872750,00000101,false,Rx,0,8,00,FF,FE,00,00,00,00,00,
25872990,00000102,false,Rx,0,8,00,90,01,00,00,01,64,00,
25914911,00000526,false,Rx,0,6,05,0D,24,01,00,00,00,00,
25961175,00000527,false,Rx,0,6,06,00,9D,94,00,00,00,00,
25972493,00000100,false,Rx,0,8,00,00,00,00,9A,01,C8,00,
25972744,00000101,false,Rx,0,8,00,FF,FE,00,00,00,00,00,
25972991,00000102,false,Rx,0,8,00,90,01,00,00,01,64,00,
26013112,00000528,false,Rx,0,6,07,06,A4,0F,00,00,00,00,
26072492,00000100,false,Rx,0,8,00,00,00,00,9A,01,C8,00,
26072744,00000101,false,Rx,0,8,00,FF,FE,00,00,00,00,00,
26072990,00000102,false,Rx,0,8,00,90,01,00,00,01,64,00,
26125575,00000523,false,Rx,0,6,02,09,FB,FF,FF,FF,00,00,
26172493,00000100,false,Rx,0,8,00,00,00,00,9A,01,C8,00,
26172745,00000101,false,Rx,0,8,00,FF,FE,00,00,00,00,00,
26172985,00000102,false,Rx,0,8,00,90,01,00,00,01,64,00,
26236574,00000521,false,Rx,0,6,00,05,00,FD,FF,FF,00,00,
26272486,00000100,false,Rx,0,8,00,00,00,00,9A,01,C8,00,
26272738,00000101,false,Rx,0,8,00,FF,FE,00,00,00,00,00,
26272984,00000102,false,Rx,0,8,00,90,01,00,00,01,64,00,
26308419,00000522,false,Rx,0,6,01,05,EB,DC,05,00,00,00,
26372487,00000100,false,Rx,0,8,00,00,00,00,9A,01,C8,00,
26372740,00000101,false,Rx,0,8,00,FF,FE,00,00,00,00,00,
26372979,00000102,false,Rx,0,8,00,90,01,00,00,01,64,00,
26394850,00000525,false,Rx,0,6,04,0E,17,01,00,00,00,00,
26472487,00000100,false,Rx,0,8,00,00,00,00,9A,01,C8,00,
26472739,00000101,false,Rx,0,8,00,FF,FE,00,00,00,00,00,
26472979,00000102,false,Rx,0,8,00,90,01,00,00,01,64,00,
26519424,00000524,false,Rx,0,6,03,02,F9,FF,FF,FF,00,00,
26572486,00000100,false,Rx,0,8,00,00,00,00,9A,01,C8,00,
26572738,00000101,false,Rx,0,8,00,FF,FE,00,00,00,00,00,
26572977,00000102,false,Rx,0,8,00,90,01,00,00,01,64,00,
26616192,00000526,false,Rx,0,6,05,0E,29,01,00,00,00,00,
26672483,00000100,false,Rx,0,8,00,00,00,00,9A,01,C8,00,
26672736,00000101,false,Rx,0,8,00,FF,FE,00,00,00,00,00,
26672975,00000102,false,Rx,0,8,00,90,01,00,00,01,64,00,
26680229,00000527,false,Rx,0,6,06,01,9E,94,00,00,00,00,
26750562,00000528,false,Rx,0,6,07,07,A4,0F,00,00,00,00,
26772480,00000100,false,Rx,0,8,00,00,00,00,9A,01,C8,00,
26772732,00000101,false,Rx,0,8,00,FF,FE,00,00,00,00,00,
26772978,00000102,false,Rx,0,8,00,90,01,00,00,01,64,00,
26773180,00000523,false,Rx,0,6,02,0A,ED,FF,FF,FF,00,00,
26846928,00000521,false,Rx,0,6,00,06,02,FD,FF,FF,00,00,
26872474,00000100,false,Rx,0,8,00,00,00,00,9A,01,C8,00,
26872726,00000101,false,Rx,0,8,00,FF,FE,00,00,00,00,00,
26872971,00000102,false,Rx,0,8,00,90,01,00,00,01,64,00,
26937352,00000522,false,Rx,0,6,01,06,E9,DC,05,00,00,00,
26972475,00000100,false,Rx,0,8,00,00,00,00,9A,01,C8,00,
26972727,00000101,false,Rx,0,8,00,FF,FE,00,00,00,00,00,
26972966,00000102,false,Rx,0,8,00,90,01,00,00,01,64,00,
27072473,00000100,false,Rx,0,8,00,00,00,00,9A,01,C8,00,
27072725,00000101,false,Rx,0,8,00,FF,FE,00,00,00,00,00,
27072971,00000102,false,Rx,0,8,00,90,01,00,00,01,64,00,
27078048,00000525,false,Rx,0,6,04,0F,17,01,00,00,00,00,
27172474,00000100,false,Rx,0,8,00,00,00,00,9A,01,C8,00,
27172719,00000101,false,Rx,0,8,00,FF,FE,00,00,00,00,00,
27172966,00000102,false,Rx,0,8,00,90,01,00,00,01,64,00,
27184530,00000524,false,Rx,0,6,03,03,00,00,00,00,00,00,
27272475,00000100,false,Rx,0,8,00,00,00,00,9A,01,C8,00,
27272721,00000101,false,Rx,0,8,00,FF,FE,00,00,00,00,00,
27272967,00000102,false,Rx,0,8,00,90,01,00,00,01,64,00,
27317680,00000526,false,Rx,0,6,05,0F,27,01,00,00,00,00,
27372475,00000100,false,Rx,0,8,00,00,00,00,9A,01,C8,00,
27372714,00000101,false,Rx,0,8,00,FF,FE,00,00,00,00,00,
27372961,00000102,false,Rx,0,8,00,90,01,00,00,01,64,00,
27399585,00000527,false,Rx,0,6,06,02,9F,94,00,00,00,00,
27419623,00000523,false,Rx,0,6,02,0B,ED,FF,FF,FF,00,00,
27457783,00000521,false,Rx,0,6,00,07,02,FD,FF,FF,00,00,
27472474,00000100,false,Rx,0,8,00,00,00,00,9A,01,C8,00,
27472716,00000101,false,Rx,0,8,00,FF,FE,00,00,00,00,00,
27472962,00000102,false,Rx,0,8,00,90,01,00,00,01,64,00,
27487993,00000528,false,Rx,0,6,07,08,A4,0F,00,00,00,00,
27566288,00000522,false,Rx,0,6,01,07,EC,DC,05,00,00,00,
27572472,00000100,false,Rx,0,8,00,00,00,00,9A,01,C8,00,
27572715,00000101,false,Rx,0,8,00,FF,FE,00,00,00,00,00,
27572961,00000102,false,Rx,0,8,00,90,01,00,00,01,64,00,
27672472,00000100,false,Rx,0,8,00,00,00,00,9A,01,C8,00,
27672712,00000101,false,Rx,0,8,00,FF,FE,00,00,00,00,00,
27672958,00000102,false,Rx,0,8,00,90,01,00,00,01,64,00,
27761226,00000525,false,Rx,0,6,04,00,17,01,00,00,00,00,
27772468,00000100,false,Rx,0,8,00,00,00,00,9A,01,C8,00,
27772708,00000101,false,Rx,0,8,00,FF,FE,00,00,00,00,00,
27772952,00000102,false,Rx,0,8,00,90,01,00,00,01,64,00,
27849623,00000524,false,Rx,0,6,03,04,FB,FF,FF,FF,00,00,
27872454,00000100,false,Rx,0,8,00,00,00,00,9A,01,C8,00,
27872714,00000101,false,Rx,0,8,00,FF,FE,00,00,00,00,00,
27872954,00000102,false,Rx,0,8,00,90,01,00,00,01,64,00,
27972457,00000100,false,Rx,0,8,00,00,00,00,9A,01,C8,00,
27972718,00000101,false,Rx,0,8,00,FF,FE,00,00,00,00,00,
27972947,00000102,false,Rx,0,8,00,90,01,00,00,01,64,00,
28018548,00000526,false,Rx,0,6,05,00,15,01,00,00,00,00,
28066623,00000523,false,Rx,0,6,02,0C,FB,FF,FF,FF,00,00,
28068629,00000521,false,Rx,0,6,00,08,0B,FD,FF,FF,00,00,
28072452,00000100,false,Rx,0,8,00,00,00,00,9A,01,C8,00,
28072704,00000101,false,Rx,0,8,00,FF,FE,00,00,00,00,00,
28072946,00000102,false,Rx,0,8,00,90,01,00,00,01,64,00,
28118942,00000527,false,Rx,0,6,06,03,9F,94,00,00,00,00,
28172459,00000100,false,Rx,0,8,00,00,00,00,9A,01,C8,00,
28172699,00000101,false,Rx,0,8,00,FF,FE,00,00,00,00,00,
28172948,00000102,false,Rx,0,8,00,90,01,00,00,01,64,00,
28195543,00000522,false,Rx,0,6,01,08,F1,DC,05,00,00,00,
28225727,00000528,false,Rx,0,6,07,09,A4,0F,00,00,00,00,
28272456,00000100,false,Rx,0,8,00,00,00,00,9A,01,C8,00,
28272696,00000101,false,Rx,0,8,00,FF,FE,00,00,00,00,00,
28272946,00000102,false,Rx,0,8,00,90,01,00,00,01,64,00,
28372456,00000100,false,Rx,0,8,00,00,00,00,9A,01,C8,00,
28372695,00000101,false,Rx,0,8,00,FF,FE,00,00,00,00,00,
28372940,00000102,false,Rx,0,8,00,90,01,00,00,01,64,00,
28444410,00000525,false,Rx,0,6,04,01,17,01,00,00,00,00,
28472450,00000100,false,Rx,0,8,00,00,00,00,9A,01,C8,00,
28472696,00000101,false,Rx,0,8,00,FF,FE,00,00,00,00,00,
28472942,00000102,false,Rx,0,8,00,90,01,00,00,01,64,00,
28514736,00000524,false,Rx,0,6,03,05,F1,FF,FF,FF,00,00,
28572451,00000100,false,Rx,0,8,00,00,00,00,9A,01,C8,00,
28572697,00000101,false,Rx,0,8,00,FF,FE,00,00,00,00,00,
28572936,00000102,false,Rx,0,8,00,90,01,00,00,01,64,00,
28672448,00000100,false,Rx,0,8,00,00,00,00,9A,01,C8,00,
28672688,00000101,false,Rx,0,8,00,FF,FE,00,00,00,00,00,
28672934,00000102,false,Rx,0,8,00,90,01,00,00,01,64,00,
28679477,00000521,false,Rx,0,6,00,09,00,FD,FF,FF,00,00,
28713656,00000523,false,Rx,0,6,02,0D,E9,FF,FF,FF,00,00,
28720007,00000526,false,Rx,0,6,05,01,17,01,00,00,00,00,
28772448,00000100,false,Rx,0,8,00,00,00,00,9A,01,C8,00,
28772687,00000101,false,Rx,0,8,00,FF,FE,00,00,00,00,00,
28772933,00000102,false,Rx,0,8,00,90,01,00,00,01,64,00,
28824159,00000522,false,Rx,0,6,01,09,FB,DC,05,00,00,00,
28838291,00000527,false,Rx,0,6,06,04,A0,94,00,00,00,00,
28872437,00000100,false,Rx,0,8,00,00,00,00,9A,01,C8,00,
28872684,00000101,false,Rx,0,8,00,FF,FE,00,00,00,00,00,
28872930,00000102,false,Rx,0,8,00,90,01,00,00,01,64,00,
28962888,00000528,false,Rx,0,6,07,0A,A4,0F,00,00,00,00,
28972432,00000100,false,Rx,0,8,00,00,00,00,9A,01,C8,00,
28972682,00000101,false,Rx,0,8,00,FF,FE,00,00,00,00,00,
28972929,00000102,false,Rx,0,8,00,90,01,00,00,01,64,00,
29072428,00000100,false,Rx,0,8,00,00,00,00,9A,01,C8,00,
29072682,00000101,false,Rx,0,8,00,FF,FE,00,00,00,00,00,
29072926,00000102,false,Rx,0,8,00,90,01,00,00,01,64,00,
29127607,00000525,false,Rx,0,6,04,02,18,01,00,00,00,00,
29172430,00000100,false,Rx,0,8,00,00,00,00,9A,01,C8,00,
29172678,00000101,false,Rx,0,8,00,FF,FE,00,00,00,00,00,
29172922,00000102,false,Rx,0,8,00,90,01,00,00,01,64,00,
29179838,00000524,false,Rx,0,6,03,06,FB,FF,FF,FF,00,00,
29272429,00000100,false,Rx,0,8,00,00,00,00,9A,01,C8,00,
29272676,00000101,false,Rx,0,8,00,FF,FE,00,00,00,00,00,
29272918,00000102,false,Rx,0,8,00,90,01,00,00,01,64,00,
29290329,00000521,false,Rx,0,6,00,0A,0E,FD,FF,FF,00,00,
29360658,00000523,false,Rx,0,6,02,0E,E9,FF,FF,FF,00,00,
29372423,00000100,false,Rx,0,8,00,00,00,00,9A,01,C8,00,
29372675,00000101,false,Rx,0,8,00,FF,FE,00,00,00,00,00,
29372921,00000102,false,Rx,0,8,00,90,01,00,00,01,64,00,
29421084,00000526,false,Rx,0,6,05,02,2D,01,00,00,00,00,
29453085,00000522,false,Rx,0,6,01,0A,0A,DD,05,00,00,00,
29472423,00000100,false,Rx,0,8,00,00,00,00,9A,01,C8,00,
29472670,00000101,false,Rx,0,8,00,FF,FE,00,00,00,00,00,
29472915,00000102,false,Rx,0,8,00,90,01,00,00,01,64,00,
29557636,00000527,false,Rx,0,6,06,05,A0,94,00,00,00,00,
29572423,00000100,false,Rx,0,8,00,00,00,00,9A,01,C8,00,
29572671,00000101,false,Rx,0,8,00,FF,FE,00,00,00,00,00,
29572916,00000102,false,Rx,0,8,00,90,01,00,00,01,64,00,
29672420,00000100,false,Rx,0,8,00,00,00,00,9A,01,C8,00,
29672667,00000101,false,Rx,0,8,00,FF,FE,00,00,00,00,00,
29672916,00000102,false,Rx,0,8,00,90,01,00,00,01,64,00,
29700309,00000528,false,Rx,0,6,07,0B,A4,0F,00,00,00,00,
29772418,00000100,false,Rx,0,8,00,00,00,00,9A,01,C8,00,
29772664,00000101,false,Rx,0,8,00,FF,FE,00,00,00,00,00,
29772914,00000102,false,Rx,0,8,00,90,01,00,00,01,64,00,
29810769,00000525,false,Rx,0,6,04,03,17,01,00,00,00,00,
29844930,00000524,false,Rx,0,6,03,07,EB,FF,FF,FF,00,00,
29872412,00000100,false,Rx,0,8,00,00,00,00,9A,01,C8,00,
29872666,00000101,false,Rx,0,8,00,FF,FE,00,00,00,00,00,
29872906,00000102,false,Rx,0,8,00,90,01,00,00,01,64,00,
29901169,00000521,false,Rx,0,6,00,0B,FD,FC,FF,FF,00,00,
29972411,00000100,false,Rx,0,8,00,00,00,00,9A,01,C8,00,
29972665,00000101,false,Rx,0,8,00,FF,FE,00,00,00,00,00,
29972904,00000102,false,Rx,0,8,00,90,01,00,00,01,64,00,
30007675,00000523,false,Rx,0,6,02,0F,F2,FF,FF,FF,00,00,
30072411,00000100,false,Rx,0,8,00,00,00,00,9A,01,C8,00,
30072659,00000101,false,Rx,0,8,00,FF,FE,00,00,00,00,00,
30072905,00000102,false,Rx,0,8,00,90,01,00,00,01,64,00,
30082002,00000522,false,Rx,0,6,01,0B,12,DD,05,00,00,00,
30122537,00000526,false,Rx,0,6,05,03,25,01,00,00,00,00,
30172408,00000100,false,Rx,0,8,00,00,00,00,9A,01,C8,00,
30172656,00000101,false,Rx,0,8,00,FF,FE,00,00,00,00,00,
30172902,00000102,false,Rx,0,8,00,90,01,00,00,01,64,00,
30272407,00000100,false,Rx,0,8,00,00,00,00,9A,01,C8,00,
30272654,00000101,false,Rx,0,8,00,FF,FE,00,00,00,00,00,
30272900,00000102,false,Rx,0,8,00,90,01,00,00,01,64,00,
30276971,00000527,false,Rx,0,6,06,06,A1,94,00,00,00,00,
30372405,00000100,false,Rx,0,8,00,00,00,00,9A,01,C8,00,
30372652,00000101,false,Rx,0,8,00,FF,FE,00,00,00,00,00,
30372898,00000102,false,Rx,0,8,00,90,01,00,00,01,64,00,
30437716,00000528,false,Rx,0,6,07,0C,A4,0F,00,00,00,00,
30472402,00000100,false,Rx,0,8,00,00,00,00,9A,01,C8,00,
30472652,00000101,false,Rx,0,8,00,FF,FE,00,00,00,00,00,
30472898,00000102,false,Rx,0,8,00,90,01,00,00,01,64,00,
30493936,00000525,false,Rx,0,6,04,04,17,01,00,00,00,00,
30509998,00000524,false,Rx,0,6,03,08,F2,FF,FF,FF,00,00,
30511992,00000521,false,Rx,0,6,00,0C,06,FD,FF,FF,00,00,
30572401,00000100,false,Rx,0,8,00,00,00,00,9A,01,C8,00,
30572647,00000101,false,Rx,0,8,00,FF,FE,00,00,00,00,00,
30572894,00000102,false,Rx,0,8,00,90,01,00,00,01,64,00,
30654662,00000523,false,Rx,0,6,02,00,FE,FF,FF,FF,00,00,
30672397,00000100,false,Rx,0,8,00,00,00,00,9A,01,C8,00,
30672648,00000101,false,Rx,0,8,00,FF,FE,00,00,00,00,00,
30672894,00000102,false,Rx,0,8,00,90,01,00,00,01,64,00,
30710902,00000522,false,Rx,0,6,01,0C,FC,DC,05,00,00,00,
30772392,00000100,false,Rx,0,8,00,00,00,00,9A,01,C8,00,
30772646,00000101,false,Rx,0,8,00,FF,FE,00,00,00,00,00,
30772893,00000102,false,Rx,0,8,00,90,01,00,00,01,64,00,
30823779,00000526,false,Rx,0,6,05,04,2B,01,00,00,00,00,
30872392,00000100,false,Rx,0,8,00,00,00,00,9A,01,C8,00,
30872660,00000101,false,Rx,0,8,00,FF,FE,00,00,00,00,00,
30872889,00000102,false,Rx,0,8,00,90,01,00,00,01,64,00,
30972395,00000100,false,Rx,0,8,00,00,00,00,9A,01,C8,00,
30972642,00000101,false,Rx,0,8,00,FF,FE,00,00,00,00,00,
30972884,00000102,false,Rx,0,8,00,90,01,00,00,01,64,00,
30996300,00000527,false,Rx,0,6,06,07,A1,94,00,00,00,00,
31072392,00000100,false,Rx,0,8,00,00,00,00,9A,01,C8,00,
31072640,00000101,false,Rx,0,8,00,FF,FE,00,00,00,00,00,
31072883,00000102,false,Rx,0,8,00,90,01,00,00,01,64,00,
31122832,00000521,false,Rx,0,6,00,0D,03,FD,FF,FF,00,00,
31172386,00000100,false,Rx,0,8,00,00,00,00,9A,01,C8,00,
31172640,00000101,false,Rx,0,8,00,FF,FE,00,00,00,00,00,
31172879,00000102,false,Rx,0,8,00,90,01,00,00,01,64,00,
31175622,00000524,false,Rx,0,6,03,09,ED,FF,FF,FF,00,00,
31175843,00000528,false,Rx,0,6,07,0D,A4,0F,00,00,00,00,
31177133,00000525,false,Rx,0,6,04,05,17,01,00,00,00,00,
31272382,00000100,false,Rx,0,8,00,00,00,00,9A,01,C8,00,
31272635,00000101,false,Rx,0,8,00,FF,FE,00,00,00,00,00,
31272877,00000102,false,Rx,0,8,00,90,01,00,00,01,64,00,
31301655,00000523,false,Rx,0,6,02,01,FE,FF,FF,FF,00,00,
31339832,00000522,false,Rx,0,6,01,0D,02,DD,05,00,00,00,
31372380,00000100,false,Rx,0,8,00,00,00,00,9A,01,C8,00,
31372634,00000101,false,Rx,0,8,00,FF,FE,00,00,00,00,00,
31372874,00000102,false,Rx,0,8,00,90,01,00,00,01,64,00,
31472382,00000100,false,Rx,0,8,00,00,00,00,9A,01,C8,00,
31472628,00000101,false,Rx,0,8,00,FF,FE,00,00,00,00,00,
31472888,00000102,false,Rx,0,8,00,90,01,00,00,01,64,00,
31525005,00000526,false,Rx,0,6,05,05,2C,01,00,00,00,00,
31572381,00000100,false,Rx,0,8,00,00,00,00,9A,01,C8,00,
31572628,00000101,false,Rx,0,8,00,FF,FE,00,00,00,00,00,
31572874,00000102,false,Rx,0,8,00,90,01,00,00,01,64,00,
31672373,00000100,false,Rx,0,8,00,00,00,00,9A,01,C8,00,
31672627,00000101,false,Rx,0,8,00,FF,FE,00,00,00,00,00,
31672873,00000102,false,Rx,0,8,00,90,01,00,00,01,64,00,
31715650,00000527,false,Rx,0,6,06,08,A2,94,00,00,00,00,
31734671,00000521,false,Rx,0,6,00,0E,0C,FD,FF,FF,00,00,
31772374,00000100,false,Rx,0,8,00,00,00,00,9A,01,C8,00,
31772622,00000101,false,Rx,0,8,00,FF,FE,00,00,00,00,00,
31772868,00000102,false,Rx,0,8,00,90,01,00,00,01,64,00,
31840170,00000524,false,Rx,0,6,03,0A,EF,FF,FF,FF,00,00,
31860280,00000525,false,Rx,0,6,04,06,17,01,00,00,00,00,
31872370,00000100,false,Rx,0,8,00,00,00,00,9A,01,C8,00,
31872623,00000101,false,Rx,0,8,00,FF,FE,00,00,00,00,00,
31872869,00000102,false,Rx,0,8,00,90,01,00,00,01,64,00,
31912575,00000528,false,Rx,0,6,07,0E,A4,0F,00,00,00,00,
31948671,00000523,false,Rx,0,6,02,02,EF,FF,FF,FF,00,00,
31968751,00000522,false,Rx,0,6,01,0E,F3,DC,05,00,00,00,
31972369,00000100,false,Rx,0,8,00,00,00,00,9A,01,C8,00,
31972623,00000101,false,Rx,0,8,00,FF,FE,00,00,00,00,00,
31972863,00000102,false,Rx,0,8,00,90,01,00,00,01,64,00,
32072367,00000100,false,Rx,0,8,00,00,00,00,9A,01,C8,00,
32072621,00000101,false,Rx,0,8,00,FF,FE,00,00,00,00,00,
32072861,00000102,false,Rx,0,8,00,90,01,00,00,01,64,00,
32172365,00000100,false,Rx,0,8,00,00,00,00,9A,01,C8,00,
32172619,00000101,false,Rx,0,8,00,FF,FE,00,00,00,00,00,
32172858,00000102,false,Rx,0,8,00,90,01,00,00,01,64,00,
32226104,00000526,false,Rx,0,6,05,06,29,01,00,00,00,00,
32272361,00000100,false,Rx,0,8,00,00,00,00,9A,01,C8,00,
32272611,00000101,false,Rx,0,8,00,FF,FE,00,00,00,00,00,
32272858,00000102,false,Rx,0,8,00,90,01,00,00,01,64,00,
32345503,00000521,false,Rx,0,6,00,0F,FE,FC,FF,FF,00,00,
32372362,00000100,false,Rx,0,8,00,00,00,00,9A,01,C8,00,
32372613,00000101,false,Rx,0,8,00,FF,FE,00,00,00,00,00,
32372859,00000102,false,Rx,0,8,00,90,01,00,00,01,64,00,
32434979,00000527,false,Rx,0,6,06,09,A2,94,00,00,00,00,
32472358,00000100,false,Rx,0,8,00,00,00,00,9A,01,C8,00,
32472608,00000101,false,Rx,0,8,00,FF,FE,00,00,00,00,00,
32472854,00000102,false,Rx,0,8,00,90,01,00,00,01,64,00,
32505593,00000524,false,Rx,0,6,03,0B,F4,FF,FF,FF,00,00,
32543450,00000525,false,Rx,0,6,04,07,17,01,00,00,00,00,
32572356,00000100,false,Rx,0,8,00,00,00,00,9A,01,C8,00,
32572606,00000101,false,Rx,0,8,00,FF,FE,00,00,00,00,00,
32572852,00000102,false,Rx,0,8,00,90,01,00,00,01,64,00,
32596030,00000523,false,Rx,0,6,02,03,E8,FF,FF,FF,00,00,
32597698,00000522,false,Rx,0,6,01,0F,03,DD,05,00,00,00,
32650239,00000528,false,Rx,0,6,07,0F,A4,0F,00,00,00,00,
32672356,00000100,false,Rx,0,8,00,00,00,00,9A,01,C8,00,
32672603,00000101,false,Rx,0,8,00,FF,FE,00,00,00,00,00,
32672848,00000102,false,Rx,0,8,00,90,01,00,00,01,64,00,
32772352,00000100,false,Rx,0,8,00,00,00,00,9A,01,C8,00,
32772605,00000101,false,Rx,0,8,00,FF,FE,00,00,00,00,00,
32772848,00000102,false,Rx,0,8,00,90,01,00,00,01,64,00,
32872352,00000100,false,Rx,0,8,00,00,00,00,9A,01,C8,00,
32872600,00000101,false,Rx,0,8,00,FF,FE,00,00,00,00,00,
32872843,00000102,false,Rx,0,8,00,90,01,00,00,01,64,00,
32927711,00000526,false,Rx,0,6,05,07,1F,01,00,00,00,00,
32956353,00000521,false,Rx,0,6,00,00,FD,FC,FF,FF,00,00,
32972349,00000100,false,Rx,0,8,00,00,00,00,9A,01,C8,00,
32972603,00000101,false,Rx,0,8,00,FF,FE,00,00,00,00,00,
32972844,00000102,false,Rx,0,8,00,90,01,00,00,01,64,00,
33072349,00000100,false,Rx,0,8,00,00,00,00,9A,01,C8,00,
33072596,00000101,false,Rx,0,8,00,FF,FE,00,00,00,00,00,
33072845,00000102,false,Rx,0,8,00,90,01,00,00,01,64,00,
33154348,00000527,false,Rx,0,6,06,0A,A3,94,00,00,00,00,
33170368,00000524,false,Rx,0,6,03,0C,EC,FF,FF,FF,00,00,
33172343,00000100,false,Rx,0,8,00,00,00,00,9A,01,C8,00,
33172598,00000101,false,Rx,0,8,00,FF,FE,00,00,00,00,00,
33172839,00000102,false,Rx,0,8,00,90,01,00,00,01,64,00,
33226652,00000522,false,Rx,0,6,01,00,06,DD,05,00,00,00,
33226874,00000525,false,Rx,0,6,04,08,17,01,00,00,00,00,
33242708,00000523,false,Rx,0,6,02,04,E8,FF,FF,FF,00,00,
33272343,00000100,false,Rx,0,8,00,00,00,00,9A,01,C8,00,
33272591,00000101,false,Rx,0,8,00,FF,FE,00,00,00,00,00,
33272858,00000102,false,Rx,0,8,00,90,01,00,00,01,64,00,
33372344,00000100,false,Rx,0,8,00,00,00,00,9A,01,C8,00,
33372591,00000101,false,Rx,0,8,00,FF,FE,00,00,00,00,00,
33372837,00000102,false,Rx,0,8,00,90,01,00,00,01,64,00,
33387449,00000528,false,Rx,0,6,07,00,A5,0F,00,00,00,00,
33472340,00000100,false,Rx,0,8,00,00,00,00,9A,01,C8,00,
33472588,00000101,false,Rx,0,8,00,FF,FE,00,00,00,00,00,
33472834,00000102,false,Rx,0,8,00,90,01,00,00,01,64,00,
33567197,00000521,false,Rx,0,6,00,01,FD,FC,FF,FF,00,00,
33572337,00000100,false,Rx,0,8,00,00,00,00,9A,01,C8,00,
33572584,00000101,false,Rx,0,8,00,FF,FE,00,00,00,00,00,
33572830,00000102,false,Rx,0,8,00,90,01,00,00,01,64,00,
33628641,00000526,false,Rx,0,6,05,08,1E,01,00,00,00,00,
33672334,00000100,false,Rx,0,8,00,00,00,00,9A,01,C8,00,
33672581,00000101,false,Rx,0,8,00,FF,FE,00,00,00,00,00,
33672827,00000102,false,Rx,0,8,00,90,01,00,00,01,64,00,
33772331,00000100,false,Rx,0,8,00,00,00,00,9A,01,C8,00,
33772585,00000101,false,Rx,0,8,00,FF,FE,00,00,00,00,00,
33772825,00000102,false,Rx,0,8,00,90,01,00,00,01,64,00,
33835474,00000524,false,Rx,0,6,03,0D,EE,FF,FF,FF,00,00,
33855541,00000522,false,Rx,0,6,01,01,0B,DD,05,00,00,00,
33872331,00000100,false,Rx,0,8,00,00,00,00,9A,01,C8,00,
33872584,00000101,false,Rx,0,8,00,FF,FE,00,00,00,00,00,
33872823,00000102,false,Rx,0,8,00,90,01,00,00,01,64,00,
33873701,00000527,false,Rx,0,6,06,0B,A4,94,00,00,00,00,
33889720,00000523,false,Rx,0,6,02,05,F1,FF,FF,FF,00,00,
33909829,00000525,false,Rx,0,6,04,09,18,01,00,00,00,00,
33972331,00000100,false,Rx,0,8,00,00,00,00,9A,01,C8,00,
33972579,00000101,false,Rx,0,8,00,FF,FE,00,00,00,00,00,
33972825,00000102,false,Rx,0,8,00,90,01,00,00,01,64,00,
34072330,00000100,false,Rx,0,8,00,00,00,00,9A,01,C8,00,
34072577,00000101,false,Rx,0,8,00,FF,FE,00,00,00,00,00,
34072823,00000102,false,Rx,0,8,00,90,01,00,00,01,64,00,
34124879,00000528,false,Rx,0,6,07,01,A5,0F,00,00,00,00,
34172322,00000100,false,Rx,0,8,00,00,00,00,9A,01,C8,00,
34172572,00000101,false,Rx,0,8,00,FF,FE,00,00,00,00,00,
34172818,00000102,false,Rx,0,8,00,90,01,00,00,01,64,00,
34178037,00000521,false,Rx,0,6,00,02,FE,FC,FF,FF,00,00,
34272322,00000100,false,Rx,0,8,00,00,00,00,9A,01,C8,00,
34272570,00000101,false,Rx,0,8,00,FF,FE,00,00,00,00,00,
34272816,00000102,false,Rx,0,8,00,90,01,00,00,01,64,00,
34330084,00000526,false,Rx,0,6,05,09,20,01,00,00,00,00,
34372322,00000100,false,Rx,0,8,00,00,00,00,9A,01,C8,00,
34372569,00000101,false,Rx,0,8,00,FF,FE,00,00,00,00,00,
34372815,00000102,false,Rx,0,8,00,90,01,00,00,01,64,00,
34472315,00000100,false,Rx,0,8,00,00,00,00,9A,01,C8,00,
34472570,00000101,false,Rx,0,8,00,FF,FE,00,00,00,00,00,
34472812,00000102,false,Rx,0,8,00,90,01,00,00,01,64,00,
34484473,00000522,false,Rx,0,6,01,02,01,DD,05,00,00,00,
34500560,00000524,false,Rx,0,6,03,0E,FB,FF,FF,FF,00,00,
34536717,00000523,false,Rx,0,6,02,06,FB,FF,FF,FF,00,00,
34572314,00000100,false,Rx,0,8,00,00,00,00,9A,01,C8,00,
34572568,00000101,false,Rx,0,8,00,FF,FE,00,00,00,00,00,
34572806,00000102,false,Rx,0,8,00,90,01,00,00,01,64,00,
34593210,00000525,false,Rx,0,6,04,0A,17,01,00,00,00,00,
34593432,00000527,false,Rx,0,6,06,0C,A4,94,00,00,00,00,
34672312,00000100,false,Rx,0,8,00,00,00,00,9A,01,C8,00,
34672567,00000101,false,Rx,0,8,00,FF,FE,00,00,00,00,00,
34672808,00000102,false,Rx,0,8,00,90,01,00,00,01,64,00,
34772313,00000100,false,Rx,0,8,00,00,00,00,9A,01,C8,00,
34772560,00000101,false,Rx,0,8,00,FF,FE,00,00,00,00,00,
34772809,00000102,false,Rx,0,8,00,90,01,00,00,01,64,00,
34788877,00000521,false,Rx,0,6,00,03,FD,FC,FF,FF,00,00,
34862294,00000528,false,Rx,0,6,07,02,A5,0F,00,00,00,00,
34872312,00000100,false,Rx,0,8,00,00,00,00,9A,01,C8,00,
34872560,00000101,false,Rx,0,8,00,FF,FE,00,00,00,00,00,
34872805,00000102,false,Rx,0,8,00,90,01,00,00,01,64,00,
34972305,00000100,false,Rx,0,8,00,00,00,00,9A,01,C8,00,
34972558,00000101,false,Rx,0,8,00,FF,FE,00,00,00,00,00,
34972818,00000102,false,Rx,0,8,00,90,01,00,00,01,64,00,
35031344,00000526,false,Rx,0,6,05,0A,2A,01,00,00,00,00,
35072306,00000100,false,Rx,0,8,00,00,00,00,9A,01,C8,00,
35072554,00000101,false,Rx,0,8,00,FF,FE,00,00,00,00,00,
35072800,00000102,false,Rx,0,8,00,90,01,00,00,01,64,00,
35113376,00000522,false,Rx,0,6,01,03,12,DD,05,00,00,00,
35165643,00000524,false,Rx,0,6,03,0F,F6,FF,FF,FF,00,00,
35172302,00000100,false,Rx,0,8,00,00,00,00,9A,01,C8,00,
35172555,00000101,false,Rx,0,8,00,FF,FE,00,00,00,00,00,
35172801,00000102,false,Rx,0,8,00,90,01,00,00,01,64,00,
35183719,00000523,false,Rx,0,6,02,07,FB,FF,FF,FF,00,00,
35272299,00000100,false,Rx,0,8,00,00,00,00,9A,01,C8,00,
35272553,00000101,false,Rx,0,8,00,FF,FE,00,00,00,00,00,
35272792,00000102,false,Rx,0,8,00,90,01,00,00,01,64,00,
35276176,00000525,false,Rx,0,6,04,0B,17,01,00,00,00,00,
35312387,00000527,false,Rx,0,6,06,0D,A5,94,00,00,00,00,
35372300,00000100,false,Rx,0,8,00,00,00,00,9A,01,C8,00,
35372547,00000101,false,Rx,0,8,00,FF,FE,00,00,00,00,00,
35372794,00000102,false,Rx,0,8,00,90,01,00,00,01,64,00,
35399830,00000521,false,Rx,0,6,00,04,08,FD,FF,FF,00,00,
35472296,00000100,false,Rx,0,8,00,00,00,00,9A,01,C8,00,
35472550,00000101,false,Rx,0,8,00,FF,FE,00,00,00,00,00,
35472789,00000102,false,Rx,0,8,00,90,01,00,00,01,64,00,
35572292,00000100,false,Rx,0,8,00,00,00,00,9A,01,C8,00,
35572545,00000101,false,Rx,0,8,00,FF,FE,00,00,00,00,00,
35572791,00000102,false,Rx,0,8,00,90,01,00,00,01,64,00,
35599722,00000528,false,Rx,0,6,07,03,A5,0F,00,00,00,00,
35672293,00000100,false,Rx,0,8,00,00,00,00,9A,01,C8,00,
35672547,00000101,false,Rx,0,8,00,FF,FE,00,00,00,00,00,
35672786,00000102,false,Rx,0,8,00,90,01,00,00,01,64,00,
35732572,00000526,false,Rx,0,6,05,0B,25,01,00,00,00,00,
35742304,00000522,false,Rx,0,6,01,04,12,DD,05,00,00,00,
35772295,00000100,false,Rx,0,8,00,00,00,00,9A,01,C8,00,
35772541,00000101,false,Rx,0,8,00,FF,FE,00,00,00,00,00,
35772788,00000102,false,Rx,0,8,00,90,01,00,00,01,64,00,
35830766,00000523,false,Rx,0,6,02,08,FA,FF,FF,FF,00,00,
35830993,00000524,false,Rx,0,6,03,00,F9,FF,FF,FF,00,00,
35872286,00000100,false,Rx,0,8,00,00,00,00,9A,01,C8,00,
35872540,00000101,false,Rx,0,8,00,FF,FE,00,00,00,00,00,
35872786,00000102,false,Rx,0,8,00,90,01,00,00,01,64,00,
35959355,00000525,false,Rx,0,6,04,0C,17,01,00,00,00,00,
35972285,00000100,false,Rx,0,8,00,00,00,00,9A,01,C8,00,
35972535,00000101,false,Rx,0,8,00,FF,FE,00,00,00,00,00,
35972781,00000102,false,Rx,0,8,00,90,01,00,00,01,64,00,
36010559,00000521,false,Rx,0,6,00,05,02,FD,FF,FF,00,00,
36032171,00000527,false,Rx,0,6,06,0E,A5,94,00,00,00,00,
36072287,00000100,false,Rx,0,8,00,00,00,00,9A,01,C8,00,
36072538,00000101,false,Rx,0,8,00,FF,FE,00,00,00,00,00,
36072778,00000102,false,Rx,0,8,00,90,01,00,00,01,64,00,
36172285,00000100,false,Rx,0,8,00,00,00,00,9A,01,C8,00,
36172533,00000101,false,Rx,0,8,00,FF,FE,00,00,00,00,00,
36172776,00000102,false,Rx,0,8,00,90,01,00,00,01,64,00,
36272278,00000100,false,Rx,0,8,00,00,00,00,9A,01,C8,00,
36272532,00000101,false,Rx,0,8,00,FF,FE,00,00,00,00,00,
36272775,00000102,false,Rx,0,8,00,90,01,00,00,01,64,00,
36337158,00000528,false,Rx,0,6,07,04,A5,0F,00,00,00,00,
36371242,00000522,false,Rx,0,6,01,05,12,DD,05,00,00,00,
36372280,00000100,false,Rx,0,8,00,00,00,00,9A,01,C8,00,
36372527,00000101,false,Rx,0,8,00,FF,FE,00,00,00,00,00,
36372775,00000102,false,Rx,0,8,00,90,01,00,00,01,64,00,
36433677,00000526,false,Rx,0,6,05,0C,0D,01,00,00,00,00,
36472274,00000100,false,Rx,0,8,00,00,00,00,9A,01,C8,00,
36472529,00000101,false,Rx,0,8,00,FF,FE,00,00,00,00,00,
36472767,00000102,false,Rx,0,8,00,90,01,00,00,01,64,00,
36477753,00000523,false,Rx,0,6,02,09,EE,FF,FF,FF,00,00,
36495843,00000524,false,Rx,0,6,03,01,EC,FF,FF,FF,00,00,
36572278,00000100,false,Rx,0,8,00,00,00,00,9A,01,C8,00,
36572526,00000101,false,Rx,0,8,00,FF,FE,00,00,00,00,00,
36572768,00000102,false,Rx,0,8,00,90,01,00,00,01,64,00,
36621398,00000521,false,Rx,0,6,00,06,01,FD,FF,FF,00,00,
36642526,00000525,false,Rx,0,6,04,0D,17,01,00,00,00,00,
36672275,00000100,false,Rx,0,8,00,00,00,00,9A,01,C8,00,
36672523,00000101,false,Rx,0,8,00,FF,FE,00,00,00,00,00,
36672766,00000102,false,Rx,0,8,00,90,01,00,00,01,64,00,
36751077,00000527,false,Rx,0,6,06,0F,A6,94,00,00,00,00,
36772272,00000100,false,Rx,0,8,00,00,00,00,9A,01,C8,00,
36772519,00000101,false,Rx,0,8,00,FF,FE,00,00,00,00,00,
36772765,00000102,false,Rx,0,8,00,90,01,00,00,01,64,00,
36872271,00000100,false,Rx,0,8,00,00,00,00,9A,01,C8,00,
36872519,00000101,false,Rx,0,8,00,FF,FE,00,00,00,00,00,
36872764,00000102,false,Rx,0,8,00,90,01,00,00,01,64,00,
36972267,00000100,false,Rx,0,8,00,00,00,00,9A,01,C8,00,
36972513,00000101,false,Rx,0,8,00,FF,FE,00,00,00,00,00,
36972759,00000102,false,Rx,0,8,00,90,01,00,00,01,64,00,
37000170,00000522,false,Rx,0,6,01,06,00,DD,05,00,00,00,
37072268,00000100,false,Rx,0,8,00,00,00,00,9A,01,C8,00,
37072516,00000101,false,Rx,0,8,00,FF,FE,00,00,00,00,00,
37072755,00000102,false,Rx,0,8,00,90,01,00,00,01,64,00,
37074590,00000528,false,Rx,0,6,07,05,A5,0F,00,00,00,00,
37124756,00000523,false,Rx,0,6,02,0A,EE,FF,FF,FF,00,00,
37135120,00000526,false,Rx,0,6,05,0D,28,01,00,00,00,00,
37160929,00000524,false,Rx,0,6,03,02,F8,FF,FF,FF,00,00,
37172267,00000100,false,Rx,0,8,00,00,00,00,9A,01,C8,00,
37172516,00000101,false,Rx,0,8,00,FF,FE,00,00,00,00,00,
37172755,00000102,false,Rx,0,8,00,90,01,00,00,01,64,00,
37232251,00000521,false,Rx,0,6,00,07,03,FD,FF,FF,00,00,
37272268,00000100,false,Rx,0,8,00,00,00,00,9A,01,C8,00,
37272511,00000101,false,Rx,0,8,00,FF,FE,00,00,00,00,00,
37272751,00000102,false,Rx,0,8,00,90,01,00,00,01,64,00,
37325708,00000525,false,Rx,0,6,04,0E,17,01,00,00,00,00,
37372263,00000100,false,Rx,0,8,00,00,00,00,9A,01,C8,00,
37372508,00000101,false,Rx,0,8,00,FF,FE,00,00,00,00,00,
37372754,00000102,false,Rx,0,8,00,90,01,00,00,01,64,00,
37470435,00000527,false,Rx,0,6,06,00,A6,94,00,00,00,00,
37472257,00000100,false,Rx,0,8,00,00,00,00,9A,01,C8,00,
37472507,00000101,false,Rx,0,8,00,FF,FE,00,00,00,00,00,
37472746,00000102,false,Rx,0,8,00,90,01,00,00,01,64,00,
37572254,00000100,false,Rx,0,8,00,00,00,00,9A,01,C8,00,
37572501,00000101,false,Rx,0,8,00,FF,FE,00,00,00,00,00,
37572750,00000102,false,Rx,0,8,00,90,01,00,00,01,64,00,
37629430,00000522,false,Rx,0,6,01,07,0E,DD,05,00,00,00,
37672252,00000100,false,Rx,0,8,00,00,00,00,9A,01,C8,00,
37672500,00000101,false,Rx,0,8,00,FF,FE,00,00,00,00,00,
37672746,00000102,false,Rx,0,8,00,90,01,00,00,01,64,00,
37771766,00000523,false,Rx,0,6,02,0B,FE,FF,FF,FF,00,00,
37772247,00000100,false,Rx,0,8,00,00,00,00,9A,01,C8,00,
37772495,00000101,false,Rx,0,8,00,FF,FE,00,00,00,00,00,
37772740,00000102,false,Rx,0,8,00,90,01,00,00,01,64,00,
37812027,00000528,false,Rx,0,6,07,06,A5,0F,00,00,00,00,
37826028,00000524,false,Rx,0,6,03,03,F4,FF,FF,FF,00,00,
37836449,00000526,false,Rx,0,6,05,0E,24,01,00,00,00,00,
37843088,00000521,false,Rx,0,6,00,08,04,FD,FF,FF,00,00,
37872245,00000100,false,Rx,0,8,00,00,00,00,9A,01,C8,00,
37872499,00000101,false,Rx,0,8,00,FF,FE,00,00,00,00,00,
37872744,00000102,false,Rx,0,8,00,90,01,00,00,01,64,00,
37972249,00000100,false,Rx,0,8,00,00,00,00,9A,01,C8,00,
37972497,00000101,false,Rx,0,8,00,FF,FE,00,00,00,00,00,
37972740,00000102,false,Rx,0,8,00,90,01,00,00,01,64,00,
38008889,00000525,false,Rx,0,6,04,0F,17,01,00,00,00,00,
38072244,00000100,false,Rx,0,8,00,00,00,00,9A,01,C8,00,
38072492,00000101,false,Rx,0,8,00,FF,FE,00,00,00,00,00,
38072734,00000102,false,Rx,0,8,00,90,01,00,00,01,64,00,
38172242,00000100,false,Rx,0,8,00,00,00,00,9A,01,C8,00,
38172490,00000101,false,Rx,0,8,00,FF,FE,00,00,00,00,00,
38172750,00000102,false,Rx,0,8,00,90,01,00,00,01,64,00,
38189784,00000527,false,Rx,0,6,06,01,A7,94,00,00,00,00,
38258009,00000522,false,Rx,0,6,01,08,12,DD,05,00,00,00,
38272239,00000100,false,Rx,0,8,00,00,00,00,9A,01,C8,00,
38272486,00000101,false,Rx,0,8,00,FF,FE,00,00,00,00,00,
38272732,00000102,false,Rx,0,8,00,90,01,00,00,01,64,00,
38372239,00000100,false,Rx,0,8,00,00,00,00,9A,01,C8,00,
38372486,00000101,false,Rx,0,8,00,FF,FE,00,00,00,00,00,
38372733,00000102,false,Rx,0,8,00,90,01,00,00,01,64,00,
38418777,00000523,false,Rx,0,6,02,0C,F2,FF,FF,FF,00,00,
38453933,00000521,false,Rx,0,6,00,09,03,FD,FF,FF,00,00,
38472238,00000100,false,Rx,0,8,00,00,00,00,9A,01,C8,00,
38472485,00000101,false,Rx,0,8,00,FF,FE,00,00,00,00,00,
38472731,00000102,false,Rx,0,8,00,90,01,00,00,01,64,00,
38491120,00000524,false,Rx,0,6,03,04,EF,FF,FF,FF,00,00,
38537674,00000526,false,Rx,0,6,05,0F,27,01,00,00,00,00,
38549453,00000528,false,Rx,0,6,07,07,A5,0F,00,00,00,00,
38572261,00000100,false,Rx,0,8,00,00,00,00,9A,01,C8,00,
38572485,00000101,false,Rx,0,8,00,FF,FE,00,00,00,00,00,
38572724,00000102,false,Rx,0,8,00,90,01,00,00,01,64,00,
38672231,00000100,false,Rx,0,8,00,00,00,00,9A,01,C8,00,
38672485,00000101,false,Rx,0,8,00,FF,FE,00,00,00,00,00,
38672724,00000102,false,Rx,0,8,00,90,01,00,00,01,64,00,
38692072,00000525,false,Rx,0,6,04,00,17,01,00,00,00,00,
38772225,00000100,false,Rx,0,8,00,00,00,00,9A,01,C8,00,
38772480,00000101,false,Rx,0,8,00,FF,FE,00,00,00,00,00,
38772719,00000102,false,Rx,0,8,00,90,01,00,00,01,64,00,
38872226,00000100,false,Rx,0,8,00,00,00,00,9A,01,C8,00,
38872474,00000101,false,Rx,0,8,00,FF,FE,00,00,00,00,00,
38872720,00000102,false,Rx,0,8,00,90,01,00,00,01,64,00,
38886947,00000522,false,Rx,0,6,01,09,0B,DD,05,00,00,00,
38909126,00000527,false,Rx,0,6,06,02,A7,94,00,00,00,00,
38972221,00000100,false,Rx,0,8,00,00,00,00,9A,01,C8,00,
38972476,00000101,false,Rx,0,8,00,FF,FE,00,00,00,00,00,
38972716,00000102,false,Rx,0,8,00,90,01,00,00,01,64,00,
39064792,00000521,false,Rx,0,6,00,0A,06,FD,FF,FF,00,00,
39065804,00000523,false,Rx,0,6,02,0D,F2,FF,FF,FF,00,00,
39072222,00000100,false,Rx,0,8,00,00,00,00,9A,01,C8,00,
39072475,00000101,false,Rx,0,8,00,FF,FE,00,00,00,00,00,
39072714,00000102,false,Rx,0,8,00,90,01,00,00,01,64,00,
39156239,00000524,false,Rx,0,6,03,05,EF,FF,FF,FF,00,00,
39172220,00000100,false,Rx,0,8,00,00,00,00,9A,01,C8,00,
39172488,00000101,false,Rx,0,8,00,FF,FE,00,00,00,00,00,
39172717,00000102,false,Rx,0,8,00,90,01,00,00,01,64,00,
39238941,00000526,false,Rx,0,6,05,00,25,01,00,00,00,00,
39272219,00000100,false,Rx,0,8,00,00,00,00,9A,01,C8,00,
39272472,00000101,false,Rx,0,8,00,FF,FE,00,00,00,00,00,
39272711,00000102,false,Rx,0,8,00,90,01,00,00,01,64,00,
39287346,00000528,false,Rx,0,6,07,08,A5,0F,00,00,00,00,
39372219,00000100,false,Rx,0,8,00,00,00,00,9A,01,C8,00,
39372473,00000101,false,Rx,0,8,00,FF,FE,00,00,00,00,00,
39372710,00000102,false,Rx,0,8,00,90,01,00,00,01,64,00,
39375270,00000525,false,Rx,0,6,04,01,17,01,00,00,00,00,
39472215,00000100,false,Rx,0,8,00,00,00,00,9A,01,C8,00,
39472469,00000101,false,Rx,0,8,00,FF,FE,00,00,00,00,00,
39472705,00000102,false,Rx,0,8,00,90,01,00,00,01,64,00,
39515887,00000522,false,Rx,0,6,01,0A,0C,DD,05,00,00,00,
39572210,00000100,false,Rx,0,8,00,00,00,00,9A,01,C8,00,
39572470,00000101,false,Rx,0,8,00,FF,FE,00,00,00,00,00,
39572706,00000102,false,Rx,0,8,00,90,01,00,00,01,64,00,
39628484,00000527,false,Rx,0,6,06,03,A8,94,00,00,00,00,
39672213,00000100,false,Rx,0,8,00,00,00,00,9A,01,C8,00,
39672468,00000101,false,Rx,0,8,00,FF,FE,00,00,00,00,00,
39672701,00000102,false,Rx,0,8,00,90,01,00,00,01,64,00,
39675985,00000521,false,Rx,0,6,00,0B,01,FD,FF,FF,00,00,
39712819,00000523,false,Rx,0,6,02,0E,FA,FF,FF,FF,00,00,
39772203,00000100,false,Rx,0,8,00,00,00,00,9A,01,C8,00,
39772456,00000101,false,Rx,0,8,00,FF,FE,00,00,00,00,00,
39772724,00000102,false,Rx,0,8,00,90,01,00,00,01,64,00,
39821328,00000524,false,Rx,0,6,03,06,F7,FF,FF,FF,00,00,
39872206,00000100,false,Rx,0,8,00,00,00,00,9A,01,C8,00,
39872452,00000101,false,Rx,0,8,00,FF,FE,00,00,00,00,00,
39872706,00000102,false,Rx,0,8,00,90,01,00,00,01,64,00,
39940163,00000526,false,Rx,0,6,05,01,29,01,00,00,00,00,
39972207,00000100,false,Rx,0,8,00,00,00,00,9A,01,C8,00,
39972453,00000101,false,Rx,0,8,00,FF,FE,00,00,00,00,00,
39972708,00000102,false,Rx,0,8,00,90,01,00,00,01,64,00,
40024329,00000528,false,Rx,0,6,07,09,A5,0F,00,00,00,00,
40058449,00000525,false,Rx,0,6,04,02,17,01,00,00,00,00,
40072198,00000100,false,Rx,0,8,00,00,00,00,9A,01,C8,00,
40072458,00000101,false,Rx,0,8,00,FF,FE,00,00,00,00,00,
40072691,00000102,false,Rx,0,8,00,90,01,00,00,01,64,00,
40144804,00000522,false,Rx,0,6,01,0B,1B,DD,05,00,00,00,
40172198,00000100,false,Rx,0,8,00,00,00,00,9A,01,C8,00,
40172458,00000101,false,Rx,0,8,00,FF,FE,00,00,00,00,00,
40172691,00000102,false,Rx,0,8,00,90,01,00,00,01,64,00,
40272198,00000100,false,Rx,0,8,00,00,00,00,9A,01,C8,00,
40272452,00000101,false,Rx,0,8,00,FF,FE,00,00,00,00,00,
40272692,00000102,false,Rx,0,8,00,90,01,00,00,01,64,00,
40286467,00000521,false,Rx,0,6,00,0C,02,FD,FF,FF,00,00,
40347817,00000527,false,Rx,0,6,06,04,A9,94,00,00,00,00,
40359824,00000523,false,Rx,0,6,02,0F,F8,FF,FF,FF,00,00,
40372195,00000100,false,Rx,0,8,00,00,00,00,9A,01,C8,00,
40372453,00000101,false,Rx,0,8,00,FF,FE,00,00,00,00,00,
40372686,00000102,false,Rx,0,8,00,90,01,00,00,01,64,00,
40472192,00000100,false,Rx,0,8,00,00,00,00,9A,01,C8,00,
40472453,00000101,false,Rx,0,8,00,FF,FE,00,00,00,00,00,
40472686,00000102,false,Rx,0,8,00,90,01,00,00,01,64,00,
40486426,00000524,false,Rx,0,6,03,07,F3,FF,FF,FF,00,00,
40572188,00000100,false,Rx,0,8,00,00,00,00,9A,01,C8,00,
40572449,00000101,false,Rx,0,8,00,FF,FE,00,00,00,00,00,
40572683,00000102,false,Rx,0,8,00,90,01,00,00,01,64,00,
40641353,00000526,false,Rx,0,6,05,02,1F,01,00,00,00,00,
40672191,00000100,false,Rx,0,8,00,00,00,00,9A,01,C8,00,
40672448,00000101,false,Rx,0,8,00,FF,FE,00,00,00,00,00,
40672681,00000102,false,Rx,0,8,00,90,01,00,00,01,64,00,
40741609,00000525,false,Rx,0,6,04,03,17,01,00,00,00,00,
40761757,00000528,false,Rx,0,6,07,0A,A5,0F,00,00,00,00,
40772183,00000100,false,Rx,0,8,00,00,00,00,9A,01,C8,00,
40772434,00000101,false,Rx,0,8,00,FF,FE,00,00,00,00,00,
40772682,00000102,false,Rx,0,8,00,90,01,00,00,01,64,00,
40773732,00000522,false,Rx,0,6,01,0C,13,DD,05,00,00,00,
40872186,00000100,false,Rx,0,8,00,00,00,00,9A,01,C8,00,
40872452,00000101,false,Rx,0,8,00,FF,FE,00,00,00,00,00,
40872681,00000102,false,Rx,0,8,00,90,01,00,00,01,64,00,
40897320,00000521,false,Rx,0,6,00,0D,00,FD,FF,FF,00,00,
40972183,00000100,false,Rx,0,8,00,00,00,00,9A,01,C8,00,
40972436,00000101,false,Rx,0,8,00,FF,FE,00,00,00,00,00,
40972674,00000102,false,Rx,0,8,00,90,01,00,00,01,64,00,
41006828,00000523,false,Rx,0,6,02,00,F8,FF,FF,FF,00,00,
41067184,00000527,false,Rx,0,6,06,05,A9,94,00,00,00,00,
41072182,00000100,false,Rx,0,8,00,00,00,00,9A,01,C8,00,
41072428,00000101,false,Rx,0,8,00,FF,FE,00,00,00,00,00,
41072675,00000102,false,Rx,0,8,00,90,01,00,00,01,64,00,
41151510,00000524,false,Rx,0,6,03,08,FB,FF,FF,FF,00,00,
41172178,00000100,false,Rx,0,8,00,00,00,00,9A,01,C8,00,
41172425,00000101,false,Rx,0,8,00,FF,FE,00,00,00,00,00,
41172672,00000102,false,Rx,0,8,00,90,01,00,00,01,64,00,
41272178,00000100,false,Rx,0,8,00,00,00,00,9A,01,C8,00,
41272424,00000101,false,Rx,0,8,00,FF,FE,00,00,00,00,00,
41272667,00000102,false,Rx,0,8,00,90,01,00,00,01,64,00,
41342723,00000526,false,Rx,0,6,05,03,20,01,00,00,00,00,
41372174,00000100,false,Rx,0,8,00,00,00,00,9A,01,C8,00,
41372421,00000101,false,Rx,0,8,00,FF,FE,00,00,00,00,00,
41372668,00000102,false,Rx,0,8,00,90,01,00,00,01,64,00,
41402668,00000522,false,Rx,0,6,01,0D,20,DD,05,00,00,00,
41424810,00000525,false,Rx,0,6,04,04,17,01,00,00,00,00,
41472169,00000100,false,Rx,0,8,00,00,00,00,9A,01,C8,00,
41472422,00000101,false,Rx,0,8,00,FF,FE,00,00,00,00,00,
41472681,00000102,false,Rx,0,8,00,90,01,00,00,01,64,00,
41499200,00000528,false,Rx,0,6,07,0B,A5,0F,00,00,00,00,
41508163,00000521,false,Rx,0,6,00,0E,01,FD,FF,FF,00,00,
41572166,00000100,false,Rx,0,8,00,00,00,00,9A,01,C8,00,
41572420,00000101,false,Rx,0,8,00,FF,FE,00,00,00,00,00,
41572667,00000102,false,Rx,0,8,00,90,01,00,00,01,64,00,
41653850,00000523,false,Rx,0,6,02,01,F8,FF,FF,FF,00,00,
41672168,00000100,false,Rx,0,8,00,00,00,00,9A,01,C8,00,
41672421,00000101,false,Rx,0,8,00,FF,FE,00,00,00,00,00,
41672662,00000102,false,Rx,0,8,00,90,01,00,00,01,64,00,
41772163,00000100,false,Rx,0,8,00,00,00,00,9A,01,C8,00,
41772415,00000101,false,Rx,0,8,00,FF,FE,00,00,00,00,00,
41772656,00000102,false,Rx,0,8,00,90,01,00,00,01,64,00,
41786524,00000527,false,Rx,0,6,06,06,AA,94,00,00,00,00,
41816612,00000524,false,Rx,0,6,03,09,E4,FF,FF,FF,00,00,
41872161,00000100,false,Rx,0,8,00,00,00,00,9A,01,C8,00,
41872413,00000101,false,Rx,0,8,00,FF,FE,00,00,00,00,00,
41872660,00000102,false,Rx,0,8,00,90,01,00,00,01,64,00,
41972164,00000100,false,Rx,0,8,00,00,00,00,9A,01,C8,00,
41972412,00000101,false,Rx,0,8,00,FF,FE,00,00,00,00,00,
41972659,00000102,false,Rx,0,8,00,90,01,00,00,01,64,00,
42031597,00000522,false,Rx,0,6,01,0E,14,DD,05,00,00,00,
42043815,00000526,false,Rx,0,6,05,04,0D,01,00,00,00,00,
42072160,00000100,false,Rx,0,8,00,00,00,00,9A,01,C8,00,
42072412,00000101,false,Rx,0,8,00,FF,FE,00,00,00,00,00,
42072654,00000102,false,Rx,0,8,00,90,01,00,00,01,64,00,
42107974,00000525,false,Rx,0,6,04,05,17,01,00,00,00,00,
42119001,00000521,false,Rx,0,6,00,0F,09,FD,FF,FF,00,00,
42172154,00000100,false,Rx,0,8,00,00,00,00,9A,01,C8,00,
42172407,00000101,false,Rx,0,8,00,FF,FE,00,00,00,00,00,
42172649,00000102,false,Rx,0,8,00,90,01,00,00,01,64,00,
42236634,00000528,false,Rx,0,6,07,0C,A5,0F,00,00,00,00,
42272156,00000100,false,Rx,0,8,00,00,00,00,9A,01,C8,00,
42272406,00000101,false,Rx,0,8,00,FF,FE,00,00,00,00,00,
42272647,00000102,false,Rx,0,8,00,90,01,00,00,01,64,00,
42301219,00000523,false,Rx,0,6,02,02,F0,FF,FF,FF,00,00,
42372154,00000100,false,Rx,0,8,00,00,00,00,9A,01,C8,00,
42372406,00000101,false,Rx,0,8,00,FF,FE,00,00,00,00,00,
42372648,00000102,false,Rx,0,8,00,90,01,00,00,01,64,00,
42472155,00000100,false,Rx,0,8,00,00,00,00,9A,01,C8,00,
42472402,00000101,false,Rx,0,8,00,FF,FE,00,00,00,00,00,
42472646,00000102,false,Rx,0,8,00,90,01,00,00,01,64,00,
42482078,00000524,false,Rx,0,6,03,0A,F2,FF,FF,FF,00,00,
42505877,00000527,false,Rx,0,6,06,07,AA,94,00,00,00,00,
42572152,00000100,false,Rx,0,8,00,00,00,00,9A,01,C8,00,
42572398,00000101,false,Rx,0,8,00,FF,FE,00,00,00,00,00,
42572641,00000102,false,Rx,0,8,00,90,01,00,00,01,64,00,
42660531,00000522,false,Rx,0,6,01,0F,17,DD,05,00,00,00,
42672148,00000100,false,Rx,0,8,00,00,00,00,9A,01,C8,00,
42672394,00000101,false,Rx,0,8,00,FF,FE,00,00,00,00,00,
42672642,00000102,false,Rx,0,8,00,90,01,00,00,01,64,00,
42729844,00000521,false,Rx,0,6,00,00,FB,FC,FF,FF,00,00,
42745266,00000526,false,Rx,0,6,05,05,23,01,00,00,00,00,
42772146,00000100,false,Rx,0,8,00,00,00,00,9A,01,C8,00,
42772393,00000101,false,Rx,0,8,00,FF,FE,00,00,00,00,00,
42772642,00000102,false,Rx,0,8,00,90,01,00,00,01,64,00,
42791163,00000525,false,Rx,0,6,04,06,17,01,00,00,00,00,
42872146,00000100,false,Rx,0,8,00,00,00,00,9A,01,C8,00,
42872392,00000101,false,Rx,0,8,00,FF,FE,00,00,00,00,00,
42872635,00000102,false,Rx,0,8,00,90,01,00,00,01,64,00,
42947880,00000523,false,Rx,0,6,02,03,F0,FF,FF,FF,00,00,
42972138,00000100,false,Rx,0,8,00,00,00,00,9A,01,C8,00,
42972392,00000101,false,Rx,0,8,00,FF,FE,00,00,00,00,00,
42972632,00000102,false,Rx,0,8,00,90,01,00,00,01,64,00,
42974065,00000528,false,Rx,0,6,07,0D,A5,0F,00,00,00,00,
43072139,00000100,false,Rx,0,8,00,00,00,00,9A,01,C8,00,
43072385,00000101,false,Rx,0,8,00,FF,FE,00,00,00,00,00,
43072633,00000102,false,Rx,0,8,00,90,01,00,00,01,64,00,
43146807,00000524,false,Rx,0,6,03,0B,F7,FF,FF,FF,00,00,
43172133,00000100,false,Rx,0,8,00,00,00,00,9A,01,C8,00,
43172386,00000101,false,Rx,0,8,00,FF,FE,00,00,00,00,00,
43172627,00000102,false,Rx,0,8,00,90,01,00,00,01,64,00,
43225226,00000527,false,Rx,0,6,06,08,AB,94,00,00,00,00,
43272132,00000100,false,Rx,0,8,00,00,00,00,9A,01,C8,00,
43272385,00000101,false,Rx,0,8,00,FF,FE,00,00,00,00,00,
43272627,00000102,false,Rx,0,8,00,90,01,00,00,01,64,00,
43289455,00000522,false,Rx,0,6,01,00,18,DD,05,00,00,00,
43340696,00000521,false,Rx,0,6,00,01,07,FD,FF,FF,00,00,
43372130,00000100,false,Rx,0,8,00,00,00,00,9A,01,C8,00,
43372383,00000101,false,Rx,0,8,00,FF,FE,00,00,00,00,00,
43372624,00000102,false,Rx,0,8,00,90,01,00,00,01,64,00,
43446710,00000526,false,Rx,0,6,05,06,31,01,00,00,00,00,
43472127,00000100,false,Rx,0,8,00,00,00,00,9A,01,C8,00,
43472380,00000101,false,Rx,0,8,00,FF,FE,00,00,00,00,00,
43472622,00000102,false,Rx,0,8,00,90,01,00,00,01,64,00,
43474332,00000525,false,Rx,0,6,04,07,18,01,00,00,00,00,
43572126,00000100,false,Rx,0,8,00,00,00,00,9A,01,C8,00,
43572379,00000101,false,Rx,0,8,00,FF,FE,00,00,00,00,00,
43572620,00000102,false,Rx,0,8,00,90,01,00,00,01,64,00,
43594887,00000523,false,Rx,0,6,02,04,FE,FF,FF,FF,00,00,
43672127,00000100,false,Rx,0,8,00,00,00,00,9A,01,C8,00,
43672374,00000101,false,Rx,0,8,00,FF,FE,00,00,00,00,00,
43672621,00000102,false,Rx,0,8,00,90,01,00,00,01,64,00,
43711493,00000528,false,Rx,0,6,07,0E,A5,0F,00,00,00,00,
43772121,00000100,false,Rx,0,8,00,00,00,00,9A,01,C8,00,
43772373,00000101,false,Rx,0,8,00,FF,FE,00,00,00,00,00,
43772614,00000102,false,Rx,0,8,00,90,01,00,00,01,64,00,
43811900,00000524,false,Rx,0,6,03,0C,F0,FF,FF,FF,00,00,
43872118,00000100,false,Rx,0,8,00,00,00,00,9A,01,C8,00,
43872371,00000101,false,Rx,0,8,00,FF,FE,00,00,00,00,00,
43872612,00000102,false,Rx,0,8,00,90,01,00,00,01,64,00,
43918378,00000522,false,Rx,0,6,01,01,16,DD,05,00,00,00,
43944573,00000527,false,Rx,0,6,06,09,AB,94,00,00,00,00,
43951560,00000521,false,Rx,0,6,00,02,FB,FC,FF,FF,00,00,
43972119,00000100,false,Rx,0,8,00,00,00,00,9A,01,C8,00,
43972372,00000101,false,Rx,0,8,00,FF,FE,00,00,00,00,00,
43972614,00000102,false,Rx,0,8,00,90,01,00,00,01,64,00,
44072114,00000100,false,Rx,0,8,00,00,00,00,9A,01,C8,00,
44072368,00000101,false,Rx,0,8,00,FF,FE,00,00,00,00,00,
44072609,00000102,false,Rx,0,8,00,90,01,00,00,01,64,00,
44147759,00000526,false,Rx,0,6,05,07,31,01,00,00,00,00,
44157533,00000525,false,Rx,0,6,04,08,18,01,00,00,00,00,
44172118,00000100,false,Rx,0,8,00,00,00,00,9A,01,C8,00,
44172381,00000101,false,Rx,0,8,00,FF,FE,00,00,00,00,00,
44172610,00000102,false,Rx,0,8,00,90,01,00,00,01,64,00,
44241922,00000523,false,Rx,0,6,02,05,FA,FF,FF,FF,00,00,
44272113,00000100,false,Rx,0,8,00,00,00,00,9A,01,C8,00,
44272365,00000101,false,Rx,0,8,00,FF,FE,00,00,00,00,00,
44272603,00000102,false,Rx,0,8,00,90,01,00,00,01,64,00,
44372109,00000100,false,Rx,0,8,00,00,00,00,9A,01,C8,00,
44372361,00000101,false,Rx,0,8,00,FF,FE,00,00,00,00,00,
44372604,00000102,false,Rx,0,8,00,90,01,00,00,01,64,00,
44448951,00000528,false,Rx,0,6,07,0F,A5,0F,00,00,00,00,
44472107,00000100,false,Rx,0,8,00,00,00,00,9A,01,C8,00,
44472359,00000101,false,Rx,0,8,00,FF,FE,00,00,00,00,00,
44472606,00000102,false,Rx,0,8,00,90,01,00,00,01,64,00,
44477014,00000524,false,Rx,0,6,03,0D,EE,FF,FF,FF,00,00,
44547330,00000522,false,Rx,0,6,01,02,20,DD,05,00,00,00,
44562529,00000521,false,Rx,0,6,00,03,03,FD,FF,FF,00,00,
44572109,00000100,false,Rx,0,8,00,00,00,00,9A,01,C8,00,
44572355,00000101,false,Rx,0,8,00,FF,FE,00,00,00,00,00,
44572604,00000102,false,Rx,0,8,00,90,01,00,00,01,64,00,
44663942,00000527,false,Rx,0,6,06,0A,AC,94,00,00,00,00,
44672102,00000100,false,Rx,0,8,00,00,00,00,9A,01,C8,00,
44672355,00000101,false,Rx,0,8,00,FF,FE,00,00,00,00,00,
44672602,00000102,false,Rx,0,8,00,90,01,00,00,01,64,00,
44772102,00000100,false,Rx,0,8,00,00,00,00,9A,01,C8,00,
44772354,00000101,false,Rx,0,8,00,FF,FE,00,00,00,00,00,
44772596,00000102,false,Rx,0,8,00,90,01,00,00,01,64,00,
44840719,00000525,false,Rx,0,6,04,09,17,01,00,00,00,00,
44848965,00000526,false,Rx,0,6,05,08,24,01,00,00,00,00,
44872102,00000100,false,Rx,0,8,00,00,00,00,9A,01,C8,00,
44872348,00000101,false,Rx,0,8,00,FF,FE,00,00,00,00,00,
44872596,00000102,false,Rx,0,8,00,90,01,00,00,01,64,00,
44888924,00000523,false,Rx,0,6,02,06,FA,FF,FF,FF,00,00,
44972096,00000100,false,Rx,0,8,00,00,00,00,9A,01,C8,00,
44972349,00000101,false,Rx,0,8,00,FF,FE,00,00,00,00,00,
44972590,00000102,false,Rx,0,8,00,90,01,00,00,01,64,00,
45072099,00000100,false,Rx,0,8,00,00,00,00,9A,01,C8,00,
45072345,00000101,false,Rx,0,8,00,FF,FE,00,00,00,00,00,
45072592,00000102,false,Rx,0,8,00,90,01,00,00,01,64,00,
45142117,00000524,false,Rx,0,6,03,0E,EA,FF,FF,FF,00,00,
45172092,00000100,false,Rx,0,8,00,00,00,00,9A,01,C8,00,
45172348,00000101,false,Rx,0,8,00,FF,FE,00,00,00,00,00,
45172590,00000102,false,Rx,0,8,00,90,01,00,00,01,64,00,
45173252,00000521,false,Rx,0,6,00,04,01,FD,FF,FF,00,00,
45176255,00000522,false,Rx,0,6,01,03,21,DD,05,00,00,00,
45186385,00000528,false,Rx,0,6,07,00,A6,0F,00,00,00,00,
45272090,00000100,false,Rx,0,8,00,00,00,00,9A,01,C8,00,
45272343,00000101,false,Rx,0,8,00,FF,FE,00,00,00,00,00,
45272584,00000102,false,Rx,0,8,00,90,01,00,00,01,64,00,
45372090,00000100,false,Rx,0,8,00,00,00,00,9A,01,C8,00,
45372343,00000101,false,Rx,0,8,00,FF,FE,00,00,00,00,00,
45372585,00000102,false,Rx,0,8,00,90,01,00,00,01,64,00,
45383295,00000527,false,Rx,0,6,06,0B,AC,94,00,00,00,00,
45472085,00000100,false,Rx,0,8,00,00,00,00,9A,01,C8,00,
45472342,00000101,false,Rx,0,8,00,FF,FE,00,00,00,00,00,
45472584,00000102,false,Rx,0,8,00,90,01,00,00,01,64,00,
45523910,00000525,false,Rx,0,6,04,0A,17,01,00,00,00,00,
45535943,00000523,false,Rx,0,6,02,07,FF,FF,FF,FF,00,00,
45550327,00000526,false,Rx,0,6,05,09,2C,01,00,00,00,00,
45572084,00000100,false,Rx,0,8,00,00,00,00,9A,01,C8,00,
45572339,00000101,false,Rx,0,8,00,FF,FE,00,00,00,00,00,
45572580,00000102,false,Rx,0,8,00,90,01,00,00,01,64,00,
45672084,00000100,false,Rx,0,8,00,00,00,00,9A,01,C8,00,
45672348,00000101,false,Rx,0,8,00,FF,FE,00,00,00,00,00,
45672577,00000102,false,Rx,0,8,00,90,01,00,00,01,64,00,
45772081,00000100,false,Rx,0,8,00,00,00,00,9A,01,C8,00,
45772334,00000101,false,Rx,0,8,00,FF,FE,00,00,00,00,00,
45772579,00000102,false,Rx,0,8,00,90,01,00,00,01,64,00,
45784087,00000521,false,Rx,0,6,00,05,05,FD,FF,FF,00,00,
45805194,00000522,false,Rx,0,6,01,04,1F,DD,05,00,00,00,
45807219,00000524,false,Rx,0,6,03,0F,F2,FF,FF,FF,00,00,
45872079,00000100,false,Rx,0,8,00,00,00,00,9A,01,C8,00,
45872331,00000101,false,Rx,0,8,00,FF,FE,00,00,00,00,00,
45872576,00000102,false,Rx,0,8,00,90,01,00,00,01,64,00,
45923828,00000528,false,Rx,0,6,07,01,A6,0F,00,00,00,00,
45972077,00000100,false,Rx,0,8,00,00,00,00,9A,01,C8,00,
45972330,00000101,false,Rx,0,8,00,FF,FE,00,00,00,00,00,
45972571,00000102,false,Rx,0,8,00,90,01,00,00,01,64,00,
46072077,00000100,false,Rx,0,8,00,00,00,00,9A,01,C8,00,
46072323,00000101,false,Rx,0,8,00,FF,FE,00,00,00,00,00,
46072567,00000102,false,Rx,0,8,00,90,01,00,00,01,64,00,
46102726,00000527,false,Rx,0,6,06,0C,AD,94,00,00,00,00,
46172075,00000100,false,Rx,0,8,00,00,00,00,9A,01,C8,00,
46172321,00000101,false,Rx,0,8,00,FF,FE,00,00,00,00,00,
46172565,00000102,false,Rx,0,8,00,90,01,00,00,01,64,00,
46182973,00000523,false,Rx,0,6,02,08,F7,FF,FF,FF,00,00,
46207084,00000525,false,Rx,0,6,04,0B,18,01,00,00,00,00,
46251427,00000526,false,Rx,0,6,05,0A,35,01,00,00,00,00,
46272071,00000100,false,Rx,0,8,00,00,00,00,9A,01,C8,00,
46272317,00000101,false,Rx,0,8,00,FF,FE,00,00,00,00,00,
46272581,00000102,false,Rx,0,8,00,90,01,00,00,01,64,00,
46372071,00000100,false,Rx,0,8,00,00,00,00,9A,01,C8,00,
46372317,00000101,false,Rx,0,8,00,FF,FE,00,00,00,00,00,
46372565,00000102,false,Rx,0,8,00,90,01,00,00,01,64,00,
46394948,00000521,false,Rx,0,6,00,06,01,FD,FF,FF,00,00,
46434126,00000522,false,Rx,0,6,01,05,29,DD,05,00,00,00,
46472066,00000100,false,Rx,0,8,00,00,00,00,9A,01,C8,00,
46472319,00000101,false,Rx,0,8,00,FF,FE,00,00,00,00,00,
46472560,00000102,false,Rx,0,8,00,90,01,00,00,01,64,00,
46472765,00000524,false,Rx,0,6,03,00,F6,FF,FF,FF,00,00,
46572068,00000100,false,Rx,0,8,00,00,00,00,9A,01,C8,00,
46572314,00000101,false,Rx,0,8,00,FF,FE,00,00,00,00,00,
46572562,00000102,false,Rx,0,8,00,90,01,00,00,01,64,00,
46661270,00000528,false,Rx,0,6,07,02,A6,0F,00,00,00,00,
46672065,00000100,false,Rx,0,8,00,00,00,00,9A,01,C8,00,
46672312,00000101,false,Rx,0,8,00,FF,FE,00,00,00,00,00,
46672554,00000102,false,Rx,0,8,00,90,01,00,00,01,64,00,
46772061,00000100,false,Rx,0,8,00,00,00,00,9A,01,C8,00,
46772308,00000101,false,Rx,0,8,00,FF,FE,00,00,00,00,00,
46772555,00000102,false,Rx,0,8,00,90,01,00,00,01,64,00,
46822456,00000527,false,Rx,0,6,06,0D,AD,94,00,00,00,00,
46829999,00000523,false,Rx,0,6,02,09,F7,FF,FF,FF,00,00,
46872060,00000100,false,Rx,0,8,00,00,00,00,9A,01,C8,00,
46872312,00000101,false,Rx,0,8,00,FF,FE,00,00,00,00,00,
46872553,00000102,false,Rx,0,8,00,90,01,00,00,01,64,00,
46890287,00000525,false,Rx,0,6,04,0C,17,01,00,00,00,00,
46952889,00000526,false,Rx,0,6,05,0B,34,01,00,00,00,00,
46972059,00000100,false,Rx,0,8,00,00,00,00,9A,01,C8,00,
46972309,00000101,false,Rx,0,8,00,FF,FE,00,00,00,00,00,
46972551,00000102,false,Rx,0,8,00,90,01,00,00,01,64,00,
47005789,00000521,false,Rx,0,6,00,07,FF,FC,FF,FF,00,00,
47063432,00000522,false,Rx,0,6,01,06,2A,DD,05,00,00,00,
47072055,00000100,false,Rx,0,8,00,00,00,00,9A,01,C8,00,
47072305,00000101,false,Rx,0,8,00,FF,FE,00,00,00,00,00,
47072546,00000102,false,Rx,0,8,00,90,01,00,00,01,64,00,
47137433,00000524,false,Rx,0,6,03,01,F7,FF,FF,FF,00,00,
47172053,00000100,false,Rx,0,8,00,00,00,00,9A,01,C8,00,
47172303,00000101,false,Rx,0,8,00,FF,FE,00,00,00,00,00,
47172545,00000102,false,Rx,0,8,00,90,01,00,00,01,64,00,
47272053,00000100,false,Rx,0,8,00,00,00,00,9A,01,C8,00,
47272299,00000101,false,Rx,0,8,00,FF,FE,00,00,00,00,00,
47272547,00000102,false,Rx,0,8,00,90,01,00,00,01,64,00,
47372046,00000100,false,Rx,0,8,00,00,00,00,9A,01,C8,00,
47372299,00000101,false,Rx,0,8,00,FF,FE,00,00,00,00,00,
47372543,00000102,false,Rx,0,8,00,90,01,00,00,01,64,00,
47398708,00000528,false,Rx,0,6,07,03,A6,0F,00,00,00,00,
47472044,00000100,false,Rx,0,8,00,00,00,00,9A,01,C8,00,
47472297,00000101,false,Rx,0,8,00,FF,FE,00,00,00,00,00,
47472542,00000102,false,Rx,0,8,00,90,01,00,00,01,64,00,
47477000,00000523,false,Rx,0,6,02,0A,F3,FF,FF,FF,00,00,
47541362,00000527,false,Rx,0,6,06,0E,AE,94,00,00,00,00,
47572040,00000100,false,Rx,0,8,00,00,00,00,9A,01,C8,00,
47572293,00000101,false,Rx,0,8,00,FF,FE,00,00,00,00,00,
47572541,00000102,false,Rx,0,8,00,90,01,00,00,01,64,00,
47573472,00000525,false,Rx,0,6,04,0D,17,01,00,00,00,00,
47616646,00000521,false,Rx,0,6,00,08,FF,FC,FF,FF,00,00,
47654145,00000526,false,Rx,0,6,05,0C,29,01,00,00,00,00,
47672040,00000100,false,Rx,0,8,00,00,00,00,9A,01,C8,00,
47672293,00000101,false,Rx,0,8,00,FF,FE,00,00,00,00,00,
47672534,00000102,false,Rx,0,8,00,90,01,00,00,01,64,00,
47691987,00000522,false,Rx,0,6,01,07,1F,DD,05,00,00,00,
47772038,00000100,false,Rx,0,8,00,00,00,00,9A,01,C8,00,
47772292,00000101,false,Rx,0,8,00,FF,FE,00,00,00,00,00,
47772535,00000102,false,Rx,0,8,00,90,01,00,00,01,64,00,
47802522,00000524,false,Rx,0,6,03,02,EE,FF,FF,FF,00,00,
47872036,00000100,false,Rx,0,8,00,00,00,00,9A,01,C8,00,
47872290,00000101,false,Rx,0,8,00,FF,FE,00,00,00,00,00,
47872532,00000102,false,Rx,0,8,00,90,01,00,00,01,64,00,
47972036,00000100,false,Rx,0,8,00,00,00,00,9A,01,C8,00,
47972283,00000101,false,Rx,0,8,00,FF,FE,00,00,00,00,00,
47972530,00000102,false,Rx,0,8,00,90,01,00,00,01,64,00,
48072035,00000100,false,Rx,0,8,00,00,00,00,9A,01,C8,00,
48072281,00000101,false,Rx,0,8,00,FF,FE,00,00,00,00,00,
48072528,00000102,false,Rx,0,8,00,90,01,00,00,01,64,00,
48124008,00000523,false,Rx,0,6,02,0B,F1,FF,FF,FF,00,00,
48136141,00000528,false,Rx,0,6,07,04,A6,0F,00,00,00,00,
48172028,00000100,false,Rx,0,8,00,00,00,00,9A,01,C8,00,
48172280,00000101,false,Rx,0,8,00,FF,FE,00,00,00,00,00,
48172527,00000102,false,Rx,0,8,00,90,01,00,00,01,64,00,
48227473,00000521,false,Rx,0,6,00,09,00,FD,FF,FF,00,00,
48256645,00000525,false,Rx,0,6,04,0E,17,01,00,00,00,00,
48260720,00000527,false,Rx,0,6,06,0F,AF,94,00,00,00,00,
48272032,00000100,false,Rx,0,8,00,00,00,00,9A,01,C8,00,
48272280,00000101,false,Rx,0,8,00,FF,FE,00,00,00,00,00,
48272521,00000102,false,Rx,0,8,00,90,01,00,00,01,64,00,
48320911,00000522,false,Rx,0,6,01,08,21,DD,05,00,00,00,
48355613,00000526,false,Rx,0,6,05,0D,24,01,00,00,00,00,
48372026,00000100,false,Rx,0,8,00,00,00,00,9A,01,C8,00,
48372275,00000101,false,Rx,0,8,00,FF,FE,00,00,00,00,00,
48372523,00000102,false,Rx,0,8,00,90,01,00,00,01,64,00,
48467613,00000524,false,Rx,0,6,03,03,EB,FF,FF,FF,00,00,
48472023,00000100,false,Rx,0,8,00,00,00,00,9A,01,C8,00,
48472272,00000101,false,Rx,0,8,00,FF,FE,00,00,00,00,00,
48472521,00000102,false,Rx,0,8,00,90,01,00,00,01,64,00,
48572023,00000100,false,Rx,0,8,00,00,00,00,9A,01,C8,00,
48572278,00000101,false,Rx,0,8,00,FF,FE,00,00,00,00,00,
48572519,00000102,false,Rx,0,8,00,90,01,00,00,01,64,00,
48672023,00000100,false,Rx,0,8,00,00,00,00,9A,01,C8,00,
48672272,00000101,false,Rx,0,8,00,FF,FE,00,00,00,00,00,
48672516,00000102,false,Rx,0,8,00,90,01,00,00,01,64,00,
48771007,00000523,false,Rx,0,6,02,0C,F1,FF,FF,FF,00,00,
48772019,00000100,false,Rx,0,8,00,00,00,00,9A,01,C8,00,
48772275,00000101,false,Rx,0,8,00,FF,FE,00,00,00,00,00,
48772515,00000102,false,Rx,0,8,00,90,01,00,00,01,64,00,
48838659,00000521,false,Rx,0,6,00,0A,00,FD,FF,FF,00,00,
48872014,00000100,false,Rx,0,8,00,00,00,00,9A,01,C8,00,
48872269,00000101,false,Rx,0,8,00,FF,FE,00,00,00,00,00,
48872509,00000102,false,Rx,0,8,00,90,01,00,00,01,64,00,
48873558,00000528,false,Rx,0,6,07,05,A6,0F,00,00,00,00,
48939808,00000525,false,Rx,0,6,04,0F,17,01,00,00,00,00,
48949825,00000522,false,Rx,0,6,01,09,29,DD,05,00,00,00,
48972011,00000100,false,Rx,0,8,00,00,00,00,9A,01,C8,00,
48972265,00000101,false,Rx,0,8,00,FF,FE,00,00,00,00,00,
48972507,00000102,false,Rx,0,8,00,90,01,00,00,01,64,00,
48980043,00000527,false,Rx,0,6,06,00,AF,94,00,00,00,00,
49056476,00000526,false,Rx,0,6,05,0E,2A,01,00,00,00,00,
49072012,00000100,false,Rx,0,8,00,00,00,00,9A,01,C8,00,
49072266,00000101,false,Rx,0,8,00,FF,FE,00,00,00,00,00,
49072507,00000102,false,Rx,0,8,00,90,01,00,00,01,64,00,
49132697,00000524,false,Rx,0,6,03,04,EA,FF,FF,FF,00,00,
49172010,00000100,false,Rx,0,8,00,00,00,00,9A,01,C8,00,
49172266,00000101,false,Rx,0,8,00,FF,FE,00,00,00,00,00,
49172506,00000102,false,Rx,0,8,00,90,01,00,00,01,64,00,
49272008,00000100,false,Rx,0,8,00,00,00,00,9A,01,C8,00,
49272267,00000101,false,Rx,0,8,00,FF,FE,00,00,00,00,00,
49272502,00000102,false,Rx,0,8,00,90,01,00,00,01,64,00,
49372003,00000100,false,Rx,0,8,00,00,00,00,9A,01,C8,00,
49372253,00000101,false,Rx,0,8,00,FF,FE,00,00,00,00,00,
49372500,00000102,false,Rx,0,8,00,90,01,00,00,01,64,00,
49418008,00000523,false,Rx,0,6,02,0D,EF,FF,FF,FF,00,00,
49449144,00000521,false,Rx,0,6,00,0B,00,FD,FF,FF,00,00,
49472005,00000100,false,Rx,0,8,00,00,00,00,9A,01,C8,00,
49472254,00000101,false,Rx,0,8,00,FF,FE,00,00,00,00,00,
49472495,00000102,false,Rx,0,8,00,90,01,00,00,01,64,00,
49572004,00000100,false,Rx,0,8,00,00,00,00,9A,01,C8,00,
49572252,00000101,false,Rx,0,8,00,FF,FE,00,00,00,00,00,
49572492,00000102,false,Rx,0,8,00,90,01,00,00,01,64,00,
49578741,00000522,false,Rx,0,6,01,0A,26,DD,05,00,00,00,
49610971,00000528,false,Rx,0,6,07,06,A6,0F,00,00,00,00,
49622981,00000525,false,Rx,0,6,04,00,17,01,00,00,00,00,
49671998,00000100,false,Rx,0,8,00,00,00,00,9A,01,C8,00,
49672255,00000101,false,Rx,0,8,00,FF,FE,00,00,00,00,00,
49672497,00000102,false,Rx,0,8,00,90,01,00,00,01,64,00,
49699374,00000527,false,Rx,0,6,06,01,B0,94,00,00,00,00,
49757904,00000526,false,Rx,0,6,05,0F,28,01,00,00,00,00,
49771996,00000100,false,Rx,0,8,00,00,00,00,9A,01,C8,00,
49772245,00000101,false,Rx,0,8,00,FF,FE,00,00,00,00,00,
49772493,00000102,false,Rx,0,8,00,90,01,00,00,01,64,00,
49797778,00000524,false,Rx,0,6,03,05,F4,FF,FF,FF,00,00,
49871995,00000100,false,Rx,0,8,00,00,00,00,9A,01,C8,00,
49872249,00000101,false,Rx,0,8,00,FF,FE,00,00,00,00,00,
49872490,00000102,false,Rx,0,8,00,90,01,00,00,01,64,00,
49971994,00000100,false,Rx,0,8,00,00,00,00,9A,01,C8,00,
49972252,00000101,false,Rx,0,8,00,FF,FE,00,00,00,00,00,
49972487,00000102,false,Rx,0,8,00,90,01,00,00,01,64,00,
50059985,00000521,false,Rx,0,6,00,0C,00,FD,FF,FF,00,00,
50065021,00000523,false,Rx,0,6,02,0E,FB,FF,FF,FF,00,00,
50071992,00000100,false,Rx,0,8,00,00,00,00,9A,01,C8,00,
50072245,00000101,false,Rx,0,8,00,FF,FE,00,00,00,00,00,
50072487,00000102,false,Rx,0,8,00,90,01,00,00,01,64,00,
50171988,00000100,false,Rx,0,8,00,00,00,00,9A,01,C8,00,
50172241,00000101,false,Rx,0,8,00,FF,FE,00,00,00,00,00,
50172485,00000102,false,Rx,0,8,00,90,01,00,00,01,64,00,
50207669,00000522,false,Rx,0,6,01,0B,25,DD,05,00,00,00,
50271988,00000100,false,Rx,0,8,00,00,00,00,9A,01,C8,00,
50272236,00000101,false,Rx,0,8,00,FF,FE,00,00,00,00,00,
50272480,00000102,false,Rx,0,8,00,90,01,00,00,01,64,00,
50306149,00000525,false,Rx,0,6,04,01,17,01,00,00,00,00,
50348812,00000528,false,Rx,0,6,07,07,A6,0F,00,00,00,00,
50371986,00000100,false,Rx,0,8,00,00,00,00,9A,01,C8,00,
50372239,00000101,false,Rx,0,8,00,FF,FE,00,00,00,00,00,
50372485,00000102,false,Rx,0,8,00,90,01,00,00,01,64,00,
50418726,00000527,false,Rx,0,6,06,02,B0,94,00,00,00,00,
50458985,00000526,false,Rx,0,6,05,00,1E,01,00,00,00,00,
50462882,00000524,false,Rx,0,6,03,06,F4,FF,FF,FF,00,00,
50471980,00000100,false,Rx,0,8,00,00,00,00,9A,01,C8,00,
50472232,00000101,false,Rx,0,8,00,FF,FE,00,00,00,00,00,
50472475,00000102,false,Rx,0,8,00,90,01,00,00,01,64,00,
50571982,00000100,false,Rx,0,8,00,00,00,00,9A,01,C8,00,
50572235,00000101,false,Rx,0,8,00,FF,FE,00,00,00,00,00,
50572490,00000102,false,Rx,0,8,00,90,01,00,00,01,64,00,
50670836,00000521,false,Rx,0,6,00,0D,09,FD,FF,FF,00,00,
50671979,00000100,false,Rx,0,8,00,00,00,00,9A,01,C8,00,
50672231,00000101,false,Rx,0,8,00,FF,FE,00,00,00,00,00,
50672473,00000102,false,Rx,0,8,00,90,01,00,00,01,64,00,
50712032,00000523,false,Rx,0,6,02,0F,FB,FF,FF,FF,00,00,
50771976,00000100,false,Rx,0,8,00,00,00,00,9A,01,C8,00,
50772228,00000101,false,Rx,0,8,00,FF,FE,00,00,00,00,00,
50772469,00000102,false,Rx,0,8,00,90,01,00,00,01,64,00,
50836602,00000522,false,Rx,0,6,01,0C,28,DD,05,00,00,00,
50871977,00000100,false,Rx,0,8,00,00,00,00,9A,01,C8,00,
50872223,00000101,false,Rx,0,8,00,FF,FE,00,00,00,00,00,
50872471,00000102,false,Rx,0,8,00,90,01,00,00,01,64,00,
