Time Stamp,ID,Extended,Dir,Bus,LEN,D1,D2,D3,D4,D5,D6,D7,D8
5908156,00000523,false,Rx,0,6,02,09,F6,FF,FF,FF,00,00,
5962791,00000526,false,Rx,0,6,05,01,07,00,00,00,00,00,
5988856,00000522,false,Rx,0,6,01,0A,C6,AC,05,00,00,00,
6021231,00000528,false,Rx,0,6,07,06,05,26,00,00,00,00,
6182670,00000527,false,Rx,0,6,06,0F,CA,73,01,00,00,00,
6184620,00000521,false,Rx,0,6,00,09,F4,FF,FF,FF,00,00,
6219304,00000524,false,Rx,0,6,03,05,E6,FF,FF,FF,00,00,
6243177,00000525,false,Rx,0,6,04,0E,66,00,00,00,00,00,
6558557,00000523,false,Rx,0,6,02,0A,E0,FF,FF,FF,00,00,
6620566,00000522,false,Rx,0,6,01,0B,D1,AC,05,00,00,00,
6667291,00000526,false,Rx,0,6,05,02,FF,FF,FF,FF,00,00,
6761887,00000528,false,Rx,0,6,07,07,05,26,00,00,00,00,
6798132,00000521,false,Rx,0,6,00,0A,F5,FF,FF,FF,00,00,
6886936,00000524,false,Rx,0,6,03,06,F7,FF,FF,FF,00,00,
6905169,00000527,false,Rx,0,6,06,00,CA,73,01,00,00,00,
6929344,00000525,false,Rx,0,6,04,0F,66,00,00,00,00,00,
7207818,00000523,false,Rx,0,6,02,0B,E7,FF,FF,FF,00,00,
7252190,00000522,false,Rx,0,6,01,0C,CE,AC,05,00,00,00,
7371611,00000526,false,Rx,0,6,05,03,05,00,00,00,00,00,
7411620,00000521,false,Rx,0,6,00,0B,F8,FF,FF,FF,00,00,
7502525,00000528,false,Rx,0,6,07,08,05,26,00,00,00,00,
7554936,00000524,false,Rx,0,6,03,07,F8,FF,FF,FF,00,00,
7615485,00000525,false,Rx,0,6,04,00,66,00,00,00,00,00,
7627637,00000527,false,Rx,0,6,06,01,CA,73,01,00,00,00,
7857636,00000523,false,Rx,0,6,02,0C,E7,FF,FF,FF,00,00,
7883850,00000522,false,Rx,0,6,01,0D,CE,AC,05,00,00,00,
8025433,00000521,false,Rx,0,6,00,0C,FD,FF,FF,FF,00,00,
8075657,00000526,false,Rx,0,6,05,04,05,00,00,00,00,00,
8223412,00000524,false,Rx,0,6,03,08,F2,FF,FF,FF,00,00,
8243171,00000528,false,Rx,0,6,07,09,05,26,00,00,00,00,
8301637,00000525,false,Rx,0,6,04,01,66,00,00,00,00,00,
8350107,00000527,false,Rx,0,6,06,02,CA,73,01,00,00,00,
8507466,00000523,false,Rx,0,6,02,0D,EA,FF,FF,FF,00,00,
8515522,00000522,false,Rx,0,6,01,0E,D9,AC,05,00,00,00,
8638637,00000521,false,Rx,0,6,00,0D,F6,FF,FF,FF,00,00,
8780056,00000526,false,Rx,0,6,05,05,00,00,00,00,00,00,
8890941,00000524,false,Rx,0,6,03,09,F0,FF,FF,FF,00,00,
8983830,00000528,false,Rx,0,6,07,0A,05,26,00,00,00,00,
8987819,00000525,false,Rx,0,6,04,02,66,00,00,00,00,00,
9072626,00000527,false,Rx,0,6,06,03,CA,73,01,00,00,00,
9147224,00000522,false,Rx,0,6,01,0F,C2,AC,05,00,00,00,
9157328,00000523,false,Rx,0,6,02,0E,F9,FF,FF,FF,00,00,
9252676,00000521,false,Rx,0,6,00,0E,FD,FF,FF,FF,00,00,
9484569,00000526,false,Rx,0,6,05,06,07,00,00,00,00,00,
9558937,00000524,false,Rx,0,6,03,0A,E9,FF,FF,FF,00,00,
9673981,00000525,false,Rx,0,6,04,03,66,00,00,00,00,00,
9724488,00000528,false,Rx,0,6,07,0B,05,26,00,00,00,00,
9778895,00000522,false,Rx,0,6,01,00,CE,AC,05,00,00,00,
9795116,00000527,false,Rx,0,6,06,04,CA,73,01,00,00,00,
9807175,00000523,false,Rx,0,6,02,0F,F9,FF,FF,FF,00,00,
9865675,00000521,false,Rx,0,6,00,0F,F8,FF,FF,FF,00,00,
10188730,00000526,false,Rx,0,6,05,07,06,00,00,00,00,00,
10226949,00000524,false,Rx,0,6,03,0B,E3,FF,FF,FF,00,00,
10360153,00000525,false,Rx,0,6,04,04,66,00,00,00,00,00,
10410580,00000522,false,Rx,0,6,01,01,D2,AC,05,00,00,00,
10457013,00000523,false,Rx,0,6,02,00,E0,FF,FF,FF,00,00,
10465155,00000528,false,Rx,0,6,07,0C,05,26,00,00,00,00,
10479186,00000521,false,Rx,0,6,00,00,FA,FF,FF,FF,00,00,
10517613,00000527,false,Rx,0,6,06,05,CA,73,01,00,00,00,
10892976,00000526,false,Rx,0,6,05,08,00,00,00,00,00,00,
10894952,00000524,false,Rx,0,6,03,0C,F0,FF,FF,FF,00,00,
11042260,00000522,false,Rx,0,6,01,02,EA,AC,05,00,00,00,
11046323,00000525,false,Rx,0,6,04,05,66,00,00,00,00,00,
11092712,00000521,false,Rx,0,6,00,01,F9,FF,FF,FF,00,00,
11106840,00000523,false,Rx,0,6,02,01,E8,FF,FF,FF,00,00,
11205870,00000528,false,Rx,0,6,07,0D,05,26,00,00,00,00,
11240105,00000527,false,Rx,0,6,06,06,CA,73,01,00,00,00,
11562949,00000524,false,Rx,0,6,03,0D,E4,FF,FF,FF,00,00,
11597578,00000526,false,Rx,0,6,05,09,08,00,00,00,00,00,
11673933,00000522,false,Rx,0,6,01,03,D8,AC,05,00,00,00,
11706587,00000521,false,Rx,0,6,00,02,F9,FF,FF,FF,00,00,
11732478,00000525,false,Rx,0,6,04,06,66,00,00,00,00,00,
11756670,00000523,false,Rx,0,6,02,02,E8,FF,FF,FF,00,00,
11947005,00000528,false,Rx,0,6,07,0E,05,26,00,00,00,00,
11962587,00000527,false,Rx,0,6,06,07,CA,73,01,00,00,00,
12230942,00000524,false,Rx,0,6,03,0E,E9,FF,FF,FF,00,00,
12301864,00000526,false,Rx,0,6,05,0A,03,00,00,00,00,00,
12305602,00000522,false,Rx,0,6,01,04,E0,AC,05,00,00,00,
12320738,00000521,false,Rx,0,6,00,03,F7,FF,FF,FF,00,00,
12406522,00000523,false,Rx,0,6,02,03,F0,FF,FF,FF,00,00,
12418637,00000525,false,Rx,0,6,04,07,66,00,00,00,00,00,
12685071,00000527,false,Rx,0,6,06,08,CA,73,01,00,00,00,
12687096,00000528,false,Rx,0,6,07,0F,05,26,00,00,00,00,
12898928,00000524,false,Rx,0,6,03,0F,F7,FF,FF,FF,00,00,
12934231,00000521,false,Rx,0,6,00,04,F8,FF,FF,FF,00,00,
12937250,00000522,false,Rx,0,6,01,05,DC,AC,05,00,00,00,
13006363,00000526,false,Rx,0,6,05,0B,00,00,00,00,00,00,
13056338,00000523,false,Rx,0,6,02,04,FA,FF,FF,FF,00,00,
13104790,00000525,false,Rx,0,6,04,08,66,00,00,00,00,00,
13407542,00000527,false,Rx,0,6,06,09,CA,73,01,00,00,00,
13427724,00000528,false,Rx,0,6,07,00,05,26,00,00,00,00,
13547722,00000521,false,Rx,0,6,00,05,F8,FF,FF,FF,00,00,
13566903,00000524,false,Rx,0,6,03,00,F0,FF,FF,FF,00,00,
13568910,00000522,false,Rx,0,6,01,06,DC,AC,05,00,00,00,
13706155,00000523,false,Rx,0,6,02,05,FA,FF,FF,FF,00,00,
13710496,00000526,false,Rx,0,6,05,0C,05,00,00,00,00,00,
13790925,00000525,false,Rx,0,6,04,09,66,00,00,00,00,00,
14130007,00000527,false,Rx,0,6,06,0A,CA,73,01,00,00,00,
14161219,00000521,false,Rx,0,6,00,06,F7,FF,FF,FF,00,00,
14168359,00000528,false,Rx,0,6,07,01,05,26,00,00,00,00,
14200575,00000522,false,Rx,0,6,01,07,DB,AC,05,00,00,00,
14234895,00000524,false,Rx,0,6,03,01,E9,FF,FF,FF,00,00,
14355967,00000523,false,Rx,0,6,02,06,EE,FF,FF,FF,00,00,
14414635,00000526,false,Rx,0,6,05,0D,01,00,00,00,00,00,
14477075,00000525,false,Rx,0,6,04,0A,66,00,00,00,00,00,
14774715,00000521,false,Rx,0,6,00,07,F9,FF,FF,FF,00,00,
14832230,00000522,false,Rx,0,6,01,08,EB,AC,05,00,00,00,
14853038,00000527,false,Rx,0,6,06,0B,CA,73,01,00,00,00,
14902896,00000524,false,Rx,0,6,03,02,FD,FF,FF,FF,00,00,
14909011,00000528,false,Rx,0,6,07,02,05,26,00,00,00,00,
15005809,00000523,false,Rx,0,6,02,07,E4,FF,FF,FF,00,00,
15119152,00000526,false,Rx,0,6,05,0E,01,00,00,00,00,00,
15163227,00000525,false,Rx,0,6,04,0B,66,00,00,00,00,00,
15389231,00000521,false,Rx,0,6,00,08,F5,FF,FF,FF,00,00,
15463889,00000522,false,Rx,0,6,01,09,E0,AC,05,00,00,00,
15570877,00000524,false,Rx,0,6,03,03,FD,FF,FF,FF,00,00,
15574956,00000527,false,Rx,0,6,06,0C,CA,73,01,00,00,00,
15649631,00000528,false,Rx,0,6,07,03,05,26,00,00,00,00,
15655617,00000523,false,Rx,0,6,02,08,E4,FF,FF,FF,00,00,
15823461,00000526,false,Rx,0,6,05,0F,0B,00,00,00,00,00,
15849377,00000525,false,Rx,0,6,04,0C,66,00,00,00,00,00,
16003079,00000521,false,Rx,0,6,00,09,FC,FF,FF,FF,00,00,
16095541,00000522,false,Rx,0,6,01,0A,E0,AC,05,00,00,00,
16238862,00000524,false,Rx,0,6,03,04,FD,FF,FF,FF,00,00,
16297430,00000527,false,Rx,0,6,06,0D,CA,73,01,00,00,00,
16305446,00000523,false,Rx,0,6,02,09,E4,FF,FF,FF,00,00,
16390273,00000528,false,Rx,0,6,07,04,05,26,00,00,00,00,
16527721,00000526,false,Rx,0,6,05,00,F8,FF,FF,FF,00,00,
16535528,00000525,false,Rx,0,6,04,0D,66,00,00,00,00,00,
16616224,00000521,false,Rx,0,6,00,0A,F8,FF,FF,FF,00,00,
16727630,00000522,false,Rx,0,6,01,0B,E3,AC,05,00,00,00,
16906861,00000524,false,Rx,0,6,03,05,FD,FF,FF,FF,00,00,
16955270,00000523,false,Rx,0,6,02,0A,F0,FF,FF,FF,00,00,
17019918,00000527,false,Rx,0,6,06,0E,CA,73,01,00,00,00,
17130924,00000528,false,Rx,0,6,07,05,05,26,00,00,00,00,
17221685,00000525,false,Rx,0,6,04,0E,66,00,00,00,00,00,
17229734,00000521,false,Rx,0,6,00,0B,F9,FF,FF,FF,00,00,
17231904,00000526,false,Rx,0,6,05,01,FD,FF,FF,FF,00,00,
17358891,00000522,false,Rx,0,6,01,0C,E4,AC,05,00,00,00,
17575071,00000524,false,Rx,0,6,03,06,E6,FF,FF,FF,00,00,
17605856,00000523,false,Rx,0,6,02,0B,F1,FF,FF,FF,00,00,
17742642,00000527,false,Rx,0,6,06,0F,CA,73,01,00,00,00,
17843230,00000521,false,Rx,0,6,00,0C,F7,FF,FF,FF,00,00,
17871575,00000528,false,Rx,0,6,07,06,05,26,00,00,00,00,
17908359,00000525,false,Rx,0,6,04,0F,66,00,00,00,00,00,
17936394,00000526,false,Rx,0,6,05,02,0A,00,00,00,00,00,
17990550,00000522,false,Rx,0,6,01,0D,FD,AC,05,00,00,00,
18242830,00000524,false,Rx,0,6,03,07,ED,FF,FF,FF,00,00,
18254921,00000523,false,Rx,0,6,02,0C,FA,FF,FF,FF,00,00,
18456742,00000521,false,Rx,0,6,00,0D,F2,FF,FF,FF,00,00,
18464873,00000527,false,Rx,0,6,06,00,CA,73,01,00,00,00,
18593987,00000525,false,Rx,0,6,04,00,66,00,00,00,00,00,
18612207,00000528,false,Rx,0,6,07,07,05,26,00,00,00,00,
18622215,00000522,false,Rx,0,6,01,0E,F4,AC,05,00,00,00,
18640528,00000526,false,Rx,0,6,05,03,FF,FF,FF,FF,00,00,
18904770,00000523,false,Rx,0,6,02,0D,FA,FF,FF,FF,00,00,
18910817,00000524,false,Rx,0,6,03,08,F1,FF,FF,FF,00,00,
19070235,00000521,false,Rx,0,6,00,0E,F7,FF,FF,FF,00,00,
19187363,00000527,false,Rx,0,6,06,01,CA,73,01,00,00,00,
19253872,00000522,false,Rx,0,6,01,0F,E7,AC,05,00,00,00,
19280150,00000525,false,Rx,0,6,04,01,66,00,00,00,00,00,
19345042,00000526,false,Rx,0,6,05,04,01,00,00,00,00,00,
19352853,00000528,false,Rx,0,6,07,08,05,26,00,00,00,00,
19554584,00000523,false,Rx,0,6,02,0E,FA,FF,FF,FF,00,00,
19578812,00000524,false,Rx,0,6,03,09,EA,FF,FF,FF,00,00,
19683732,00000521,false,Rx,0,6,00,0F,FB,FF,FF,FF,00,00,
19885533,00000522,false,Rx,0,6,01,00,E6,AC,05,00,00,00,
19909828,00000527,false,Rx,0,6,06,02,CA,73,01,00,00,00,
19966828,00000525,false,Rx,0,6,04,02,66,00,00,00,00,00,
20049359,00000526,false,Rx,0,6,05,05,05,00,00,00,00,00,
20093482,00000528,false,Rx,0,6,07,09,05,26,00,00,00,00,
20204421,00000523,false,Rx,0,6,02,0F,E6,FF,FF,FF,00,00,
20246803,00000524,false,Rx,0,6,03,0A,EA,FF,FF,FF,00,00,
20297234,00000521,false,Rx,0,6,00,00,F7,FF,FF,FF,00,00,
20517215,00000522,false,Rx,0,6,01,01,F1,AC,05,00,00,00,
20632844,00000527,false,Rx,0,6,06,03,CA,73,01,00,00,00,
20652464,00000525,false,Rx,0,6,04,03,66,00,00,00,00,00,
20753976,00000526,false,Rx,0,6,05,06,02,00,00,00,00,00,
20834152,00000528,false,Rx,0,6,07,0A,05,26,00,00,00,00,
20854243,00000523,false,Rx,0,6,02,00,EB,FF,FF,FF,00,00,
20911766,00000521,false,Rx,0,6,00,01,F9,FF,FF,FF,00,00,
20914811,00000524,false,Rx,0,6,03,0B,E9,FF,FF,FF,00,00,
21148881,00000522,false,Rx,0,6,01,02,F8,AC,05,00,00,00,
21338616,00000525,false,Rx,0,6,04,04,66,00,00,00,00,00,
21354812,00000527,false,Rx,0,6,06,04,CB,73,01,00,00,00,
21457820,00000526,false,Rx,0,6,05,07,06,00,00,00,00,00,
21504088,00000523,false,Rx,0,6,02,01,EB,FF,FF,FF,00,00,
21525283,00000521,false,Rx,0,6,00,02,F2,FF,FF,FF,00,00,
21574806,00000528,false,Rx,0,6,07,0B,05,26,00,00,00,00,
21582821,00000524,false,Rx,0,6,03,0C,01,00,00,00,00,00,
21742403,00000100,false,Rx,0,8,00,00,00,00,9A,01,C8,00,
21742655,00000101,false,Rx,0,8,00,FF,FE,00,00,00,00,00,
21742900,00000102,false,Rx,0,8,01,90,01,00,00,00,00,00,
21780578,00000522,false,Rx,0,6,01,03,EE,AC,05,00,00,00,
21842403,00000100,false,Rx,0,8,00,00,00,00,9A,01,C8,00,
21842648,00000101,false,Rx,0,8,00,FF,FE,00,00,00,00,00,
21842901,00000102,false,Rx,0,8,01,90,01,00,00,00,00,00,
21942400,00000100,false,Rx,0,8,00,00,00,00,9A,01,C8,00,
21942646,00000101,false,Rx,0,8,00,FF,FE,00,00,00,00,00,
21942898,00000102,false,Rx,0,8,01,90,01,00,00,00,00,00,
22025321,00000525,false,Rx,0,6,04,05,66,00,00,00,00,00,
22042397,00000100,false,Rx,0,8,00,00,00,00,9A,01,C8,00,
22042645,00000101,false,Rx,0,8,00,FF,FE,00,00,00,00,00,
22042897,00000102,false,Rx,0,8,01,90,01,00,00,00,00,00,
22077557,00000527,false,Rx,0,6,06,05,CB,73,01,00,00,00,
22138800,00000521,false,Rx,0,6,00,03,F7,FF,FF,FF,00,00,
22142396,00000100,false,Rx,0,8,00,00,00,00,9A,01,C8,00,
22142644,00000101,false,Rx,0,8,00,FF,FE,00,00,00,00,00,
22142890,00000102,false,Rx,0,8,01,90,01,00,00,00,00,00,
22153934,00000523,false,Rx,0,6,02,02,E8,FF,FF,FF,00,00,
22162329,00000526,false,Rx,0,6,05,08,04,00,00,00,00,00,
22242397,00000100,false,Rx,0,8,00,00,00,00,9A,01,C8,00,
22242644,00000101,false,Rx,0,8,00,FF,FE,00,00,00,00,00,
22242889,00000102,false,Rx,0,8,01,90,01,00,00,00,00,00,
22250816,00000524,false,Rx,0,6,03,0D,F2,FF,FF,FF,00,00,
22315465,00000528,false,Rx,0,6,07,0C,05,26,00,00,00,00,
22342391,00000100,false,Rx,0,8,00,00,00,00,9A,01,C8,00,
22342639,00000101,false,Rx,0,8,00,FF,FE,00,00,00,00,00,
22342890,00000102,false,Rx,0,8,01,90,01,00,00,00,00,00,
22412262,00000522,false,Rx,0,6,01,04,F5,AC,05,00,00,00,
22442390,00000100,false,Rx,0,8,00,00,00,00,9A,01,C8,00,
22442637,00000101,false,Rx,0,8,00,FF,FE,00,00,00,00,00,
22442890,00000102,false,Rx,0,8,01,90,01,00,00,00,00,00,
22542384,00000100,false,Rx,0,8,00,00,00,00,9A,01,C8,00,
22542636,00000101,false,Rx,0,8,00,FF,FE,00,00,00,00,00,
22542885,00000102,false,Rx,0,8,01,90,01,00,00,00,00,00,
22642387,00000100,false,Rx,0,8,00,00,00,00,9A,01,C8,00,
22642633,00000101,false,Rx,0,8,00,FF,FE,00,00,00,00,00,
22642881,00000102,false,Rx,0,8,01,90,01,00,00,00,00,00,
22710972,00000525,false,Rx,0,6,04,06,66,00,00,00,00,00,
22742381,00000100,false,Rx,0,8,00,00,00,00,9A,01,C8,00,
22742633,00000101,false,Rx,0,8,00,FF,FE,00,00,00,00,00,
22742878,00000102,false,Rx,0,8,01,90,01,00,00,01,00,00,
22752852,00000521,false,Rx,0,6,00,04,F9,FF,FF,FF,00,00,
22799816,00000527,false,Rx,0,6,06,06,CB,73,01,00,00,00,
22803794,00000523,false,Rx,0,6,02,03,E6,FF,FF,FF,00,00,
22842384,00000100,false,Rx,0,8,00,00,00,00,9A,01,C8,00,
22842630,00000101,false,Rx,0,8,00,FF,FE,00,00,00,00,00,
22842877,00000102,false,Rx,0,8,01,90,01,00,00,01,00,00,
22866504,00000526,false,Rx,0,6,05,09,F9,FF,FF,FF,00,00,
22918831,00000524,false,Rx,0,6,03,0E,E8,FF,FF,FF,00,00,
22942377,00000100,false,Rx,0,8,00,00,00,00,9A,01,C8,00,
22942629,00000101,false,Rx,0,8,00,FF,FE,00,00,00,00,00,
22942874,00000102,false,Rx,0,8,01,90,01,00,00,01,00,00,
23042376,00000100,false,Rx,0,8,00,00,00,00,9A,01,C8,00,
23042629,00000101,false,Rx,0,8,00,FF,FE,00,00,00,00,00,
23042871,00000102,false,Rx,0,8,01,90,01,00,00,01,00,00,
23043932,00000522,false,Rx,0,6,01,05,FF,AC,05,00,00,00,
23056289,00000528,false,Rx,0,6,07,0D,05,26,00,00,00,00,
23142378,00000100,false,Rx,0,8,00,00,00,00,9A,01,C8,00,
23142623,00000101,false,Rx,0,8,00,FF,FE,00,00,00,00,00,
23142889,00000102,false,Rx,0,8,01,90,01,00,00,01,00,00,
23242371,00000100,false,Rx,0,8,00,00,00,00,9A,01,C8,00,
23242623,00000101,false,Rx,0,8,00,FF,FE,00,00,00,00,00,
23242869,00000102,false,Rx,0,8,01,90,01,00,00,01,00,00,
23342372,00000100,false,Rx,0,8,00,00,00,00,9A,01,C8,00,
23342624,00000101,false,Rx,0,8,00,FF,FE,00,00,00,00,00,
23342870,00000102,false,Rx,0,8,01,90,01,00,00,01,00,00,
23365846,00000521,false,Rx,0,6,00,05,F9,FF,FF,FF,00,00,
23397156,00000525,false,Rx,0,6,04,07,66,00,00,00,00,00,
23442367,00000100,false,Rx,0,8,00,00,00,00,9A,01,C8,00,
23442620,00000101,false,Rx,0,8,00,FF,FE,00,00,00,00,00,
23442865,00000102,false,Rx,0,8,01,90,01,00,00,01,00,00,
23453647,00000523,false,Rx,0,6,02,04,E6,FF,FF,FF,00,00,
23522334,00000527,false,Rx,0,6,06,07,CB,73,01,00,00,00,
23542366,00000100,false,Rx,0,8,00,00,00,00,9A,01,C8,00,
23542618,00000101,false,Rx,0,8,00,FF,FE,00,00,00,00,00,
23542864,00000102,false,Rx,0,8,01,90,01,00,00,01,00,00,
23571081,00000526,false,Rx,0,6,05,0A,04,00,00,00,00,00,
23586863,00000524,false,Rx,0,6,03,0F,F1,FF,FF,FF,00,00,
23642365,00000100,false,Rx,0,8,00,00,00,00,9A,01,C8,00,
23642617,00000101,false,Rx,0,8,00,FF,FE,00,00,00,00,00,
23642862,00000102,false,Rx,0,8,01,90,01,00,00,01,00,00,
23675643,00000522,false,Rx,0,6,01,06,F1,AC,05,00,00,00,
23742359,00000100,false,Rx,0,8,00,00,00,00,9A,01,C8,00,
23742611,00000101,false,Rx,0,8,00,FF,FE,00,00,00,00,00,
23742857,00000102,false,Rx,0,8,01,90,01,00,00,01,00,00,
23796804,00000528,false,Rx,0,6,07,0E,05,26,00,00,00,00,
23842360,00000100,false,Rx,0,8,00,00,00,00,9A,01,C8,00,
23842612,00000101,false,Rx,0,8,00,FF,FE,00,00,00,00,00,
23842858,00000102,false,Rx,0,8,01,90,01,00,00,01,00,00,
23942357,00000100,false,Rx,0,8,00,00,00,00,9A,01,C8,00,
23942610,00000101,false,Rx,0,8,00,FF,FE,00,00,00,00,00,
23942856,00000102,false,Rx,0,8,01,90,01,00,00,01,00,00,
23979369,00000521,false,Rx,0,6,00,06,F5,FF,FF,FF,00,00,
24042353,00000100,false,Rx,0,8,00,00,00,00,9A,01,C8,00,
24042606,00000101,false,Rx,0,8,00,FF,FE,00,00,00,00,00,
24042852,00000102,false,Rx,0,8,01,90,01,00,00,01,00,00,
24083363,00000525,false,Rx,0,6,04,08,66,00,00,00,00,00,
24103489,00000523,false,Rx,0,6,02,05,EA,FF,FF,FF,00,00,
24142357,00000100,false,Rx,0,8,00,00,00,00,9A,01,C8,00,
24142605,00000101,false,Rx,0,8,00,FF,FE,00,00,00,00,00,
24142851,00000102,false,Rx,0,8,01,90,01,00,00,01,00,00,
24242351,00000100,false,Rx,0,8,00,00,00,00,9A,01,C8,00,
24242603,00000101,false,Rx,0,8,00,FF,FE,00,00,00,00,00,
24242849,00000102,false,Rx,0,8,01,90,01,00,00,01,00,00,
24244814,00000527,false,Rx,0,6,06,08,CB,73,01,00,00,00,
24254866,00000524,false,Rx,0,6,03,00,F6,FF,FF,FF,00,00,
24275358,00000526,false,Rx,0,6,05,0B,0B,00,00,00,00,00,
24307314,00000522,false,Rx,0,6,01,07,F1,AC,05,00,00,00,
24342349,00000100,false,Rx,0,8,00,00,00,00,9A,01,C8,00,
24342598,00000101,false,Rx,0,8,00,FF,FE,00,00,00,00,00,
24342849,00000102,false,Rx,0,8,01,90,01,00,00,01,00,00,
24442344,00000100,false,Rx,0,8,00,00,00,00,9A,01,C8,00,
24442597,00000101,false,Rx,0,8,00,FF,FE,00,00,00,00,00,
24442843,00000102,false,Rx,0,8,01,90,01,00,00,01,00,00,
24537452,00000528,false,Rx,0,6,07,0F,05,26,00,00,00,00,
24542344,00000100,false,Rx,0,8,00,00,00,00,9A,01,C8,00,
24542604,00000101,false,Rx,0,8,00,FF,FE,00,00,00,00,00,
24542845,00000102,false,Rx,0,8,01,90,01,00,00,01,00,00,
24592873,00000521,false,Rx,0,6,00,07,F7,FF,FF,FF,00,00,
24642341,00000100,false,Rx,0,8,00,00,00,00,9A,01,C8,00,
24642593,00000101,false,Rx,0,8,00,FF,FE,00,00,00,00,00,
24642844,00000102,false,Rx,0,8,01,90,01,00,00,01,00,00,
24742340,00000100,false,Rx,0,8,00,00,00,00,9A,01,C8,00,
24742593,00000101,false,Rx,0,8,00,FF,FE,00,00,00,00,00,
24742842,00000102,false,Rx,0,8,01,90,01,00,00,01,00,00,
24753322,00000523,false,Rx,0,6,02,06,EA,FF,FF,FF,00,00,
24769483,00000525,false,Rx,0,6,04,09,66,00,00,00,00,00,
24842338,00000100,false,Rx,0,8,00,00,00,00,9A,01,C8,00,
24842590,00000101,false,Rx,0,8,00,FF,FE,00,00,00,00,00,
24842839,00000102,false,Rx,0,8,01,90,01,00,00,01,00,00,
24922857,00000524,false,Rx,0,6,03,01,F7,FF,FF,FF,00,00,
24938964,00000522,false,Rx,0,6,01,08,05,AD,05,00,00,00,
24942338,00000100,false,Rx,0,8,00,00,00,00,9A,01,C8,00,
24942590,00000101,false,Rx,0,8,00,FF,FE,00,00,00,00,00,
24942838,00000102,false,Rx,0,8,01,90,01,00,00,01,00,00,
24967298,00000527,false,Rx,0,6,06,09,CB,73,01,00,00,00,
24979630,00000526,false,Rx,0,6,05,0C,03,00,00,00,00,00,
25042335,00000100,false,Rx,0,8,00,00,00,00,9A,01,C8,00,
25042587,00000101,false,Rx,0,8,00,FF,FE,00,00,00,00,00,
25042830,00000102,false,Rx,0,8,01,90,01,00,00,01,00,00,
25142336,00000100,false,Rx,0,8,00,00,00,00,9A,01,C8,00,
25142581,00000101,false,Rx,0,8,00,FF,FE,00,00,00,00,00,
25142841,00000102,false,Rx,0,8,01,90,01,00,00,01,00,00,
25206420,00000521,false,Rx,0,6,00,08,F3,FF,FF,FF,00,00,
25242328,00000100,false,Rx,0,8,00,00,00,00,9A,01,C8,00,
25242581,00000101,false,Rx,0,8,00,FF,FE,00,00,00,00,00,
25242826,00000102,false,Rx,0,8,01,90,01,00,00,01,00,00,
25278108,00000528,false,Rx,0,6,07,00,05,26,00,00,00,00,
25342327,00000100,false,Rx,0,8,00,00,00,00,9A,01,C8,00,
25342579,00000101,false,Rx,0,8,00,FF,FE,00,00,00,00,00,
25342825,00000102,false,Rx,0,8,01,90,01,00,00,01,00,00,
25403156,00000523,false,Rx,0,6,02,07,EA,FF,FF,FF,00,00,
25442333,00000100,false,Rx,0,8,00,00,00,00,9A,01,C8,00,
25442579,00000101,false,Rx,0,8,00,FF,FE,00,00,00,00,00,
25442826,00000102,false,Rx,0,8,01,90,01,00,00,01,00,00,
25455649,00000525,false,Rx,0,6,04,0A,66,00,00,00,00,00,
25542324,00000100,false,Rx,0,8,00,00,00,00,9A,01,C8,00,
25542577,00000101,false,Rx,0,8,00,FF,FE,00,00,00,00,00,
25542823,00000102,false,Rx,0,8,01,90,01,00,00,01,00,00,
25570655,00000522,false,Rx,0,6,01,09,F4,AC,05,00,00,00,
25590862,00000524,false,Rx,0,6,03,02,F6,FF,FF,FF,00,00,
25642323,00000100,false,Rx,0,8,00,00,00,00,9A,01,C8,00,
25642575,00000101,false,Rx,0,8,00,FF,FE,00,00,00,00,00,
25642821,00000102,false,Rx,0,8,01,90,01,00,00,01,00,00,
25683828,00000526,false,Rx,0,6,05,0D,06,00,00,00,00,00,
25690116,00000527,false,Rx,0,6,06,0A,CB,73,01,00,00,00,
25742323,00000100,false,Rx,0,8,00,00,00,00,9A,01,C8,00,
25742569,00000101,false,Rx,0,8,00,FF,FE,00,00,00,00,00,
25742821,00000102,false,Rx,0,8,01,90,01,00,00,01,00,00,
25819892,00000521,false,Rx,0,6,00,09,F2,FF,FF,FF,00,00,
25842321,00000100,false,Rx,0,8,00,00,00,00,9A,01,C8,00,
25842566,00000101,false,Rx,0,8,00,FF,FE,00,00,00,00,00,
25842818,00000102,false,Rx,0,8,01,90,01,00,00,01,00,00,
25942316,00000100,false,Rx,0,8,00,00,00,00,9A,01,C8,00,
25942569,00000101,false,Rx,0,8,00,FF,FE,00,00,00,00,00,
25942815,00000102,false,Rx,0,8,01,90,01,00,00,01,00,00,
26018767,00000528,false,Rx,0,6,07,01,05,26,00,00,00,00,
26042317,00000100,false,Rx,0,8,00,00,00,00,9A,01,C8,00,
26042566,00000101,false,Rx,0,8,00,FF,FE,00,00,00,00,00,
26042811,00000102,false,Rx,0,8,01,90,01,00,00,01,00,00,
26053307,00000523,false,Rx,0,6,02,08,E5,FF,FF,FF,00,00,
26142087,00000525,false,Rx,0,6,04,0B,66,00,00,00,00,00,
26142334,00000100,false,Rx,0,8,00,00,00,00,9A,01,C8,00,
26142583,00000101,false,Rx,0,8,00,FF,FE,00,00,00,00,00,
26142828,00000102,false,Rx,0,8,01,90,01,00,00,01,00,00,
26202736,00000522,false,Rx,0,6,01,0A,00,AD,05,00,00,00,
26242314,00000100,false,Rx,0,8,00,00,00,00,9A,01,C8,00,
26242563,00000101,false,Rx,0,8,00,FF,FE,00,00,00,00,00,
26242809,00000102,false,Rx,0,8,01,90,01,00,00,01,00,00,
26258871,00000524,false,Rx,0,6,03,03,E5,FF,FF,FF,00,00,
26342308,00000100,false,Rx,0,8,00,00,00,00,9A,01,C8,00,
26342560,00000101,false,Rx,0,8,00,FF,FE,00,00,00,00,00,
26342806,00000102,false,Rx,0,8,01,90,01,00,00,01,00,00,
26388341,00000526,false,Rx,0,6,05,0E,01,00,00,00,00,00,
26412305,00000527,false,Rx,0,6,06,0B,CB,73,01,00,00,00,
26433415,00000521,false,Rx,0,6,00,0A,F7,FF,FF,FF,00,00,
26442303,00000100,false,Rx,0,8,00,00,00,00,9A,01,C8,00,
26442555,00000101,false,Rx,0,8,00,FF,FE,00,00,00,00,00,
26442801,00000102,false,Rx,0,8,01,90,01,00,00,01,00,00,
26542304,00000100,false,Rx,0,8,00,00,00,00,9A,01,C8,00,
26542568,00000101,false,Rx,0,8,00,FF,FE,00,00,00,00,00,
26542803,00000102,false,Rx,0,8,01,90,01,00,00,01,00,00,
26642304,00000100,false,Rx,0,8,00,00,00,00,9A,01,C8,00,
26642550,00000101,false,Rx,0,8,00,FF,FE,00,00,00,00,00,
26642799,00000102,false,Rx,0,8,01,90,01,00,00,01,00,00,
26702848,00000523,false,Rx,0,6,02,09,DF,FF,FF,FF,00,00,
26742297,00000100,false,Rx,0,8,00,00,00,00,9A,01,C8,00,
26742549,00000101,false,Rx,0,8,00,FF,FE,00,00,00,00,00,
26742800,00000102,false,Rx,0,8,01,90,01,00,00,01,00,00,
26759434,00000528,false,Rx,0,6,07,02,05,26,00,00,00,00,
26827995,00000525,false,Rx,0,6,04,0C,66,00,00,00,00,00,
26834018,00000522,false,Rx,0,6,01,0B,F8,AC,05,00,00,00,
26842297,00000100,false,Rx,0,8,00,00,00,00,9A,01,C8,00,
26842550,00000101,false,Rx,0,8,00,FF,FE,00,00,00,00,00,
26842797,00000102,false,Rx,0,8,01,90,01,00,00,01,00,00,
26926872,00000524,false,Rx,0,6,03,04,EE,FF,FF,FF,00,00,
26942294,00000100,false,Rx,0,8,00,00,00,00,9A,01,C8,00,
26942546,00000101,false,Rx,0,8,00,FF,FE,00,00,00,00,00,
26942797,00000102,false,Rx,0,8,01,90,01,00,00,01,00,00,
27042291,00000100,false,Rx,0,8,00,00,00,00,9A,01,C8,00,
27042544,00000101,false,Rx,0,8,00,FF,FE,00,00,00,00,00,
27042793,00000102,false,Rx,0,8,01,90,01,00,00,01,00,00,
27046938,00000521,false,Rx,0,6,00,0B,FA,FF,FF,FF,00,00,
27092485,00000526,false,Rx,0,6,05,0F,03,00,00,00,00,00,
27134790,00000527,false,Rx,0,6,06,0C,CB,73,01,00,00,00,
27142290,00000100,false,Rx,0,8,00,00,00,00,9A,01,C8,00,
27142542,00000101,false,Rx,0,8,00,FF,FE,00,00,00,00,00,
27142792,00000102,false,Rx,0,8,01,90,01,00,00,01,00,00,
27242288,00000100,false,Rx,0,8,00,00,00,00,9A,01,C8,00,
27242540,00000101,false,Rx,0,8,00,FF,FE,00,00,00,00,00,
27242786,00000102,false,Rx,0,8,01,90,01,00,00,01,00,00,
27342286,00000100,false,Rx,0,8,00,00,00,00,9A,01,C8,00,
27342537,00000101,false,Rx,0,8,00,FF,FE,00,00,00,00,00,
27342783,00000102,false,Rx,0,8,01,90,01,00,00,01,00,00,
27352975,00000523,false,Rx,0,6,02,0A,DF,FF,FF,FF,00,00,
27442286,00000100,false,Rx,0,8,00,00,00,00,9A,01,C8,00,
27442538,00000101,false,Rx,0,8,00,FF,FE,00,00,00,00,00,
27442784,00000102,false,Rx,0,8,01,90,01,00,00,01,00,00,
27465715,00000522,false,Rx,0,6,01,0C,FB,AC,05,00,00,00,
27500102,00000528,false,Rx,0,6,07,03,05,26,00,00,00,00,
27514183,00000525,false,Rx,0,6,04,0D,66,00,00,00,00,00,
27542280,00000100,false,Rx,0,8,00,00,00,00,9A,01,C8,00,
27542533,00000101,false,Rx,0,8,00,FF,FE,00,00,00,00,00,
27542779,00000102,false,Rx,0,8,01,90,01,00,00,01,00,00,
27594937,00000524,false,Rx,0,6,03,05,03,00,00,00,00,00,
27642282,00000100,false,Rx,0,8,00,00,00,00,9A,01,C8,00,
27642528,00000101,false,Rx,0,8,00,FF,FE,00,00,00,00,00,
27642780,00000102,false,Rx,0,8,01,90,01,00,00,01,00,00,
27660475,00000521,false,Rx,0,6,00,0C,F6,FF,FF,FF,00,00,
27742280,00000100,false,Rx,0,8,00,00,00,00,9A,01,C8,00,
27742532,00000101,false,Rx,0,8,00,FF,FE,00,00,00,00,00,
27742778,00000102,false,Rx,0,8,01,90,01,00,00,01,00,00,
27797043,00000526,false,Rx,0,6,05,00,01,00,00,00,00,00,
27842280,00000100,false,Rx,0,8,00,00,00,00,9A,01,C8,00,
27842525,00000101,false,Rx,0,8,00,FF,FE,00,00,00,00,00,
27842778,00000102,false,Rx,0,8,01,90,01,00,00,01,00,00,
27857310,00000527,false,Rx,0,6,06,0D,CB,73,01,00,00,00,
27942273,00000100,false,Rx,0,8,00,00,00,00,9A,01,C8,00,
27942525,00000101,false,Rx,0,8,00,FF,FE,00,00,00,00,00,
27942770,00000102,false,Rx,0,8,01,90,01,00,00,01,00,00,
28002567,00000523,false,Rx,0,6,02,0B,E4,FF,FF,FF,00,00,
28042273,00000100,false,Rx,0,8,00,00,00,00,9A,01,C8,00,
28042526,00000101,false,Rx,0,8,00,FF,FE,00,00,00,00,00,
28042771,00000102,false,Rx,0,8,01,90,01,00,00,01,00,00,
28097396,00000522,false,Rx,0,6,01,0D,0E,AD,05,00,00,00,
28142273,00000100,false,Rx,0,8,00,00,00,00,9A,01,C8,00,
28142519,00000101,false,Rx,0,8,00,FF,FE,00,00,00,00,00,
28142770,00000102,false,Rx,0,8,01,90,01,00,00,01,00,00,
28200622,00000525,false,Rx,0,6,04,0E,66,00,00,00,00,00,
28240771,00000528,false,Rx,0,6,07,04,05,26,00,00,00,00,
28242268,00000100,false,Rx,0,8,00,00,00,00,9A,01,C8,00,
28242520,00000101,false,Rx,0,8,00,FF,FE,00,00,00,00,00,
28242766,00000102,false,Rx,0,8,01,90,01,00,00,01,00,00,
28263175,00000524,false,Rx,0,6,03,06,F8,FF,FF,FF,00,00,
28273985,00000521,false,Rx,0,6,00,0D,FA,FF,FF,FF,00,00,
28342265,00000100,false,Rx,0,8,00,00,00,00,9A,01,C8,00,
28342518,00000101,false,Rx,0,8,00,FF,FE,00,00,00,00,00,
28342764,00000102,false,Rx,0,8,01,90,01,00,00,01,00,00,
28442261,00000100,false,Rx,0,8,00,00,00,00,9A,01,C8,00,
28442513,00000101,false,Rx,0,8,00,FF,FE,00,00,00,00,00,
28442759,00000102,false,Rx,0,8,01,90,01,00,00,01,00,00,
28501375,00000526,false,Rx,0,6,05,01,04,00,00,00,00,00,
28542264,00000100,false,Rx,0,8,00,00,00,00,9A,01,C8,00,
28542513,00000101,false,Rx,0,8,00,FF,FE,00,00,00,00,00,
28542758,00000102,false,Rx,0,8,01,90,01,00,00,01,00,00,
28579809,00000527,false,Rx,0,6,06,0E,CB,73,01,00,00,00,
28642261,00000100,false,Rx,0,8,00,00,00,00,9A,01,C8,00,
28642507,00000101,false,Rx,0,8,00,FF,FE,00,00,00,00,00,
28642759,00000102,false,Rx,0,8,01,90,01,00,00,01,00,00,
28652408,00000523,false,Rx,0,6,02,0C,F0,FF,FF,FF,00,00,
28729087,00000522,false,Rx,0,6,01,0E,09,AD,05,00,00,00,
28742261,00000100,false,Rx,0,8,00,00,00,00,9A,01,C8,00,
28742510,00000101,false,Rx,0,8,00,FF,FE,00,00,00,00,00,
28742755,00000102,false,Rx,0,8,01,90,01,00,00,01,00,00,
28842255,00000100,false,Rx,0,8,00,00,00,00,9A,01,C8,00,
28842507,00000101,false,Rx,0,8,00,FF,FE,00,00,00,00,00,
28842753,00000102,false,Rx,0,8,01,90,01,00,00,01,00,00,
28886528,00000525,false,Rx,0,6,04,0F,66,00,00,00,00,00,
28887836,00000521,false,Rx,0,6,00,0E,F9,FF,FF,FF,00,00,
28930917,00000524,false,Rx,0,6,03,07,F6,FF,FF,FF,00,00,
28942254,00000100,false,Rx,0,8,00,00,00,00,9A,01,C8,00,
28942503,00000101,false,Rx,0,8,00,FF,FE,00,00,00,00,00,
28942755,00000102,false,Rx,0,8,01,90,01,00,00,01,00,00,
28981506,00000528,false,Rx,0,6,07,05,05,26,00,00,00,00,
29042255,00000100,false,Rx,0,8,00,00,00,00,9A,01,C8,00,
29042513,00000101,false,Rx,0,8,00,FF,FE,00,00,00,00,00,
29042747,00000102,false,Rx,0,8,01,90,01,00,00,01,00,00,
29142248,00000100,false,Rx,0,8,00,00,00,00,9A,01,C8,00,
29142500,00000101,false,Rx,0,8,00,FF,FE,00,00,00,00,00,
29142749,00000102,false,Rx,0,8,01,90,01,00,00,01,00,00,
29205675,00000526,false,Rx,0,6,05,02,01,00,00,00,00,00,
29242249,00000100,false,Rx,0,8,00,00,00,00,9A,01,C8,00,
29242501,00000101,false,Rx,0,8,00,FF,FE,00,00,00,00,00,
29242747,00000102,false,Rx,0,8,01,90,01,00,00,01,00,00,
29302553,00000523,false,Rx,0,6,02,0D,F0,FF,FF,FF,00,00,
29302781,00000527,false,Rx,0,6,06,0F,CB,73,01,00,00,00,
29342242,00000100,false,Rx,0,8,00,00,00,00,9A,01,C8,00,
29342495,00000101,false,Rx,0,8,00,FF,FE,00,00,00,00,00,
29342743,00000102,false,Rx,0,8,01,90,01,00,00,01,00,00,
29360765,00000522,false,Rx,0,6,01,0F,F9,AC,05,00,00,00,
29442246,00000100,false,Rx,0,8,00,00,00,00,9A,01,C8,00,
29442492,00000101,false,Rx,0,8,00,FF,FE,00,00,00,00,00,
29442740,00000102,false,Rx,0,8,01,90,01,00,00,01,00,00,
29501039,00000521,false,Rx,0,6,00,0F,F7,FF,FF,FF,00,00,
29542245,00000100,false,Rx,0,8,00,00,00,00,9A,01,C8,00,
29542490,00000101,false,Rx,0,8,00,FF,FE,00,00,00,00,00,
29542742,00000102,false,Rx,0,8,01,90,01,00,00,01,00,00,
29572699,00000525,false,Rx,0,6,04,00,66,00,00,00,00,00,
29598927,00000524,false,Rx,0,6,03,08,F1,FF,FF,FF,00,00,
29642239,00000100,false,Rx,0,8,00,00,00,00,9A,01,C8,00,
29642491,00000101,false,Rx,0,8,00,FF,FE,00,00,00,00,00,
29642741,00000102,false,Rx,0,8,01,90,01,00,00,01,00,00,
29722094,00000528,false,Rx,0,6,07,06,05,26,00,00,00,00,
29742236,00000100,false,Rx,0,8,00,00,00,00,9A,01,C8,00,
29742488,00000101,false,Rx,0,8,00,FF,FE,00,00,00,00,00,
29742734,00000102,false,Rx,0,8,01,90,01,00,00,01,00,00,
29842237,00000100,false,Rx,0,8,00,00,00,00,9A,01,C8,00,
29842482,00000101,false,Rx,0,8,00,FF,FE,00,00,00,00,00,
29842734,00000102,false,Rx,0,8,01,90,01,00,00,01,00,00,
29909857,00000526,false,Rx,0,6,05,03,0E,00,00,00,00,00,
29942236,00000100,false,Rx,0,8,00,00,00,00,9A,01,C8,00,
29942482,00000101,false,Rx,0,8,00,FF,FE,00,00,00,00,00,
29942734,00000102,false,Rx,0,8,01,90,01,00,00,01,00,00,
29952094,00000523,false,Rx,0,6,02,0E,E4,FF,FF,FF,00,00,
29992451,00000522,false,Rx,0,6,01,00,06,AD,05,00,00,00,
30024803,00000527,false,Rx,0,6,06,00,CB,73,01,00,00,00,
30042230,00000100,false,Rx,0,8,00,00,00,00,9A,01,C8,00,
30042481,00000101,false,Rx,0,8,00,FF,FE,00,00,00,00,00,
30042727,00000102,false,Rx,0,8,01,90,01,00,00,01,00,00,
30114547,00000521,false,Rx,0,6,00,00,FA,FF,FF,FF,00,00,
30142226,00000100,false,Rx,0,8,00,00,00,00,9A,01,C8,00,
30142478,00000101,false,Rx,0,8,00,FF,FE,00,00,00,00,00,
30142724,00000102,false,Rx,0,8,01,90,01,00,00,01,00,00,
30242226,00000100,false,Rx,0,8,00,00,00,00,9A,01,C8,00,
30242478,00000101,false,Rx,0,8,00,FF,FE,00,00,00,00,00,
30242725,00000102,false,Rx,0,8,01,90,01,00,00,01,00,00,
30259150,00000525,false,Rx,0,6,04,01,66,00,00,00,00,00,
30266938,00000524,false,Rx,0,6,03,09,FA,FF,FF,FF,00,00,
30342227,00000100,false,Rx,0,8,00,00,00,00,9A,01,C8,00,
30342473,00000101,false,Rx,0,8,00,FF,FE,00,00,00,00,00,
30342725,00000102,false,Rx,0,8,01,90,01,00,00,01,00,00,
30442224,00000100,false,Rx,0,8,00,00,00,00,9A,01,C8,00,
30442477,00000101,false,Rx,0,8,00,FF,FE,00,00,00,00,00,
30442723,00000102,false,Rx,0,8,01,90,01,00,00,01,00,00,
30462756,00000528,false,Rx,0,6,07,07,05,26,00,00,00,00,
30542218,00000100,false,Rx,0,8,00,00,00,00,9A,01,C8,00,
30542470,00000101,false,Rx,0,8,00,FF,FE,00,00,00,00,00,
30542716,00000102,false,Rx,0,8,01,90,01,00,00,01,00,00,
30601944,00000523,false,Rx,0,6,02,0F,EF,FF,FF,FF,00,00,
30614368,00000526,false,Rx,0,6,05,04,08,00,00,00,00,00,
30624253,00000522,false,Rx,0,6,01,01,01,AD,05,00,00,00,
30642218,00000100,false,Rx,0,8,00,00,00,00,9A,01,C8,00,
30642465,00000101,false,Rx,0,8,00,FF,FE,00,00,00,00,00,
30642717,00000102,false,Rx,0,8,01,90,01,00,00,01,00,00,
30728067,00000521,false,Rx,0,6,00,01,F9,FF,FF,FF,00,00,
30742218,00000100,false,Rx,0,8,00,00,00,00,9A,01,C8,00,
30742465,00000101,false,Rx,0,8,00,FF,FE,00,00,00,00,00,
30742718,00000102,false,Rx,0,8,01,90,01,00,00,01,00,00,
30747301,00000527,false,Rx,0,6,06,01,CB,73,01,00,00,00,
30842214,00000100,false,Rx,0,8,00,00,00,00,9A,01,C8,00,
30842478,00000101,false,Rx,0,8,00,FF,FE,00,00,00,00,00,
30842713,00000102,false,Rx,0,8,01,90,01,00,00,01,00,00,
30934932,00000524,false,Rx,0,6,03,0A,E9,FF,FF,FF,00,00,
30942211,00000100,false,Rx,0,8,00,00,00,00,9A,01,C8,00,
30942464,00000101,false,Rx,0,8,00,FF,FE,00,00,00,00,00,
30942708,00000102,false,Rx,0,8,01,90,01,00,00,01,00,00,
30945043,00000525,false,Rx,0,6,04,02,66,00,00,00,00,00,
31042212,00000100,false,Rx,0,8,00,00,00,00,9A,01,C8,00,
31042457,00000101,false,Rx,0,8,00,FF,FE,00,00,00,00,00,
31042706,00000102,false,Rx,0,8,01,90,01,00,00,01,00,00,
31142209,00000100,false,Rx,0,8,00,00,00,00,9A,01,C8,00,
31142455,00000101,false,Rx,0,8,00,FF,FE,00,00,00,00,00,
31142704,00000102,false,Rx,0,8,01,90,01,00,00,01,00,00,
31203412,00000528,false,Rx,0,6,07,08,05,26,00,00,00,00,
31242206,00000100,false,Rx,0,8,00,00,00,00,9A,01,C8,00,
31242458,00000101,false,Rx,0,8,00,FF,FE,00,00,00,00,00,
31242703,00000102,false,Rx,0,8,01,90,01,00,00,01,00,00,
31251766,00000523,false,Rx,0,6,02,00,EF,FF,FF,FF,00,00,
31255799,00000522,false,Rx,0,6,01,02,10,AD,05,00,00,00,
31318511,00000526,false,Rx,0,6,05,05,05,00,00,00,00,00,
31341569,00000521,false,Rx,0,6,00,02,F8,FF,FF,FF,00,00,
31342205,00000100,false,Rx,0,8,00,00,00,00,9A,01,C8,00,
31342457,00000101,false,Rx,0,8,00,FF,FE,00,00,00,00,00,
31342705,00000102,false,Rx,0,8,01,90,01,00,00,01,00,00,
31442200,00000100,false,Rx,0,8,00,00,00,00,9A,01,C8,00,
31442452,00000101,false,Rx,0,8,00,FF,FE,00,00,00,00,00,
31442700,00000102,false,Rx,0,8,01,90,01,00,00,01,00,00,
31470051,00000527,false,Rx,0,6,06,02,CB,73,01,00,00,00,
31542200,00000100,false,Rx,0,8,00,00,00,00,9A,01,C8,00,
31542452,00000101,false,Rx,0,8,00,FF,FE,00,00,00,00,00,
31542698,00000102,false,Rx,0,8,01,90,01,00,00,01,00,00,
31602926,00000524,false,Rx,0,6,03,0B,F1,FF,FF,FF,00,00,
31631186,00000525,false,Rx,0,6,04,03,66,00,00,00,00,00,
31642199,00000100,false,Rx,0,8,00,00,00,00,9A,01,C8,00,
31642452,00000101,false,Rx,0,8,00,FF,FE,00,00,00,00,00,
31642698,00000102,false,Rx,0,8,01,90,01,00,00,01,00,00,
31742198,00000100,false,Rx,0,8,00,00,00,00,9A,01,C8,00,
31742443,00000101,false,Rx,0,8,00,FF,FE,00,00,00,00,00,
31742696,00000102,false,Rx,0,8,01,90,01,00,00,01,00,00,
31842193,00000100,false,Rx,0,8,00,00,00,00,9A,01,C8,00,
31842445,00000101,false,Rx,0,8,00,FF,FE,00,00,00,00,00,
31842691,00000102,false,Rx,0,8,01,90,01,00,00,01,00,00,
31887462,00000522,false,Rx,0,6,01,03,0C,AD,05,00,00,00,
31901601,00000523,false,Rx,0,6,02,01,EC,FF,FF,FF,00,00,
31942193,00000100,false,Rx,0,8,00,00,00,00,9A,01,C8,00,
31942441,00000101,false,Rx,0,8,00,FF,FE,00,00,00,00,00,
31942686,00000102,false,Rx,0,8,01,90,01,00,00,01,00,00,
31944057,00000528,false,Rx,0,6,07,09,05,26,00,00,00,00,
31955640,00000521,false,Rx,0,6,00,03,F7,FF,FF,FF,00,00,
32023013,00000526,false,Rx,0,6,05,06,01,00,00,00,00,00,
32042191,00000100,false,Rx,0,8,00,00,00,00,9A,01,C8,00,
32042438,00000101,false,Rx,0,8,00,FF,FE,00,00,00,00,00,
32042691,00000102,false,Rx,0,8,01,90,01,00,00,01,00,00,
32142186,00000100,false,Rx,0,8,00,00,00,00,9A,01,C8,00,
32142439,00000101,false,Rx,0,8,00,FF,FE,00,00,00,00,00,
32142684,00000102,false,Rx,0,8,01,90,01,00,00,01,00,00,
32192261,00000527,false,Rx,0,6,06,03,CB,73,01,00,00,00,
32242186,00000100,false,Rx,0,8,00,00,00,00,9A,01,C8,00,
32242439,00000101,false,Rx,0,8,00,FF,FE,00,00,00,00,00,
32242684,00000102,false,Rx,0,8,01,90,01,00,00,01,00,00,
32270921,00000524,false,Rx,0,6,03,0C,F8,FF,FF,FF,00,00,
32317343,00000525,false,Rx,0,6,04,04,66,00,00,00,00,00,
32342180,00000100,false,Rx,0,8,00,00,00,00,9A,01,C8,00,
32342447,00000101,false,Rx,0,8,00,FF,FE,00,00,00,00,00,
32342681,00000102,false,Rx,0,8,01,90,01,00,00,01,00,00,
32442185,00000100,false,Rx,0,8,00,00,00,00,9A,01,C8,00,
32442431,00000101,false,Rx,0,8,00,FF,FE,00,00,00,00,00,
32442680,00000102,false,Rx,0,8,01,90,01,00,00,01,00,00,
32519129,00000522,false,Rx,0,6,01,04,14,AD,05,00,00,00,
32542180,00000100,false,Rx,0,8,00,00,00,00,9A,01,C8,00,
32542432,00000101,false,Rx,0,8,00,FF,FE,00,00,00,00,00,
32542678,00000102,false,Rx,0,8,01,90,01,00,00,01,00,00,
32551427,00000523,false,Rx,0,6,02,02,ED,FF,FF,FF,00,00,
32568570,00000521,false,Rx,0,6,00,04,FD,FF,FF,FF,00,00,
32642178,00000100,false,Rx,0,8,00,00,00,00,9A,01,C8,00,
32642430,00000101,false,Rx,0,8,00,FF,FE,00,00,00,00,00,
32642672,00000102,false,Rx,0,8,01,90,01,00,00,01,00,00,
32684697,00000528,false,Rx,0,6,07,0A,05,26,00,00,00,00,
32727322,00000526,false,Rx,0,6,05,07,08,00,00,00,00,00,
32742174,00000100,false,Rx,0,8,00,00,00,00,9A,01,C8,00,
32742426,00000101,false,Rx,0,8,00,FF,FE,00,00,00,00,00,
32742671,00000102,false,Rx,0,8,01,90,01,00,00,01,00,00,
32842174,00000100,false,Rx,0,8,00,00,00,00,9A,01,C8,00,
32842420,00000101,false,Rx,0,8,00,FF,FE,00,00,00,00,00,
32842668,00000102,false,Rx,0,8,01,90,01,00,00,01,00,00,
32914745,00000527,false,Rx,0,6,06,04,CB,73,01,00,00,00,
32938908,00000524,false,Rx,0,6,03,0D,F6,FF,FF,FF,00,00,
32942171,00000100,false,Rx,0,8,00,00,00,00,9A,01,C8,00,
32942423,00000101,false,Rx,0,8,00,FF,FE,00,00,00,00,00,
32942669,00000102,false,Rx,0,8,01,90,01,00,00,01,00,00,
33003489,00000525,false,Rx,0,6,04,05,66,00,00,00,00,00,
33042176,00000100,false,Rx,0,8,00,00,00,00,9A,01,C8,00,
33042416,00000101,false,Rx,0,8,00,FF,FE,00,00,00,00,00,
33042685,00000102,false,Rx,0,8,01,90,01,00,00,01,00,00,
33142174,00000100,false,Rx,0,8,00,00,00,00,9A,01,C8,00,
33142412,00000101,false,Rx,0,8,00,FF,FE,00,00,00,00,00,
33142663,00000102,false,Rx,0,8,01,90,01,00,00,01,00,00,
33150787,00000522,false,Rx,0,6,01,05,04,AD,05,00,00,00,
33182074,00000521,false,Rx,0,6,00,05,FA,FF,FF,FF,00,00,
33201248,00000523,false,Rx,0,6,02,03,ED,FF,FF,FF,00,00,
33242171,00000100,false,Rx,0,8,00,00,00,00,9A,01,C8,00,
33242416,00000101,false,Rx,0,8,00,FF,FE,00,00,00,00,00,
33242660,00000102,false,Rx,0,8,01,90,01,00,00,01,00,00,
33342172,00000100,false,Rx,0,8,00,00,00,00,9A,01,C8,00,
33342410,00000101,false,Rx,0,8,00,FF,FE,00,00,00,00,00,
33342661,00000102,false,Rx,0,8,01,90,01,00,00,01,00,00,
33425399,00000528,false,Rx,0,6,07,0B,05,26,00,00,00,00,
33431619,00000526,false,Rx,0,6,05,08,06,00,00,00,00,00,
33442166,00000100,false,Rx,0,8,00,00,00,00,9A,01,C8,00,
33442412,00000101,false,Rx,0,8,00,FF,FE,00,00,00,00,00,
33442658,00000102,false,Rx,0,8,01,90,01,00,00,01,00,00,
33542158,00000100,false,Rx,0,8,00,00,00,00,9A,01,C8,00,
33542419,00000101,false,Rx,0,8,00,FF,FE,00,00,00,00,00,
33542652,00000102,false,Rx,0,8,01,90,01,00,00,01,00,00,
33606907,00000524,false,Rx,0,6,03,0E,00,00,00,00,00,00,
33637230,00000527,false,Rx,0,6,06,05,CB,73,01,00,00,00,
33642156,00000100,false,Rx,0,8,00,00,00,00,9A,01,C8,00,
33642416,00000101,false,Rx,0,8,00,FF,FE,00,00,00,00,00,
33642656,00000102,false,Rx,0,8,01,90,01,00,00,01,00,00,
33689660,00000525,false,Rx,0,6,04,06,66,00,00,00,00,00,
33742152,00000100,false,Rx,0,8,00,00,00,00,9A,01,C8,00,
33742404,00000101,false,Rx,0,8,00,FF,FE,00,00,00,00,00,
33742651,00000102,false,Rx,0,8,01,90,01,00,00,01,00,00,
33782464,00000522,false,Rx,0,6,01,06,0D,AD,05,00,00,00,
33795579,00000521,false,Rx,0,6,00,06,F6,FF,FF,FF,00,00,
33842156,00000100,false,Rx,0,8,00,00,00,00,9A,01,C8,00,
33842399,00000101,false,Rx,0,8,00,FF,FE,00,00,00,00,00,
33842651,00000102,false,Rx,0,8,01,90,01,00,00,01,00,00,
33851086,00000523,false,Rx,0,6,02,04,EC,FF,FF,FF,00,00,
33942154,00000100,false,Rx,0,8,00,00,00,00,9A,01,C8,00,
33942400,00000101,false,Rx,0,8,00,FF,FE,00,00,00,00,00,
33942645,00000102,false,Rx,0,8,01,90,01,00,00,01,00,00,
34042152,00000100,false,Rx,0,8,00,00,00,00,9A,01,C8,00,
34042398,00000101,false,Rx,0,8,00,FF,FE,00,00,00,00,00,
34042643,00000102,false,Rx,0,8,01,90,01,00,00,01,00,00,
34135895,00000526,false,Rx,0,6,05,09,03,00,00,00,00,00,
34142154,00000100,false,Rx,0,8,00,00,00,00,9A,01,C8,00,
34142394,00000101,false,Rx,0,8,00,FF,FE,00,00,00,00,00,
34142639,00000102,false,Rx,0,8,01,90,01,00,00,01,00,00,
34166314,00000528,false,Rx,0,6,07,0C,05,26,00,00,00,00,
34242151,00000100,false,Rx,0,8,00,00,00,00,9A,01,C8,00,
34242390,00000101,false,Rx,0,8,00,FF,FE,00,00,00,00,00,
34242639,00000102,false,Rx,0,8,01,90,01,00,00,01,00,00,
34274917,00000524,false,Rx,0,6,03,0F,F3,FF,FF,FF,00,00,
34342149,00000100,false,Rx,0,8,00,00,00,00,9A,01,C8,00,
34342388,00000101,false,Rx,0,8,00,FF,FE,00,00,00,00,00,
34342637,00000102,false,Rx,0,8,01,90,01,00,00,01,00,00,
34359725,00000527,false,Rx,0,6,06,06,CB,73,01,00,00,00,
34376105,00000525,false,Rx,0,6,04,07,66,00,00,00,00,00,
34409157,00000521,false,Rx,0,6,00,07,F9,FF,FF,FF,00,00,
34414152,00000522,false,Rx,0,6,01,07,13,AD,05,00,00,00,
34442156,00000100,false,Rx,0,8,00,00,00,00,9A,01,C8,00,
34442390,00000101,false,Rx,0,8,00,FF,FE,00,00,00,00,00,
34442638,00000102,false,Rx,0,8,01,90,01,00,00,01,00,00,
34500938,00000523,false,Rx,0,6,02,05,E8,FF,FF,FF,00,00,
34542135,00000100,false,Rx,0,8,00,00,00,00,9A,01,C8,00,
34542382,00000101,false,Rx,0,8,00,FF,FE,00,00,00,00,00,
34542634,00000102,false,Rx,0,8,01,90,01,00,00,01,00,00,
34642134,00000100,false,Rx,0,8,00,00,00,00,9A,01,C8,00,
34642381,00000101,false,Rx,0,8,00,FF,FE,00,00,00,00,00,
34642630,00000102,false,Rx,0,8,01,90,01,00,00,01,00,00,
34742129,00000100,false,Rx,0,8,00,00,00,00,9A,01,C8,00,
34742384,00000101,false,Rx,0,8,00,FF,FE,00,00,00,00,00,
34742644,00000102,false,Rx,0,8,01,90,01,00,00,01,00,00,
34840290,00000526,false,Rx,0,6,05,0A,06,00,00,00,00,00,
34842133,00000100,false,Rx,0,8,00,00,00,00,9A,01,C8,00,
34842381,00000101,false,Rx,0,8,00,FF,FE,00,00,00,00,00,
34842627,00000102,false,Rx,0,8,01,90,01,00,00,01,00,00,
34906646,00000528,false,Rx,0,6,07,0D,05,26,00,00,00,00,
34942130,00000100,false,Rx,0,8,00,00,00,00,9A,01,C8,00,
34942378,00000101,false,Rx,0,8,00,FF,FE,00,00,00,00,00,
34942624,00000102,false,Rx,0,8,01,90,01,00,00,01,00,00,
34942919,00000524,false,Rx,0,6,03,00,F1,FF,FF,FF,00,00,
35022609,00000521,false,Rx,0,6,00,08,F7,FF,FF,FF,00,00,
35042125,00000100,false,Rx,0,8,00,00,00,00,9A,01,C8,00,
35042379,00000101,false,Rx,0,8,00,FF,FE,00,00,00,00,00,
35042625,00000102,false,Rx,0,8,01,90,01,00,00,01,00,00,
35045817,00000522,false,Rx,0,6,01,08,13,AD,05,00,00,00,
35061994,00000525,false,Rx,0,6,04,08,66,00,00,00,00,00,
35082223,00000527,false,Rx,0,6,06,07,CB,73,01,00,00,00,
35142123,00000100,false,Rx,0,8,00,00,00,00,9A,01,C8,00,
35142377,00000101,false,Rx,0,8,00,FF,FE,00,00,00,00,00,
35142623,00000102,false,Rx,0,8,01,90,01,00,00,01,00,00,
35150764,00000523,false,Rx,0,6,02,06,E8,FF,FF,FF,00,00,
35242123,00000100,false,Rx,0,8,00,00,00,00,9A,01,C8,00,
35242371,00000101,false,Rx,0,8,00,FF,FE,00,00,00,00,00,
35242617,00000102,false,Rx,0,8,01,90,01,00,00,01,00,00,
35342121,00000100,false,Rx,0,8,00,00,00,00,9A,01,C8,00,
35342369,00000101,false,Rx,0,8,00,FF,FE,00,00,00,00,00,
35342615,00000102,false,Rx,0,8,01,90,01,00,00,01,00,00,
35442117,00000100,false,Rx,0,8,00,00,00,00,9A,01,C8,00,
35442365,00000101,false,Rx,0,8,00,FF,FE,00,00,00,00,00,
35442617,00000102,false,Rx,0,8,01,90,01,00,00,01,00,00,
35542116,00000100,false,Rx,0,8,00,00,00,00,9A,01,C8,00,
35542363,00000101,false,Rx,0,8,00,FF,FE,00,00,00,00,00,
35542615,00000102,false,Rx,0,8,01,90,01,00,00,01,00,00,
35544431,00000526,false,Rx,0,6,05,0B,FC,FF,FF,FF,00,00,
35610904,00000524,false,Rx,0,6,03,01,E3,FF,FF,FF,00,00,
35636105,00000521,false,Rx,0,6,00,09,F9,FF,FF,FF,00,00,
35642115,00000100,false,Rx,0,8,00,00,00,00,9A,01,C8,00,
35642362,00000101,false,Rx,0,8,00,FF,FE,00,00,00,00,00,
35642613,00000102,false,Rx,0,8,01,90,01,00,00,01,00,00,
35647530,00000528,false,Rx,0,6,07,0E,05,26,00,00,00,00,
35677513,00000522,false,Rx,0,6,01,09,22,AD,05,00,00,00,
35742110,00000100,false,Rx,0,8,00,00,00,00,9A,01,C8,00,
35742364,00000101,false,Rx,0,8,00,FF,FE,00,00,00,00,00,
35742611,00000102,false,Rx,0,8,01,90,01,00,00,01,00,00,
35748130,00000525,false,Rx,0,6,04,09,66,00,00,00,00,00,
35800892,00000523,false,Rx,0,6,02,07,EC,FF,FF,FF,00,00,
35804685,00000527,false,Rx,0,6,06,08,CB,73,01,00,00,00,
35842108,00000100,false,Rx,0,8,00,00,00,00,9A,01,C8,00,
35842355,00000101,false,Rx,0,8,00,FF,FE,00,00,00,00,00,
35842609,00000102,false,Rx,0,8,01,90,01,00,00,01,00,00,
35942105,00000100,false,Rx,0,8,00,00,00,00,9A,01,C8,00,
35942359,00000101,false,Rx,0,8,00,FF,FE,00,00,00,00,00,
35942608,00000102,false,Rx,0,8,01,90,01,00,00,01,00,00,
36042104,00000100,false,Rx,0,8,00,00,00,00,9A,01,C8,00,
36042357,00000101,false,Rx,0,8,00,FF,FE,00,00,00,00,00,
36042600,00000102,false,Rx,0,8,01,90,01,00,00,01,00,00,
36142104,00000100,false,Rx,0,8,00,00,00,00,9A,01,C8,00,
36142350,00000101,false,Rx,0,8,00,FF,FE,00,00,00,00,00,
36142600,00000102,false,Rx,0,8,01,90,01,00,00,01,00,00,
36242100,00000100,false,Rx,0,8,00,00,00,00,9A,01,C8,00,
36242347,00000101,false,Rx,0,8,00,FF,FE,00,00,00,00,00,
36242596,00000102,false,Rx,0,8,01,90,01,00,00,01,00,00,
36248949,00000526,false,Rx,0,6,05,0C,02,00,00,00,00,00,
36249969,00000521,false,Rx,0,6,00,0A,FA,FF,FF,FF,00,00,
36278903,00000524,false,Rx,0,6,03,02,F9,FF,FF,FF,00,00,
36309148,00000522,false,Rx,0,6,01,0A,17,AD,05,00,00,00,
36342102,00000100,false,Rx,0,8,00,00,00,00,9A,01,C8,00,
36342350,00000101,false,Rx,0,8,00,FF,FE,00,00,00,00,00,
36342594,00000102,false,Rx,0,8,01,90,01,00,00,01,00,00,
36387926,00000528,false,Rx,0,6,07,0F,05,26,00,00,00,00,
36434340,00000525,false,Rx,0,6,04,0A,66,00,00,00,00,00,
36442098,00000100,false,Rx,0,8,00,00,00,00,9A,01,C8,00,
36442345,00000101,false,Rx,0,8,00,FF,FE,00,00,00,00,00,
36442607,00000102,false,Rx,0,8,01,90,01,00,00,01,00,00,
36450432,00000523,false,Rx,0,6,02,08,E9,FF,FF,FF,00,00,
36527482,00000527,false,Rx,0,6,06,09,CB,73,01,00,00,00,
36542096,00000100,false,Rx,0,8,00,00,00,00,9A,01,C8,00,
36542342,00000101,false,Rx,0,8,00,FF,FE,00,00,00,00,00,
36542594,00000102,false,Rx,0,8,01,90,01,00,00,01,00,00,
36642092,00000100,false,Rx,0,8,00,00,00,00,9A,01,C8,00,
36642345,00000101,false,Rx,0,8,00,FF,FE,00,00,00,00,00,
36642591,00000102,false,Rx,0,8,01,90,01,00,00,01,00,00,
36742088,00000100,false,Rx,0,8,00,00,00,00,9A,01,C8,00,
36742342,00000101,false,Rx,0,8,00,FF,FE,00,00,00,00,00,
36742588,00000102,false,Rx,0,8,01,90,01,00,00,01,00,00,
36842089,00000100,false,Rx,0,8,00,00,00,00,9A,01,C8,00,
36842336,00000101,false,Rx,0,8,00,FF,FE,00,00,00,00,00,
36842588,00000102,false,Rx,0,8,01,90,01,00,00,01,00,00,
36863124,00000521,false,Rx,0,6,00,0B,FB,FF,FF,FF,00,00,
36940831,00000522,false,Rx,0,6,01,0B,16,AD,05,00,00,00,
36942085,00000100,false,Rx,0,8,00,00,00,00,9A,01,C8,00,
36942341,00000101,false,Rx,0,8,00,FF,FE,00,00,00,00,00,
36942586,00000102,false,Rx,0,8,01,90,01,00,00,01,00,00,
36946898,00000524,false,Rx,0,6,03,03,FC,FF,FF,FF,00,00,
36953274,00000526,false,Rx,0,6,05,0D,04,00,00,00,00,00,
37042082,00000100,false,Rx,0,8,00,00,00,00,9A,01,C8,00,
37042336,00000101,false,Rx,0,8,00,FF,FE,00,00,00,00,00,
37042582,00000102,false,Rx,0,8,01,90,01,00,00,01,00,00,
37100537,00000523,false,Rx,0,6,02,09,E9,FF,FF,FF,00,00,
37120460,00000525,false,Rx,0,6,04,0B,66,00,00,00,00,00,
37128595,00000528,false,Rx,0,6,07,00,05,26,00,00,00,00,
37142086,00000100,false,Rx,0,8,00,00,00,00,9A,01,C8,00,
37142336,00000101,false,Rx,0,8,00,FF,FE,00,00,00,00,00,
37142582,00000102,false,Rx,0,8,01,90,01,00,00,01,00,00,
37242080,00000100,false,Rx,0,8,00,00,00,00,9A,01,C8,00,
37242334,00000101,false,Rx,0,8,00,FF,FE,00,00,00,00,00,
37242579,00000102,false,Rx,0,8,01,90,01,00,00,01,00,00,
37249904,00000527,false,Rx,0,6,06,0A,CB,73,01,00,00,00,
37342076,00000100,false,Rx,0,8,00,00,00,00,9A,01,C8,00,
37342341,00000101,false,Rx,0,8,00,FF,FE,00,00,00,00,00,
37342576,00000102,false,Rx,0,8,01,90,01,00,00,01,00,00,
37442077,00000100,false,Rx,0,8,00,00,00,00,9A,01,C8,00,
37442324,00000101,false,Rx,0,8,00,FF,FE,00,00,00,00,00,
37442572,00000102,false,Rx,0,8,01,90,01,00,00,01,00,00,
37476617,00000521,false,Rx,0,6,00,0C,F6,FF,FF,FF,00,00,
37542073,00000100,false,Rx,0,8,00,00,00,00,9A,01,C8,00,
37542327,00000101,false,Rx,0,8,00,FF,FE,00,00,00,00,00,
37542576,00000102,false,Rx,0,8,01,90,01,00,00,01,00,00,
37572487,00000522,false,Rx,0,6,01,0C,0E,AD,05,00,00,00,
37614888,00000524,false,Rx,0,6,03,04,05,00,00,00,00,00,
37642074,00000100,false,Rx,0,8,00,00,00,00,9A,01,C8,00,
37642322,00000101,false,Rx,0,8,00,FF,FE,00,00,00,00,00,
37642568,00000102,false,Rx,0,8,01,90,01,00,00,01,00,00,
37657543,00000526,false,Rx,0,6,05,0E,05,00,00,00,00,00,
37742070,00000100,false,Rx,0,8,00,00,00,00,9A,01,C8,00,
37742318,00000101,false,Rx,0,8,00,FF,FE,00,00,00,00,00,
37742567,00000102,false,Rx,0,8,01,90,01,00,00,01,00,00,
37750092,00000523,false,Rx,0,6,02,0A,E8,FF,FF,FF,00,00,
37806616,00000525,false,Rx,0,6,04,0C,66,00,00,00,00,00,
37842069,00000100,false,Rx,0,8,00,00,00,00,9A,01,C8,00,
37842316,00000101,false,Rx,0,8,00,FF,FE,00,00,00,00,00,
37842567,00000102,false,Rx,0,8,01,90,01,00,00,01,00,00,
37869234,00000528,false,Rx,0,6,07,01,05,26,00,00,00,00,
37942064,00000100,false,Rx,0,8,00,00,00,00,9A,01,C8,00,
37942317,00000101,false,Rx,0,8,00,FF,FE,00,00,00,00,00,
37942577,00000102,false,Rx,0,8,01,90,01,00,00,01,00,00,
37972371,00000527,false,Rx,0,6,06,0B,CB,73,01,00,00,00,
38042063,00000100,false,Rx,0,8,00,00,00,00,9A,01,C8,00,
38042317,00000101,false,Rx,0,8,00,FF,FE,00,00,00,00,00,
38042562,00000102,false,Rx,0,8,01,90,01,00,00,01,00,00,
38090136,00000521,false,Rx,0,6,00,0D,F9,FF,FF,FF,00,00,
38142062,00000100,false,Rx,0,8,00,00,00,00,9A,01,C8,00,
38142309,00000101,false,Rx,0,8,00,FF,FE,00,00,00,00,00,
38142561,00000102,false,Rx,0,8,01,90,01,00,00,01,00,00,
38204152,00000522,false,Rx,0,6,01,0D,13,AD,05,00,00,00,
38242066,00000100,false,Rx,0,8,00,00,00,00,9A,01,C8,00,
38242308,00000101,false,Rx,0,8,00,FF,FE,00,00,00,00,00,
38242560,00000102,false,Rx,0,8,01,90,01,00,00,01,00,00,
38283239,00000524,false,Rx,0,6,03,05,EB,FF,FF,FF,00,00,
38342055,00000100,false,Rx,0,8,00,00,00,00,9A,01,C8,00,
38342308,00000101,false,Rx,0,8,00,FF,FE,00,00,00,00,00,
38342554,00000102,false,Rx,0,8,01,90,01,00,00,01,00,00,
38361716,00000526,false,Rx,0,6,05,0F,07,00,00,00,00,00,
38399926,00000523,false,Rx,0,6,02,0B,F1,FF,FF,FF,00,00,
38442056,00000100,false,Rx,0,8,00,00,00,00,9A,01,C8,00,
38442303,00000101,false,Rx,0,8,00,FF,FE,00,00,00,00,00,
38442556,00000102,false,Rx,0,8,01,90,01,00,00,01,00,00,
38493043,00000525,false,Rx,0,6,04,0D,66,00,00,00,00,00,
38542054,00000100,false,Rx,0,8,00,00,00,00,9A,01,C8,00,
38542301,00000101,false,Rx,0,8,00,FF,FE,00,00,00,00,00,
38542553,00000102,false,Rx,0,8,01,90,01,00,00,01,00,00,
38609883,00000528,false,Rx,0,6,07,02,05,26,00,00,00,00,
38642055,00000100,false,Rx,0,8,00,00,00,00,9A,01,C8,00,
38642303,00000101,false,Rx,0,8,00,FF,FE,00,00,00,00,00,
38642549,00000102,false,Rx,0,8,01,90,01,00,00,01,00,00,
38694627,00000527,false,Rx,0,6,06,0C,CB,73,01,00,00,00,
38703647,00000521,false,Rx,0,6,00,0E,F5,FF,FF,FF,00,00,
38742049,00000100,false,Rx,0,8,00,00,00,00,9A,01,C8,00,
38742297,00000101,false,Rx,0,8,00,FF,FE,00,00,00,00,00,
38742549,00000102,false,Rx,0,8,01,90,01,00,00,01,00,00,
38835828,00000522,false,Rx,0,6,01,0E,19,AD,05,00,00,00,
38842050,00000100,false,Rx,0,8,00,00,00,00,9A,01,C8,00,
38842297,00000101,false,Rx,0,8,00,FF,FE,00,00,00,00,00,
38842543,00000102,false,Rx,0,8,01,90,01,00,00,01,00,00,
38942046,00000100,false,Rx,0,8,00,00,00,00,9A,01,C8,00,
38942294,00000101,false,Rx,0,8,00,FF,FE,00,00,00,00,00,
38942546,00000102,false,Rx,0,8,01,90,01,00,00,01,00,00,
38950872,00000524,false,Rx,0,6,03,06,F0,FF,FF,FF,00,00,
39042045,00000100,false,Rx,0,8,00,00,00,00,9A,01,C8,00,
39042292,00000101,false,Rx,0,8,00,FF,FE,00,00,00,00,00,
39042538,00000102,false,Rx,0,8,01,90,01,00,00,01,00,00,
39049754,00000523,false,Rx,0,6,02,0C,F1,FF,FF,FF,00,00,
39066215,00000526,false,Rx,0,6,05,00,02,00,00,00,00,00,
39142043,00000100,false,Rx,0,8,00,00,00,00,9A,01,C8,00,
39142292,00000101,false,Rx,0,8,00,FF,FE,00,00,00,00,00,
39142537,00000102,false,Rx,0,8,01,90,01,00,00,01,00,00,
39178935,00000525,false,Rx,0,6,04,0E,66,00,00,00,00,00,
39242037,00000100,false,Rx,0,8,00,00,00,00,9A,01,C8,00,
39242291,00000101,false,Rx,0,8,00,FF,FE,00,00,00,00,00,
39242537,00000102,false,Rx,0,8,01,90,01,00,00,01,00,00,
39317155,00000521,false,Rx,0,6,00,0F,F8,FF,FF,FF,00,00,
39342039,00000100,false,Rx,0,8,00,00,00,00,9A,01,C8,00,
39342288,00000101,false,Rx,0,8,00,FF,FE,00,00,00,00,00,
39342534,00000102,false,Rx,0,8,01,90,01,00,00,01,00,00,
39350528,00000528,false,Rx,0,6,07,03,05,26,00,00,00,00,
39417117,00000527,false,Rx,0,6,06,0D,CB,73,01,00,00,00,
39442031,00000100,false,Rx,0,8,00,00,00,00,9A,01,C8,00,
39442282,00000101,false,Rx,0,8,00,FF,FE,00,00,00,00,00,
39442534,00000102,false,Rx,0,8,01,90,01,00,00,01,00,00,
39467494,00000522,false,Rx,0,6,01,0F,23,AD,05,00,00,00,
39542034,00000100,false,Rx,0,8,00,00,00,00,9A,01,C8,00,
39542280,00000101,false,Rx,0,8,00,FF,FE,00,00,00,00,00,
39542533,00000102,false,Rx,0,8,01,90,01,00,00,01,00,00,
39618871,00000524,false,Rx,0,6,03,07,EA,FF,FF,FF,00,00,
39642033,00000100,false,Rx,0,8,00,00,00,00,9A,01,C8,00,
39642279,00000101,false,Rx,0,8,00,FF,FE,00,00,00,00,00,
39642531,00000102,false,Rx,0,8,01,90,01,00,00,01,00,00,
39699593,00000523,false,Rx,0,6,02,0D,ED,FF,FF,FF,00,00,
39742031,00000100,false,Rx,0,8,00,00,00,00,9A,01,C8,00,
39742278,00000101,false,Rx,0,8,00,FF,FE,00,00,00,00,00,
39742523,00000102,false,Rx,0,8,01,90,01,00,00,01,00,00,
39770358,00000526,false,Rx,0,6,05,01,0A,00,00,00,00,00,
39842024,00000100,false,Rx,0,8,00,00,00,00,9A,01,C8,00,
39842278,00000101,false,Rx,0,8,00,FF,FE,00,00,00,00,00,
39842527,00000102,false,Rx,0,8,01,90,01,00,00,01,00,00,
39865079,00000525,false,Rx,0,6,04,0F,66,00,00,00,00,00,
39930643,00000521,false,Rx,0,6,00,00,F9,FF,FF,FF,00,00,
39942021,00000100,false,Rx,0,8,00,00,00,00,9A,01,C8,00,
39942276,00000101,false,Rx,0,8,00,FF,FE,00,00,00,00,00,
39942521,00000102,false,Rx,0,8,01,90,01,00,00,01,00,00,
40042024,00000100,false,Rx,0,8,00,00,00,00,9A,01,C8,00,
40042272,00000101,false,Rx,0,8,00,FF,FE,00,00,00,00,00,
40042521,00000102,false,Rx,0,8,01,90,01,00,00,01,00,00,
40091175,00000528,false,Rx,0,6,07,04,05,26,00,00,00,00,
40099457,00000522,false,Rx,0,6,01,00,1D,AD,05,00,00,00,
40139584,00000527,false,Rx,0,6,06,0E,CB,73,01,00,00,00,
40142017,00000100,false,Rx,0,8,00,00,00,00,9A,01,C8,00,
40142270,00000101,false,Rx,0,8,00,FF,FE,00,00,00,00,00,
40142518,00000102,false,Rx,0,8,01,90,01,00,00,01,00,00,
40242018,00000100,false,Rx,0,8,00,00,00,00,9A,01,C8,00,
40242266,00000101,false,Rx,0,8,00,FF,FE,00,00,00,00,00,
40242532,00000102,false,Rx,0,8,01,90,01,00,00,01,00,00,
40286853,00000524,false,Rx,0,6,03,08,F6,FF,FF,FF,00,00,
40342017,00000100,false,Rx,0,8,00,00,00,00,9A,01,C8,00,
40342264,00000101,false,Rx,0,8,00,FF,FE,00,00,00,00,00,
40342516,00000102,false,Rx,0,8,01,90,01,00,00,01,00,00,
40349401,00000523,false,Rx,0,6,02,0E,E6,FF,FF,FF,00,00,
40442015,00000100,false,Rx,0,8,00,00,00,00,9A,01,C8,00,
40442261,00000101,false,Rx,0,8,00,FF,FE,00,00,00,00,00,
40442513,00000102,false,Rx,0,8,01,90,01,00,00,01,00,00,
40474861,00000526,false,Rx,0,6,05,02,07,00,00,00,00,00,
40542012,00000100,false,Rx,0,8,00,00,00,00,9A,01,C8,00,
40542260,00000101,false,Rx,0,8,00,FF,FE,00,00,00,00,00,
40542512,00000102,false,Rx,0,8,01,90,01,00,00,01,00,00,
40544148,00000521,false,Rx,0,6,00,01,F8,FF,FF,FF,00,00,
40551512,00000525,false,Rx,0,6,04,00,66,00,00,00,00,00,
40642013,00000100,false,Rx,0,8,00,00,00,00,9A,01,C8,00,
40642261,00000101,false,Rx,0,8,00,FF,FE,00,00,00,00,00,
40642507,00000102,false,Rx,0,8,01,90,01,00,00,01,00,00,
40730821,00000522,false,Rx,0,6,01,01,16,AD,05,00,00,00,
40742005,00000100,false,Rx,0,8,00,00,00,00,9A,01,C8,00,
40742258,00000101,false,Rx,0,8,00,FF,FE,00,00,00,00,00,
40742504,00000102,false,Rx,0,8,01,90,01,00,00,01,00,00,
40831790,00000528,false,Rx,0,6,07,05,05,26,00,00,00,00,
40842003,00000100,false,Rx,0,8,00,00,00,00,9A,01,C8,00,
40842257,00000101,false,Rx,0,8,00,FF,FE,00,00,00,00,00,
40842504,00000102,false,Rx,0,8,01,90,01,00,00,01,00,00,
40862316,00000527,false,Rx,0,6,06,0F,CB,73,01,00,00,00,
40942005,00000100,false,Rx,0,8,00,00,00,00,9A,01,C8,00,
40942252,00000101,false,Rx,0,8,00,FF,FE,00,00,00,00,00,
40942504,00000102,false,Rx,0,8,01,90,01,00,00,01,00,00,
40954828,00000524,false,Rx,0,6,03,09,F0,FF,FF,FF,00,00,
40999219,00000523,false,Rx,0,6,02,0F,E6,FF,FF,FF,00,00,
41042002,00000100,false,Rx,0,8,00,00,00,00,9A,01,C8,00,
41042249,00000101,false,Rx,0,8,00,FF,FE,00,00,00,00,00,
41042501,00000102,false,Rx,0,8,01,90,01,00,00,01,00,00,
41142003,00000100,false,Rx,0,8,00,00,00,00,9A,01,C8,00,
41142251,00000101,false,Rx,0,8,00,FF,FE,00,00,00,00,00,
41142496,00000102,false,Rx,0,8,01,90,01,00,00,01,00,00,
41158188,00000521,false,Rx,0,6,00,02,F5,FF,FF,FF,00,00,
41179153,00000526,false,Rx,0,6,05,03,00,00,00,00,00,00,
41237379,00000525,false,Rx,0,6,04,01,66,00,00,00,00,00,
41242000,00000100,false,Rx,0,8,00,00,00,00,9A,01,C8,00,
41242249,00000101,false,Rx,0,8,00,FF,FE,00,00,00,00,00,
41242496,00000102,false,Rx,0,8,01,90,01,00,00,01,00,00,
41341996,00000100,false,Rx,0,8,00,00,00,00,9A,01,C8,00,
41342243,00000101,false,Rx,0,8,00,FF,FE,00,00,00,00,00,
41342494,00000102,false,Rx,0,8,01,90,01,00,00,01,00,00,
41362469,00000522,false,Rx,0,6,01,02,1A,AD,05,00,00,00,
41441990,00000100,false,Rx,0,8,00,00,00,00,9A,01,C8,00,
41442245,00000101,false,Rx,0,8,00,FF,FE,00,00,00,00,00,
41442491,00000102,false,Rx,0,8,01,90,01,00,00,01,00,00,
41541987,00000100,false,Rx,0,8,00,00,00,00,9A,01,C8,00,
41542241,00000101,false,Rx,0,8,00,FF,FE,00,00,00,00,00,
41542487,00000102,false,Rx,0,8,01,90,01,00,00,01,00,00,
41572413,00000528,false,Rx,0,6,07,06,05,26,00,00,00,00,
41584762,00000527,false,Rx,0,6,06,00,CB,73,01,00,00,00,
41622804,00000524,false,Rx,0,6,03,0A,EB,FF,FF,FF,00,00,
41641987,00000100,false,Rx,0,8,00,00,00,00,9A,01,C8,00,
41642242,00000101,false,Rx,0,8,00,FF,FE,00,00,00,00,00,
41642489,00000102,false,Rx,0,8,01,90,01,00,00,01,00,00,
41649036,00000523,false,Rx,0,6,02,00,EF,FF,FF,FF,00,00,
41741984,00000100,false,Rx,0,8,00,00,00,00,9A,01,C8,00,
41742250,00000101,false,Rx,0,8,00,FF,FE,00,00,00,00,00,
41742485,00000102,false,Rx,0,8,01,90,01,00,00,01,00,00,
41771107,00000521,false,Rx,0,6,00,03,F8,FF,FF,FF,00,00,
41841983,00000100,false,Rx,0,8,00,00,00,00,9A,01,C8,00,
41842237,00000101,false,Rx,0,8,00,FF,FE,00,00,00,00,00,
41842486,00000102,false,Rx,0,8,01,90,01,00,00,01,00,00,
41883460,00000526,false,Rx,0,6,05,04,04,00,00,00,00,00,
41923500,00000525,false,Rx,0,6,04,02,66,00,00,00,00,00,
41941981,00000100,false,Rx,0,8,00,00,00,00,9A,01,C8,00,
41942235,00000101,false,Rx,0,8,00,FF,FE,00,00,00,00,00,
41942481,00000102,false,Rx,0,8,01,90,01,00,00,01,00,00,
41994105,00000522,false,Rx,0,6,01,03,21,AD,05,00,00,00,
42041981,00000100,false,Rx,0,8,00,00,00,00,9A,01,C8,00,
42042228,00000101,false,Rx,0,8,00,FF,FE,00,00,00,00,00,
42042479,00000102,false,Rx,0,8,01,90,01,00,00,01,00,00,
42141982,00000100,false,Rx,0,8,00,00,00,00,9A,01,C8,00,
42142229,00000101,false,Rx,0,8,00,FF,FE,00,00,00,00,00,
42142478,00000102,false,Rx,0,8,01,90,01,00,00,01,00,00,
42241979,00000100,false,Rx,0,8,00,00,00,00,9A,01,C8,00,
42242227,00000101,false,Rx,0,8,00,FF,FE,00,00,00,00,00,
42242476,00000102,false,Rx,0,8,01,90,01,00,00,01,00,00,
42290771,00000524,false,Rx,0,6,03,0B,FD,FF,FF,FF,00,00,
42298835,00000523,false,Rx,0,6,02,01,EB,FF,FF,FF,00,00,
42307232,00000527,false,Rx,0,6,06,01,CB,73,01,00,00,00,
42313045,00000528,false,Rx,0,6,07,07,05,26,00,00,00,00,
42341978,00000100,false,Rx,0,8,00,00,00,00,9A,01,C8,00,
42342224,00000101,false,Rx,0,8,00,FF,FE,00,00,00,00,00,
42342497,00000102,false,Rx,0,8,01,90,01,00,00,01,00,00,
42384602,00000521,false,Rx,0,6,00,04,F8,FF,FF,FF,00,00,
42441976,00000100,false,Rx,0,8,00,00,00,00,9A,01,C8,00,
42442224,00000101,false,Rx,0,8,00,FF,FE,00,00,00,00,00,
42442469,00000102,false,Rx,0,8,01,90,01,00,00,01,00,00,
42541974,00000100,false,Rx,0,8,00,00,00,00,9A,01,C8,00,
42542222,00000101,false,Rx,0,8,00,FF,FE,00,00,00,00,00,
42542467,00000102,false,Rx,0,8,01,90,01,00,00,01,00,00,
42587568,00000526,false,Rx,0,6,05,05,07,00,00,00,00,00,
42609906,00000525,false,Rx,0,6,04,03,66,00,00,00,00,00,
42625746,00000522,false,Rx,0,6,01,04,29,AD,05,00,00,00,
42641973,00000100,false,Rx,0,8,00,00,00,00,9A,01,C8,00,
42642220,00000101,false,Rx,0,8,00,FF,FE,00,00,00,00,00,
42642466,00000102,false,Rx,0,8,01,90,01,00,00,01,00,00,
42741969,00000100,false,Rx,0,8,00,00,00,00,9A,01,C8,00,
42742216,00000101,false,Rx,0,8,00,FF,FE,00,00,00,00,00,
42742462,00000102,false,Rx,0,8,01,90,01,00,00,01,00,00,
42841967,00000100,false,Rx,0,8,00,00,00,00,9A,01,C8,00,
42842215,00000101,false,Rx,0,8,00,FF,FE,00,00,00,00,00,
42842460,00000102,false,Rx,0,8,01,90,01,00,00,01,00,00,
42941967,00000100,false,Rx,0,8,00,00,00,00,9A,01,C8,00,
42942214,00000101,false,Rx,0,8,00,FF,FE,00,00,00,00,00,
42942460,00000102,false,Rx,0,8,01,90,01,00,00,01,00,00,
42948660,00000523,false,Rx,0,6,02,02,EB,FF,FF,FF,00,00,
42958740,00000524,false,Rx,0,6,03,0C,EC,FF,FF,FF,00,00,
42998089,00000521,false,Rx,0,6,00,05,F9,FF,FF,FF,00,00,
43029432,00000527,false,Rx,0,6,06,02,CB,73,01,00,00,00,
43041968,00000100,false,Rx,0,8,00,00,00,00,9A,01,C8,00,
43042214,00000101,false,Rx,0,8,00,FF,FE,00,00,00,00,00,
43042459,00000102,false,Rx,0,8,01,90,01,00,00,01,00,00,
43053653,00000528,false,Rx,0,6,07,08,05,26,00,00,00,00,
43141963,00000100,false,Rx,0,8,00,00,00,00,9A,01,C8,00,
43142222,00000101,false,Rx,0,8,00,FF,FE,00,00,00,00,00,
43142457,00000102,false,Rx,0,8,01,90,01,00,00,01,00,00,
43241955,00000100,false,Rx,0,8,00,00,00,00,9A,01,C8,00,
43242209,00000101,false,Rx,0,8,00,FF,FE,00,00,00,00,00,
43242451,00000102,false,Rx,0,8,01,90,01,00,00,01,00,00,
43257395,00000522,false,Rx,0,6,01,05,26,AD,05,00,00,00,
43292030,00000526,false,Rx,0,6,05,06,00,00,00,00,00,00,
43295771,00000525,false,Rx,0,6,04,04,66,00,00,00,00,00,
43341955,00000100,false,Rx,0,8,00,00,00,00,9A,01,C8,00,
43342202,00000101,false,Rx,0,8,00,FF,FE,00,00,00,00,00,
43342453,00000102,false,Rx,0,8,01,90,01,00,00,01,00,00,
43441954,00000100,false,Rx,0,8,00,00,00,00,9A,01,C8,00,
43442202,00000101,false,Rx,0,8,00,FF,FE,00,00,00,00,00,
43442451,00000102,false,Rx,0,8,01,90,01,00,00,01,00,00,
43541955,00000100,false,Rx,0,8,00,00,00,00,9A,01,C8,00,
43542202,00000101,false,Rx,0,8,00,FF,FE,00,00,00,00,00,
43542451,00000102,false,Rx,0,8,01,90,01,00,00,01,00,00,
43598450,00000523,false,Rx,0,6,02,03,E8,FF,FF,FF,00,00,
43611598,00000521,false,Rx,0,6,00,06,F9,FF,FF,FF,00,00,
43626719,00000524,false,Rx,0,6,03,0D,E9,FF,FF,FF,00,00,
43641949,00000100,false,Rx,0,8,00,00,00,00,9A,01,C8,00,
43642196,00000101,false,Rx,0,8,00,FF,FE,00,00,00,00,00,
43642445,00000102,false,Rx,0,8,01,90,01,00,00,01,00,00,
43741945,00000100,false,Rx,0,8,00,00,00,00,9A,01,C8,00,
43742198,00000101,false,Rx,0,8,00,FF,FE,00,00,00,00,00,
43742445,00000102,false,Rx,0,8,01,90,01,00,00,01,00,00,
43751885,00000527,false,Rx,0,6,06,03,CB,73,01,00,00,00,
43794271,00000528,false,Rx,0,6,07,09,05,26,00,00,00,00,
43841948,00000100,false,Rx,0,8,00,00,00,00,9A,01,C8,00,
43842196,00000101,false,Rx,0,8,00,FF,FE,00,00,00,00,00,
43842442,00000102,false,Rx,0,8,01,90,01,00,00,01,00,00,
43889042,00000522,false,Rx,0,6,01,06,2D,AD,05,00,00,00,
43941943,00000100,false,Rx,0,8,00,00,00,00,9A,01,C8,00,
43942190,00000101,false,Rx,0,8,00,FF,FE,00,00,00,00,00,
43942442,00000102,false,Rx,0,8,01,90,01,00,00,01,00,00,
43981895,00000525,false,Rx,0,6,04,05,66,00,00,00,00,00,
43996155,00000526,false,Rx,0,6,05,07,02,00,00,00,00,00,
44041941,00000100,false,Rx,0,8,00,00,00,00,9A,01,C8,00,
44042188,00000101,false,Rx,0,8,00,FF,FE,00,00,00,00,00,
44042440,00000102,false,Rx,0,8,01,90,01,00,00,01,00,00,
44141935,00000100,false,Rx,0,8,00,00,00,00,9A,01,C8,00,
44142189,00000101,false,Rx,0,8,00,FF,FE,00,00,00,00,00,
44142435,00000102,false,Rx,0,8,01,90,01,00,00,01,00,00,
44225031,00000521,false,Rx,0,6,00,07,FB,FF,FF,FF,00,00,
44241939,00000100,false,Rx,0,8,00,00,00,00,9A,01,C8,00,
44242183,00000101,false,Rx,0,8,00,FF,FE,00,00,00,00,00,
44242435,00000102,false,Rx,0,8,01,90,01,00,00,01,00,00,
44248249,00000523,false,Rx,0,6,02,04,E8,FF,FF,FF,00,00,
44294666,00000524,false,Rx,0,6,03,0E,EB,FF,FF,FF,00,00,
44341931,00000100,false,Rx,0,8,00,00,00,00,9A,01,C8,00,
44342182,00000101,false,Rx,0,8,00,FF,FE,00,00,00,00,00,
44342434,00000102,false,Rx,0,8,01,90,01,00,00,01,00,00,
44441933,00000100,false,Rx,0,8,00,00,00,00,9A,01,C8,00,
44442181,00000101,false,Rx,0,8,00,FF,FE,00,00,00,00,00,
44442426,00000102,false,Rx,0,8,01,90,01,00,00,01,00,00,
44474325,00000527,false,Rx,0,6,06,04,CB,73,01,00,00,00,
44520679,00000522,false,Rx,0,6,01,07,36,AD,05,00,00,00,
44534877,00000528,false,Rx,0,6,07,0A,05,26,00,00,00,00,
44541929,00000100,false,Rx,0,8,00,00,00,00,9A,01,C8,00,
44542181,00000101,false,Rx,0,8,00,FF,FE,00,00,00,00,00,
44542427,00000102,false,Rx,0,8,01,90,01,00,00,01,00,00,
44641925,00000100,false,Rx,0,8,00,00,00,00,9A,01,C8,00,
44642179,00000101,false,Rx,0,8,00,FF,FE,00,00,00,00,00,
44642425,00000102,false,Rx,0,8,01,90,01,00,00,01,00,00,
44668283,00000525,false,Rx,0,6,04,06,66,00,00,00,00,00,
44700666,00000526,false,Rx,0,6,05,08,0B,00,00,00,00,00,
44741927,00000100,false,Rx,0,8,00,00,00,00,9A,01,C8,00,
44742189,00000101,false,Rx,0,8,00,FF,FE,00,00,00,00,00,
44742424,00000102,false,Rx,0,8,01,90,01,00,00,01,00,00,
44838522,00000521,false,Rx,0,6,00,08,F5,FF,FF,FF,00,00,
44841923,00000100,false,Rx,0,8,00,00,00,00,9A,01,C8,00,
44842171,00000101,false,Rx,0,8,00,FF,FE,00,00,00,00,00,
44842422,00000102,false,Rx,0,8,01,90,01,00,00,01,00,00,
44898053,00000523,false,Rx,0,6,02,05,E8,FF,FF,FF,00,00,
44941922,00000100,false,Rx,0,8,00,00,00,00,9A,01,C8,00,
44942170,00000101,false,Rx,0,8,00,FF,FE,00,00,00,00,00,
44942415,00000102,false,Rx,0,8,01,90,01,00,00,01,00,00,
44962647,00000524,false,Rx,0,6,03,0F,F0,FF,FF,FF,00,00,
45041921,00000100,false,Rx,0,8,00,00,00,00,9A,01,C8,00,
45042169,00000101,false,Rx,0,8,00,FF,FE,00,00,00,00,00,
45042418,00000102,false,Rx,0,8,01,90,01,00,00,01,00,00,
45141918,00000100,false,Rx,0,8,00,00,00,00,9A,01,C8,00,
45142172,00000101,false,Rx,0,8,00,FF,FE,00,00,00,00,00,
45142415,00000102,false,Rx,0,8,01,90,01,00,00,01,00,00,
45152685,00000522,false,Rx,0,6,01,08,31,AD,05,00,00,00,
45196791,00000527,false,Rx,0,6,06,05,CB,73,01,00,00,00,
45241917,00000100,false,Rx,0,8,00,00,00,00,9A,01,C8,00,
45242171,00000101,false,Rx,0,8,00,FF,FE,00,00,00,00,00,
45242410,00000102,false,Rx,0,8,01,90,01,00,00,01,00,00,
45275660,00000528,false,Rx,0,6,07,0B,05,26,00,00,00,00,
45341915,00000100,false,Rx,0,8,00,00,00,00,9A,01,C8,00,
45342169,00000101,false,Rx,0,8,00,FF,FE,00,00,00,00,00,
45342422,00000102,false,Rx,0,8,01,90,01,00,00,01,00,00,
45354154,00000525,false,Rx,0,6,04,07,66,00,00,00,00,00,
45404919,00000526,false,Rx,0,6,05,09,06,00,00,00,00,00,
45441909,00000100,false,Rx,0,8,00,00,00,00,9A,01,C8,00,
45442164,00000101,false,Rx,0,8,00,FF,FE,00,00,00,00,00,
45442410,00000102,false,Rx,0,8,01,90,01,00,00,01,00,00,
45452007,00000521,false,Rx,0,6,00,09,F5,FF,FF,FF,00,00,
45541906,00000100,false,Rx,0,8,00,00,00,00,9A,01,C8,00,
45542166,00000101,false,Rx,0,8,00,FF,FE,00,00,00,00,00,
45542406,00000102,false,Rx,0,8,01,90,01,00,00,01,00,00,
45548181,00000523,false,Rx,0,6,02,06,E8,FF,FF,FF,00,00,
45630613,00000524,false,Rx,0,6,03,00,F9,FF,FF,FF,00,00,
45641905,00000100,false,Rx,0,8,00,00,00,00,9A,01,C8,00,
45642151,00000101,false,Rx,0,8,00,FF,FE,00,00,00,00,00,
45642412,00000102,false,Rx,0,8,01,90,01,00,00,01,00,00,
45741900,00000100,false,Rx,0,8,00,00,00,00,9A,01,C8,00,
45742154,00000101,false,Rx,0,8,00,FF,FE,00,00,00,00,00,
45742407,00000102,false,Rx,0,8,01,90,01,00,00,01,00,00,
45783967,00000522,false,Rx,0,6,01,09,2D,AD,05,00,00,00,
45841901,00000100,false,Rx,0,8,00,00,00,00,9A,01,C8,00,
45842155,00000101,false,Rx,0,8,00,FF,FE,00,00,00,00,00,
45842401,00000102,false,Rx,0,8,01,90,01,00,00,01,00,00,
45919484,00000527,false,Rx,0,6,06,06,CB,73,01,00,00,00,
45941901,00000100,false,Rx,0,8,00,00,00,00,9A,01,C8,00,
45942154,00000101,false,Rx,0,8,00,FF,FE,00,00,00,00,00,
45942400,00000102,false,Rx,0,8,01,90,01,00,00,01,00,00,
46016111,00000528,false,Rx,0,6,07,0C,05,26,00,00,00,00,
46040278,00000525,false,Rx,0,6,04,08,66,00,00,00,00,00,
46041901,00000100,false,Rx,0,8,00,00,00,00,9A,01,C8,00,
46042155,00000101,false,Rx,0,8,00,FF,FE,00,00,00,00,00,
46042394,00000102,false,Rx,0,8,01,90,01,00,00,01,00,00,
46065481,00000521,false,Rx,0,6,00,0A,F6,FF,FF,FF,00,00,
46109173,00000526,false,Rx,0,6,05,0A,06,00,00,00,00,00,
46141894,00000100,false,Rx,0,8,00,00,00,00,9A,01,C8,00,
46142154,00000101,false,Rx,0,8,00,FF,FE,00,00,00,00,00,
46142395,00000102,false,Rx,0,8,01,90,01,00,00,01,00,00,
46197679,00000523,false,Rx,0,6,02,07,F7,FF,FF,FF,00,00,
46241890,00000100,false,Rx,0,8,00,00,00,00,9A,01,C8,00,
46242151,00000101,false,Rx,0,8,00,FF,FE,00,00,00,00,00,
46242391,00000102,false,Rx,0,8,01,90,01,00,00,01,00,00,
46298580,00000524,false,Rx,0,6,03,01,F6,FF,FF,FF,00,00,
46341888,00000100,false,Rx,0,8,00,00,00,00,9A,01,C8,00,
46342149,00000101,false,Rx,0,8,00,FF,FE,00,00,00,00,00,
46342389,00000102,false,Rx,0,8,01,90,01,00,00,01,00,00,
46415598,00000522,false,Rx,0,6,01,0A,23,AD,05,00,00,00,
46441888,00000100,false,Rx,0,8,00,00,00,00,9A,01,C8,00,
46442149,00000101,false,Rx,0,8,00,FF,FE,00,00,00,00,00,
46442388,00000102,false,Rx,0,8,01,90,01,00,00,01,00,00,
46541891,00000100,false,Rx,0,8,00,00,00,00,9A,01,C8,00,
46542146,00000101,false,Rx,0,8,00,FF,FE,00,00,00,00,00,
46542386,00000102,false,Rx,0,8,01,90,01,00,00,01,00,00,
46641699,00000527,false,Rx,0,6,06,07,CB,73,01,00,00,00,
46641953,00000100,false,Rx,0,8,00,00,00,00,9A,01,C8,00,
46642197,00000101,false,Rx,0,8,00,FF,FE,00,00,00,00,00,
46642450,00000102,false,Rx,0,8,01,90,01,00,00,01,00,00,
46678963,00000521,false,Rx,0,6,00,0B,FB,FF,FF,FF,00,00,
46726422,00000525,false,Rx,0,6,04,09,66,00,00,00,00,00,
46741884,00000100,false,Rx,0,8,00,00,00,00,9A,01,C8,00,
46742134,00000101,false,Rx,0,8,00,FF,FE,00,00,00,00,00,
46742381,00000102,false,Rx,0,8,01,90,01,00,00,01,00,00,
46756734,00000528,false,Rx,0,6,07,0D,05,26,00,00,00,00,
46813312,00000526,false,Rx,0,6,05,0B,04,00,00,00,00,00,
46841884,00000100,false,Rx,0,8,00,00,00,00,9A,01,C8,00,
46842134,00000101,false,Rx,0,8,00,FF,FE,00,00,00,00,00,
46842381,00000102,false,Rx,0,8,01,90,01,00,00,01,00,00,
46847755,00000523,false,Rx,0,6,02,08,F7,FF,FF,FF,00,00,
46941875,00000100,false,Rx,0,8,00,00,00,00,9A,01,C8,00,
46942128,00000101,false,Rx,0,8,00,FF,FE,00,00,00,00,00,
46942376,00000102,false,Rx,0,8,01,90,01,00,00,01,00,00,
46966545,00000524,false,Rx,0,6,03,02,EA,FF,FF,FF,00,00,
47041879,00000100,false,Rx,0,8,00,00,00,00,9A,01,C8,00,
47042125,00000101,false,Rx,0,8,00,FF,FE,00,00,00,00,00,
47042375,00000102,false,Rx,0,8,01,90,01,00,00,01,00,00,
47047244,00000522,false,Rx,0,6,01,0B,2A,AD,05,00,00,00,
47141876,00000100,false,Rx,0,8,00,00,00,00,9A,01,C8,00,
47142122,00000101,false,Rx,0,8,00,FF,FE,00,00,00,00,00,
47142373,00000102,false,Rx,0,8,01,90,01,00,00,01,00,00,
47241873,00000100,false,Rx,0,8,00,00,00,00,9A,01,C8,00,
47242126,00000101,false,Rx,0,8,00,FF,FE,00,00,00,00,00,
47242371,00000102,false,Rx,0,8,01,90,01,00,00,01,00,00,
47292447,00000521,false,Rx,0,6,00,0C,F7,FF,FF,FF,00,00,
47341871,00000100,false,Rx,0,8,00,00,00,00,9A,01,C8,00,
47342118,00000101,false,Rx,0,8,00,FF,FE,00,00,00,00,00,
47342371,00000102,false,Rx,0,8,01,90,01,00,00,01,00,00,
47364476,00000527,false,Rx,0,6,06,08,CB,73,01,00,00,00,
47412541,00000525,false,Rx,0,6,04,0A,66,00,00,00,00,00,
47441867,00000100,false,Rx,0,8,00,00,00,00,9A,01,C8,00,
47442120,00000101,false,Rx,0,8,00,FF,FE,00,00,00,00,00,
47442367,00000102,false,Rx,0,8,01,90,01,00,00,01,00,00,
47497627,00000523,false,Rx,0,6,02,09,FA,FF,FF,FF,00,00,
47497847,00000528,false,Rx,0,6,07,0E,05,26,00,00,00,00,
47517790,00000526,false,Rx,0,6,05,0C,0D,00,00,00,00,00,
47541865,00000100,false,Rx,0,8,00,00,00,00,9A,01,C8,00,
47542117,00000101,false,Rx,0,8,00,FF,FE,00,00,00,00,00,
47542362,00000102,false,Rx,0,8,01,90,01,00,00,01,00,00,
47634793,00000524,false,Rx,0,6,03,03,FC,FF,FF,FF,00,00,
47641866,00000100,false,Rx,0,8,00,00,00,00,9A,01,C8,00,
47642112,00000101,false,Rx,0,8,00,FF,FE,00,00,00,00,00,
47642360,00000102,false,Rx,0,8,01,90,01,00,00,01,00,00,
47678909,00000522,false,Rx,0,6,01,0C,2C,AD,05,00,00,00,
47741864,00000100,false,Rx,0,8,00,00,00,00,9A,01,C8,00,
47742110,00000101,false,Rx,0,8,00,FF,FE,00,00,00,00,00,
47742358,00000102,false,Rx,0,8,01,90,01,00,00,01,00,00,
47841863,00000100,false,Rx,0,8,00,00,00,00,9A,01,C8,00,
47842110,00000101,false,Rx,0,8,00,FF,FE,00,00,00,00,00,
47842358,00000102,false,Rx,0,8,01,90,01,00,00,01,00,00,
47905941,00000521,false,Rx,0,6,00,0D,F7,FF,FF,FF,00,00,
47941855,00000100,false,Rx,0,8,00,00,00,00,9A,01,C8,00,
47942110,00000101,false,Rx,0,8,00,FF,FE,00,00,00,00,00,
47942358,00000102,false,Rx,0,8,01,90,01,00,00,01,00,00,
48041858,00000100,false,Rx,0,8,00,00,00,00,9A,01,C8,00,
48042104,00000101,false,Rx,0,8,00,FF,FE,00,00,00,00,00,
48042351,00000102,false,Rx,0,8,01,90,01,00,00,01,00,00,
48086616,00000527,false,Rx,0,6,06,09,CB,73,01,00,00,00,
48098688,00000525,false,Rx,0,6,04,0B,66,00,00,00,00,00,
48141851,00000100,false,Rx,0,8,00,00,00,00,9A,01,C8,00,
48142106,00000101,false,Rx,0,8,00,FF,FE,00,00,00,00,00,
48142354,00000102,false,Rx,0,8,01,90,01,00,00,01,00,00,
48147104,00000523,false,Rx,0,6,02,0A,FB,FF,FF,FF,00,00,
48221913,00000526,false,Rx,0,6,05,0D,05,00,00,00,00,00,
48237981,00000528,false,Rx,0,6,07,0F,05,26,00,00,00,00,
48241856,00000100,false,Rx,0,8,00,00,00,00,9A,01,C8,00,
48242102,00000101,false,Rx,0,8,00,FF,FE,00,00,00,00,00,
48242350,00000102,false,Rx,0,8,01,90,01,00,00,01,00,00,
48302762,00000524,false,Rx,0,6,03,04,F1,FF,FF,FF,00,00,
48310558,00000522,false,Rx,0,6,01,0D,22,AD,05,00,00,00,
48341851,00000100,false,Rx,0,8,00,00,00,00,9A,01,C8,00,
48342103,00000101,false,Rx,0,8,00,FF,FE,00,00,00,00,00,
48342350,00000102,false,Rx,0,8,01,90,01,00,00,01,00,00,
48441845,00000100,false,Rx,0,8,00,00,00,00,9A,01,C8,00,
48442097,00000101,false,Rx,0,8,00,FF,FE,00,00,00,00,00,
48442347,00000102,false,Rx,0,8,01,90,01,00,00,01,00,00,
48519427,00000521,false,Rx,0,6,00,0E,F6,FF,FF,FF,00,00,
48541843,00000100,false,Rx,0,8,00,00,00,00,9A,01,C8,00,
48542095,00000101,false,Rx,0,8,00,FF,FE,00,00,00,00,00,
48542341,00000102,false,Rx,0,8,01,90,01,00,00,01,00,00,
48641845,00000100,false,Rx,0,8,00,00,00,00,9A,01,C8,00,
48642091,00000101,false,Rx,0,8,00,FF,FE,00,00,00,00,00,
48642342,00000102,false,Rx,0,8,01,90,01,00,00,01,00,00,
48741839,00000100,false,Rx,0,8,00,00,00,00,9A,01,C8,00,
48742091,00000101,false,Rx,0,8,00,FF,FE,00,00,00,00,00,
48742342,00000102,false,Rx,0,8,01,90,01,00,00,01,00,00,
48785104,00000525,false,Rx,0,6,04,0C,66,00,00,00,00,00,
48796926,00000523,false,Rx,0,6,02,0B,FB,FF,FF,FF,00,00,
48809091,00000527,false,Rx,0,6,06,0A,CB,73,01,00,00,00,
48841841,00000100,false,Rx,0,8,00,00,00,00,9A,01,C8,00,
48842088,00000101,false,Rx,0,8,00,FF,FE,00,00,00,00,00,
48842336,00000102,false,Rx,0,8,01,90,01,00,00,01,00,00,
48926407,00000526,false,Rx,0,6,05,0E,03,00,00,00,00,00,
48941838,00000100,false,Rx,0,8,00,00,00,00,9A,01,C8,00,
48942085,00000101,false,Rx,0,8,00,FF,FE,00,00,00,00,00,
48942338,00000102,false,Rx,0,8,01,90,01,00,00,01,00,00,
48942535,00000522,false,Rx,0,6,01,0E,2D,AD,05,00,00,00,
48970491,00000524,false,Rx,0,6,03,05,F1,FF,FF,FF,00,00,
48978620,00000528,false,Rx,0,6,07,00,05,26,00,00,00,00,
49041833,00000100,false,Rx,0,8,00,00,00,00,9A,01,C8,00,
49042085,00000101,false,Rx,0,8,00,FF,FE,00,00,00,00,00,
49042332,00000102,false,Rx,0,8,01,90,01,00,00,01,00,00,
49132926,00000521,false,Rx,0,6,00,0F,F9,FF,FF,FF,00,00,
49141834,00000100,false,Rx,0,8,00,00,00,00,9A,01,C8,00,
49142086,00000101,false,Rx,0,8,00,FF,FE,00,00,00,00,00,
49142334,00000102,false,Rx,0,8,01,90,01,00,00,01,00,00,
49241829,00000100,false,Rx,0,8,00,00,00,00,9A,01,C8,00,
49242081,00000101,false,Rx,0,8,00,FF,FE,00,00,00,00,00,
49242329,00000102,false,Rx,0,8,01,90,01,00,00,01,00,00,
49341831,00000100,false,Rx,0,8,00,00,00,00,9A,01,C8,00,
49342079,00000101,false,Rx,0,8,00,FF,FE,00,00,00,00,00,
49342326,00000102,false,Rx,0,8,01,90,01,00,00,01,00,00,
49441827,00000100,false,Rx,0,8,00,00,00,00,9A,01,C8,00,
49442080,00000101,false,Rx,0,8,00,FF,FE,00,00,00,00,00,
49442328,00000102,false,Rx,0,8,01,90,01,00,00,01,00,00,
49446747,00000523,false,Rx,0,6,02,0C,ED,FF,FF,FF,00,00,
49470987,00000525,false,Rx,0,6,04,0D,66,00,00,00,00,00,
49531561,00000527,false,Rx,0,6,06,0B,CB,73,01,00,00,00,
49541827,00000100,false,Rx,0,8,00,00,00,00,9A,01,C8,00,
49542078,00000101,false,Rx,0,8,00,FF,FE,00,00,00,00,00,
49542326,00000102,false,Rx,0,8,01,90,01,00,00,01,00,00,
49574006,00000522,false,Rx,0,6,01,0F,2E,AD,05,00,00,00,
49630723,00000526,false,Rx,0,6,05,0F,0B,00,00,00,00,00,
49638483,00000524,false,Rx,0,6,03,06,00,00,00,00,00,00,
49641825,00000100,false,Rx,0,8,00,00,00,00,9A,01,C8,00,
49642071,00000101,false,Rx,0,8,00,FF,FE,00,00,00,00,00,
49642319,00000102,false,Rx,0,8,01,90,01,00,00,01,00,00,
49719269,00000528,false,Rx,0,6,07,01,05,26,00,00,00,00,
49741824,00000100,false,Rx,0,8,00,00,00,00,9A,01,C8,00,
49742072,00000101,false,Rx,0,8,00,FF,FE,00,00,00,00,00,
49742320,00000102,false,Rx,0,8,01,90,01,00,00,01,00,00,
49746421,00000521,false,Rx,0,6,00,00,F4,FF,FF,FF,00,00,
49841821,00000100,false,Rx,0,8,00,00,00,00,9A,01,C8,00,
49842079,00000101,false,Rx,0,8,00,FF,FE,00,00,00,00,00,
49842316,00000102,false,Rx,0,8,01,90,01,00,00,01,00,00,
49941818,00000100,false,Rx,0,8,00,00,00,00,9A,01,C8,00,
49942064,00000101,false,Rx,0,8,00,FF,FE,00,00,00,00,00,
49942315,00000102,false,Rx,0,8,01,90,01,00,00,01,00,00,
50041817,00000100,false,Rx,0,8,00,00,00,00,9A,01,C8,00,
50042064,00000101,false,Rx,0,8,00,FF,FE,00,00,00,00,00,
50042309,00000102,false,Rx,0,8,01,90,01,00,00,01,00,00,
50096562,00000523,false,Rx,0,6,02,0D,EB,FF,FF,FF,00,00,
50141812,00000100,false,Rx,0,8,00,00,00,00,9A,01,C8,00,
50142065,00000101,false,Rx,0,8,00,FF,FE,00,00,00,00,00,
50142312,00000102,false,Rx,0,8,01,90,01,00,00,01,00,00,
50157128,00000525,false,Rx,0,6,04,0E,66,00,00,00,00,00,
50205539,00000522,false,Rx,0,6,01,00,3D,AD,05,00,00,00,
50241808,00000100,false,Rx,0,8,00,00,00,00,9A,01,C8,00,
50242061,00000101,false,Rx,0,8,00,FF,FE,00,00,00,00,00,
50242308,00000102,false,Rx,0,8,01,90,01,00,00,01,00,00,
50254036,00000527,false,Rx,0,6,06,0C,CB,73,01,00,00,00,
50306459,00000524,false,Rx,0,6,03,07,EA,FF,FF,FF,00,00,
50335005,00000526,false,Rx,0,6,05,00,03,00,00,00,00,00,
50341805,00000100,false,Rx,0,8,00,00,00,00,9A,01,C8,00,
50342057,00000101,false,Rx,0,8,00,FF,FE,00,00,00,00,00,
50342307,00000102,false,Rx,0,8,01,90,01,00,00,01,00,00,
50360470,00000521,false,Rx,0,6,00,01,F6,FF,FF,FF,00,00,
50441804,00000100,false,Rx,0,8,00,00,00,00,9A,01,C8,00,
50442057,00000101,false,Rx,0,8,00,FF,FE,00,00,00,00,00,
50442318,00000102,false,Rx,0,8,01,90,01,00,00,01,00,00,
50459901,00000528,false,Rx,0,6,07,02,05,26,00,00,00,00,
50541804,00000100,false,Rx,0,8,00,00,00,00,9A,01,C8,00,
50542057,00000101,false,Rx,0,8,00,FF,FE,00,00,00,00,00,
50542304,00000102,false,Rx,0,8,01,90,01,00,00,01,00,00,
50641802,00000100,false,Rx,0,8,00,00,00,00,9A,01,C8,00,
50642049,00000101,false,Rx,0,8,00,FF,FE,00,00,00,00,00,
50642302,00000102,false,Rx,0,8,01,90,01,00,00,01,00,00,
50741797,00000100,false,Rx,0,8,00,00,00,00,9A,01,C8,00,
50742051,00000101,false,Rx,0,8,00,FF,FE,00,00,00,00,00,
50742298,00000102,false,Rx,0,8,01,90,01,00,00,01,00,00,
50746406,00000523,false,Rx,0,6,02,0E,EB,FF,FF,FF,00,00,
50837217,00000522,false,Rx,0,6,01,01,3F,AD,05,00,00,00,
50841799,00000100,false,Rx,0,8,00,00,00,00,9A,01,C8,00,
50842049,00000101,false,Rx,0,8,00,FF,FE,00,00,00,00,00,
50842297,00000102,false,Rx,0,8,01,90,01,00,00,01,00,00,
50843555,00000525,false,Rx,0,6,04,0F,66,00,00,00,00,00,
50941796,00000100,false,Rx,0,8,00,00,00,00,9A,01,C8,00,
50942042,00000101,false,Rx,0,8,00,FF,FE,00,00,00,00,00,
50942296,00000102,false,Rx,0,8,01,90,01,00,00,01,00,00,
50973438,00000521,false,Rx,0,6,00,02,F7,FF,FF,FF,00,00,
50974462,00000524,false,Rx,0,6,03,08,F0,FF,FF,FF,00,00,
50976532,00000527,false,Rx,0,6,06,0D,CB,73,01,00,00,00,
51039187,00000526,false,Rx,0,6,05,01,02,00,00,00,00,00,
51041791,00000100,false,Rx,0,8,00,00,00,00,9A,01,C8,00,
51042040,00000101,false,Rx,0,8,00,FF,FE,00,00,00,00,00,
51042294,00000102,false,Rx,0,8,01,90,01,00,00,01,00,00,
51141789,00000100,false,Rx,0,8,00,00,00,00,9A,01,C8,00,
51142042,00000101,false,Rx,0,8,00,FF,FE,00,00,00,00,00,
51142289,00000102,false,Rx,0,8,01,90,01,00,00,01,00,00,
51200564,00000528,false,Rx,0,6,07,03,05,26,00,00,00,00,
51241790,00000100,false,Rx,0,8,00,00,00,00,9A,01,C8,00,
51242039,00000101,false,Rx,0,8,00,FF,FE,00,00,00,00,00,
51242285,00000102,false,Rx,0,8,01,90,01,00,00,01,00,00,
51341787,00000100,false,Rx,0,8,00,00,00,00,9A,01,C8,00,
51342034,00000101,false,Rx,0,8,00,FF,FE,00,00,00,00,00,
51342285,00000102,false,Rx,0,8,01,90,01,00,00,01,00,00,
51396251,00000523,false,Rx,0,6,02,0F,F2,FF,FF,FF,00,00,
51441783,00000100,false,Rx,0,8,00,00,00,00,9A,01,C8,00,
51442036,00000101,false,Rx,0,8,00,FF,FE,00,00,00,00,00,
51442283,00000102,false,Rx,0,8,01,90,01,00,00,01,00,00,
51468898,00000522,false,Rx,0,6,01,02,44,AD,05,00,00,00,
51529468,00000525,false,Rx,0,6,04,00,66,00,00,00,00,00,
51541784,00000100,false,Rx,0,8,00,00,00,00,9A,01,C8,00,
51542037,00000101,false,Rx,0,8,00,FF,FE,00,00,00,00,00,
51542284,00000102,false,Rx,0,8,01,90,01,00,00,01,00,00,
51586964,00000521,false,Rx,0,6,00,03,F9,FF,FF,FF,00,00,
51641782,00000100,false,Rx,0,8,00,00,00,00,9A,01,C8,00,
51642035,00000101,false,Rx,0,8,00,FF,FE,00,00,00,00,00,
51642278,00000102,false,Rx,0,8,01,90,01,00,00,01,00,00,
51642486,00000524,false,Rx,0,6,03,09,E7,FF,FF,FF,00,00,
51699033,00000527,false,Rx,0,6,06,0E,CB,73,01,00,00,00,
51741777,00000100,false,Rx,0,8,00,00,00,00,9A,01,C8,00,
51742030,00000101,false,Rx,0,8,00,FF,FE,00,00,00,00,00,
51742277,00000102,false,Rx,0,8,01,90,01,00,00,01,00,00,
51743691,00000526,false,Rx,0,6,05,02,02,00,00,00,00,00,
51841774,00000100,false,Rx,0,8,00,00,00,00,9A,01,C8,00,
51842028,00000101,false,Rx,0,8,00,FF,FE,00,00,00,00,00,
51842272,00000102,false,Rx,0,8,01,90,01,00,00,01,00,00,
51941211,00000528,false,Rx,0,6,07,04,05,26,00,00,00,00,
51941777,00000100,false,Rx,0,8,00,00,00,00,9A,01,C8,00,
51942023,00000101,false,Rx,0,8,00,FF,FE,00,00,00,00,00,
51942271,00000102,false,Rx,0,8,01,90,01,00,00,01,00,00,
52041771,00000100,false,Rx,0,8,00,00,00,00,9A,01,C8,00,
52042024,00000101,false,Rx,0,8,00,FF,FE,00,00,00,00,00,
52042271,00000102,false,Rx,0,8,01,90,01,00,00,01,00,00,
52046075,00000523,false,Rx,0,6,02,00,F3,FF,FF,FF,00,00,
52100564,00000522,false,Rx,0,6,01,03,37,AD,05,00,00,00,
52141773,00000100,false,Rx,0,8,00,00,00,00,9A,01,C8,00,
52142023,00000101,false,Rx,0,8,00,FF,FE,00,00,00,00,00,
52142270,00000102,false,Rx,0,8,01,90,01,00,00,01,00,00,
52200464,00000521,false,Rx,0,6,00,04,F8,FF,FF,FF,00,00,
52215625,00000525,false,Rx,0,6,04,01,66,00,00,00,00,00,
52241771,00000100,false,Rx,0,8,00,00,00,00,9A,01,C8,00,
52242017,00000101,false,Rx,0,8,00,FF,FE,00,00,00,00,00,
52242271,00000102,false,Rx,0,8,01,90,01,00,00,01,00,00,
52310465,00000524,false,Rx,0,6,03,0A,FB,FF,FF,FF,00,00,
52341768,00000100,false,Rx,0,8,00,00,00,00,9A,01,C8,00,
52342018,00000101,false,Rx,0,8,00,FF,FE,00,00,00,00,00,
52342266,00000102,false,Rx,0,8,01,90,01,00,00,01,00,00,
52421518,00000527,false,Rx,0,6,06,0F,CB,73,01,00,00,00,
52441763,00000100,false,Rx,0,8,00,00,00,00,9A,01,C8,00,
52442018,00000101,false,Rx,0,8,00,FF,FE,00,00,00,00,00,
52442266,00000102,false,Rx,0,8,01,90,01,00,00,01,00,00,
52447830,00000526,false,Rx,0,6,05,03,04,00,00,00,00,00,
52541763,00000100,false,Rx,0,8,00,00,00,00,9A,01,C8,00,
52542010,00000101,false,Rx,0,8,00,FF,FE,00,00,00,00,00,
52542264,00000102,false,Rx,0,8,01,90,01,00,00,01,00,00,
52641762,00000100,false,Rx,0,8,00,00,00,00,9A,01,C8,00,
52642013,00000101,false,Rx,0,8,00,FF,FE,00,00,00,00,00,
52642262,00000102,false,Rx,0,8,01,90,01,00,00,01,00,00,
52681857,00000528,false,Rx,0,6,07,05,05,26,00,00,00,00,
52695920,00000523,false,Rx,0,6,02,01,F3,FF,FF,FF,00,00,
52732222,00000522,false,Rx,0,6,01,04,3D,AD,05,00,00,00,
52741759,00000100,false,Rx,0,8,00,00,00,00,9A,01,C8,00,
52742012,00000101,false,Rx,0,8,00,FF,FE,00,00,00,00,00,
52742255,00000102,false,Rx,0,8,01,90,01,00,00,01,00,00,
52814008,00000521,false,Rx,0,6,00,05,F6,FF,FF,FF,00,00,
52841759,00000100,false,Rx,0,8,00,00,00,00,9A,01,C8,00,
52842006,00000101,false,Rx,0,8,00,FF,FE,00,00,00,00,00,
52842253,00000102,false,Rx,0,8,01,90,01,00,00,01,00,00,
52902045,00000525,false,Rx,0,6,04,02,66,00,00,00,00,00,
52941752,00000100,false,Rx,0,8,00,00,00,00,9A,01,C8,00,
52942005,00000101,false,Rx,0,8,00,FF,FE,00,00,00,00,00,
52942252,00000102,false,Rx,0,8,01,90,01,00,00,01,00,00,
52978463,00000524,false,Rx,0,6,03,0B,F5,FF,FF,FF,00,00,
53041750,00000100,false,Rx,0,8,00,00,00,00,9A,01,C8,00,
53042003,00000101,false,Rx,0,8,00,FF,FE,00,00,00,00,00,
53042247,00000102,false,Rx,0,8,01,90,01,00,00,01,00,00,
53141746,00000100,false,Rx,0,8,00,00,00,00,9A,01,C8,00,
53142000,00000101,false,Rx,0,8,00,FF,FE,00,00,00,00,00,
53142244,00000102,false,Rx,0,8,01,90,01,00,00,01,00,00,
53144251,00000527,false,Rx,0,6,06,00,CB,73,01,00,00,00,
53152350,00000526,false,Rx,0,6,05,04,06,00,00,00,00,00,
53241750,00000100,false,Rx,0,8,00,00,00,00,9A,01,C8,00,
53241996,00000101,false,Rx,0,8,00,FF,FE,00,00,00,00,00,
53242251,00000102,false,Rx,0,8,01,90,01,00,00,01,00,00,
53341747,00000100,false,Rx,0,8,00,00,00,00,9A,01,C8,00,
53341993,00000101,false,Rx,0,8,00,FF,FE,00,00,00,00,00,
53342247,00000102,false,Rx,0,8,01,90,01,00,00,01,00,00,
53345747,00000523,false,Rx,0,6,02,02,EB,FF,FF,FF,00,00,
53363897,00000522,false,Rx,0,6,01,05,3C,AD,05,00,00,00,
53422508,00000528,false,Rx,0,6,07,06,05,26,00,00,00,00,
53427481,00000521,false,Rx,0,6,00,06,F8,FF,FF,FF,00,00,
53441744,00000100,false,Rx,0,8,00,00,00,00,9A,01,C8,00,
53441997,00000101,false,Rx,0,8,00,FF,FE,00,00,00,00,00,
53442238,00000102,false,Rx,0,8,01,90,01,00,00,01,00,00,
53541745,00000100,false,Rx,0,8,00,00,00,00,9A,01,C8,00,
53541992,00000101,false,Rx,0,8,00,FF,FE,00,00,00,00,00,
53542239,00000102,false,Rx,0,8,01,90,01,00,00,01,00,00,
53587951,00000525,false,Rx,0,6,04,03,66,00,00,00,00,00,
53641741,00000100,false,Rx,0,8,00,00,00,00,9A,01,C8,00,
53641987,00000101,false,Rx,0,8,00,FF,FE,00,00,00,00,00,
53642235,00000102,false,Rx,0,8,01,90,01,00,00,01,00,00,
53646472,00000524,false,Rx,0,6,03,0C,F1,FF,FF,FF,00,00,
53741738,00000100,false,Rx,0,8,00,00,00,00,9A,01,C8,00,
53741986,00000101,false,Rx,0,8,00,FF,FE,00,00,00,00,00,
53742233,00000102,false,Rx,0,8,01,90,01,00,00,01,00,00,
53841734,00000100,false,Rx,0,8,00,00,00,00,9A,01,C8,00,
53841987,00000101,false,Rx,0,8,00,FF,FE,00,00,00,00,00,
53842235,00000102,false,Rx,0,8,01,90,01,00,00,01,00,00,
53856679,00000526,false,Rx,0,6,05,05,02,00,00,00,00,00,
53866495,00000527,false,Rx,0,6,06,01,CB,73,01,00,00,00,
53941735,00000100,false,Rx,0,8,00,00,00,00,9A,01,C8,00,
53941988,00000101,false,Rx,0,8,00,FF,FE,00,00,00,00,00,
53942236,00000102,false,Rx,0,8,01,90,01,00,00,01,00,00,
53995617,00000522,false,Rx,0,6,01,06,33,AD,05,00,00,00,
53995838,00000523,false,Rx,0,6,02,03,F9,FF,FF,FF,00,00,
54040989,00000521,false,Rx,0,6,00,07,F5,FF,FF,FF,00,00,
54041729,00000100,false,Rx,0,8,00,00,00,00,9A,01,C8,00,
54041983,00000101,false,Rx,0,8,00,FF,FE,00,00,00,00,00,
54042231,00000102,false,Rx,0,8,01,90,01,00,00,01,00,00,
54141728,00000100,false,Rx,0,8,00,00,00,00,9A,01,C8,00,
54141993,00000101,false,Rx,0,8,00,FF,FE,00,00,00,00,00,
54142229,00000102,false,Rx,0,8,01,90,01,00,00,01,00,00,
54163155,00000528,false,Rx,0,6,07,07,05,26,00,00,00,00,
54241728,00000100,false,Rx,0,8,00,00,00,00,9A,01,C8,00,
54241981,00000101,false,Rx,0,8,00,FF,FE,00,00,00,00,00,
54242224,00000102,false,Rx,0,8,01,90,01,00,00,01,00,00,
54274110,00000525,false,Rx,0,6,04,04,66,00,00,00,00,00,
54314442,00000524,false,Rx,0,6,03,0D,E5,FF,FF,FF,00,00,
54341724,00000100,false,Rx,0,8,00,00,00,00,9A,01,C8,00,
54341977,00000101,false,Rx,0,8,00,FF,FE,00,00,00,00,00,
54342225,00000102,false,Rx,0,8,01,90,01,00,00,01,00,00,
54441723,00000100,false,Rx,0,8,00,00,00,00,9A,01,C8,00,
54441976,00000101,false,Rx,0,8,00,FF,FE,00,00,00,00,00,
54442220,00000102,false,Rx,0,8,01,90,01,00,00,01,00,00,
54541725,00000100,false,Rx,0,8,00,00,00,00,9A,01,C8,00,
54541975,00000101,false,Rx,0,8,00,FF,FE,00,00,00,00,00,
54542218,00000102,false,Rx,0,8,01,90,01,00,00,01,00,00,
54560938,00000526,false,Rx,0,6,05,06,04,00,00,00,00,00,
54588962,00000527,false,Rx,0,6,06,02,CB,73,01,00,00,00,
54627268,00000522,false,Rx,0,6,01,07,42,AD,05,00,00,00,
54641722,00000100,false,Rx,0,8,00,00,00,00,9A,01,C8,00,
54641971,00000101,false,Rx,0,8,00,FF,FE,00,00,00,00,00,
54642219,00000102,false,Rx,0,8,01,90,01,00,00,01,00,00,
54645414,00000523,false,Rx,0,6,02,04,F9,FF,FF,FF,00,00,
54654481,00000521,false,Rx,0,6,00,08,F4,FF,FF,FF,00,00,
54741716,00000100,false,Rx,0,8,00,00,00,00,9A,01,C8,00,
54741973,00000101,false,Rx,0,8,00,FF,FE,00,00,00,00,00,
54742214,00000102,false,Rx,0,8,01,90,01,00,00,01,00,00,
54841712,00000100,false,Rx,0,8,00,00,00,00,9A,01,C8,00,
54841966,00000101,false,Rx,0,8,00,FF,FE,00,00,00,00,00,
54842213,00000102,false,Rx,0,8,01,90,01,00,00,01,00,00,
54904033,00000528,false,Rx,0,6,07,08,05,26,00,00,00,00,
54941709,00000100,false,Rx,0,8,00,00,00,00,9A,01,C8,00,
54941966,00000101,false,Rx,0,8,00,FF,FE,00,00,00,00,00,
54942208,00000102,false,Rx,0,8,01,90,01,00,00,01,00,00,
54960514,00000525,false,Rx,0,6,04,05,66,00,00,00,00,00,
54982440,00000524,false,Rx,0,6,03,0E,F1,FF,FF,FF,00,00,
55041710,00000100,false,Rx,0,8,00,00,00,00,9A,01,C8,00,
55041964,00000101,false,Rx,0,8,00,FF,FE,00,00,00,00,00,
55042212,00000102,false,Rx,0,8,01,90,01,00,00,01,00,00,
55141710,00000100,false,Rx,0,8,00,00,00,00,9A,01,C8,00,
55141967,00000101,false,Rx,0,8,00,FF,FE,00,00,00,00,00,
55142208,00000102,false,Rx,0,8,01,90,01,00,00,01,00,00,
55241709,00000100,false,Rx,0,8,00,00,00,00,9A,01,C8,00,
55241962,00000101,false,Rx,0,8,00,FF,FE,00,00,00,00,00,
55242204,00000102,false,Rx,0,8,01,90,01,00,00,01,00,00,
55258888,00000522,false,Rx,0,6,01,08,4D,AD,05,00,00,00,
55265200,00000526,false,Rx,0,6,05,07,04,00,00,00,00,00,
55267974,00000521,false,Rx,0,6,00,09,FC,FF,FF,FF,00,00,
55295224,00000523,false,Rx,0,6,02,05,F1,FF,FF,FF,00,00,
55311439,00000527,false,Rx,0,6,06,03,CB,73,01,00,00,00,
55341703,00000100,false,Rx,0,8,00,00,00,00,9A,01,C8,00,
55341953,00000101,false,Rx,0,8,00,FF,FE,00,00,00,00,00,
55342200,00000102,false,Rx,0,8,01,90,01,00,00,01,00,00,
55441699,00000100,false,Rx,0,8,00,00,00,00,9A,01,C8,00,
55441952,00000101,false,Rx,0,8,00,FF,FE,00,00,00,00,00,
55442203,00000102,false,Rx,0,8,01,90,01,00,00,01,00,00,
55541701,00000100,false,Rx,0,8,00,00,00,00,9A,01,C8,00,
55541956,00000101,false,Rx,0,8,00,FF,FE,00,00,00,00,00,
55542200,00000102,false,Rx,0,8,01,90,01,00,00,01,00,00,
55641699,00000100,false,Rx,0,8,00,00,00,00,9A,01,C8,00,
55641955,00000101,false,Rx,0,8,00,FF,FE,00,00,00,00,00,
55642200,00000102,false,Rx,0,8,01,90,01,00,00,01,00,00,
55644440,00000528,false,Rx,0,6,07,09,05,26,00,00,00,00,
55646404,00000525,false,Rx,0,6,04,06,66,00,00,00,00,00,
55650440,00000524,false,Rx,0,6,03,0F,F9,FF,FF,FF,00,00,
55741699,00000100,false,Rx,0,8,00,00,00,00,9A,01,C8,00,
55741945,00000101,false,Rx,0,8,00,FF,FE,00,00,00,00,00,
55742195,00000102,false,Rx,0,8,01,90,01,00,00,01,00,00,
55841693,00000100,false,Rx,0,8,00,00,00,00,9A,01,C8,00,
55841947,00000101,false,Rx,0,8,00,FF,FE,00,00,00,00,00,
55842191,00000102,false,Rx,0,8,01,90,01,00,00,01,00,00,
55881488,00000521,false,Rx,0,6,00,0A,F7,FF,FF,FF,00,00,
55890568,00000522,false,Rx,0,6,01,09,44,AD,05,00,00,00,
55941693,00000100,false,Rx,0,8,00,00,00,00,9A,01,C8,00,
55941947,00000101,false,Rx,0,8,00,FF,FE,00,00,00,00,00,
55942192,00000102,false,Rx,0,8,01,90,01,00,00,01,00,00,
55945069,00000523,false,Rx,0,6,02,06,F2,FF,FF,FF,00,00,
55969604,00000526,false,Rx,0,6,05,08,03,00,00,00,00,00,
56033936,00000527,false,Rx,0,6,06,04,CB,73,01,00,00,00,
56041688,00000100,false,Rx,0,8,00,00,00,00,9A,01,C8,00,
56041942,00000101,false,Rx,0,8,00,FF,FE,00,00,00,00,00,
56042206,00000102,false,Rx,0,8,01,90,01,00,00,01,00,00,
56141686,00000100,false,Rx,0,8,00,00,00,00,9A,01,C8,00,
56141940,00000101,false,Rx,0,8,00,FF,FE,00,00,00,00,00,
56142187,00000102,false,Rx,0,8,01,90,01,00,00,01,00,00,
56241684,00000100,false,Rx,0,8,00,00,00,00,9A,01,C8,00,
56241937,00000101,false,Rx,0,8,00,FF,FE,00,00,00,00,00,
56242184,00000102,false,Rx,0,8,01,90,01,00,00,01,00,00,
56318430,00000524,false,Rx,0,6,03,00,EA,FF,FF,FF,00,00,
56332574,00000525,false,Rx,0,6,04,07,66,00,00,00,00,00,
56341685,00000100,false,Rx,0,8,00,00,00,00,9A,01,C8,00,
56341938,00000101,false,Rx,0,8,00,FF,FE,00,00,00,00,00,
56342185,00000102,false,Rx,0,8,01,90,01,00,00,01,00,00,
56385093,00000528,false,Rx,0,6,07,0A,05,26,00,00,00,00,
56441681,00000100,false,Rx,0,8,00,00,00,00,9A,01,C8,00,
56441933,00000101,false,Rx,0,8,00,FF,FE,00,00,00,00,00,
56442180,00000102,false,Rx,0,8,01,90,01,00,00,01,00,00,
56495009,00000521,false,Rx,0,6,00,0B,FA,FF,FF,FF,00,00,
56522243,00000522,false,Rx,0,6,01,0A,46,AD,05,00,00,00,
56541678,00000100,false,Rx,0,8,00,00,00,00,9A,01,C8,00,
56541929,00000101,false,Rx,0,8,00,FF,FE,00,00,00,00,00,
56542177,00000102,false,Rx,0,8,01,90,01,00,00,01,00,00,
56595179,00000523,false,Rx,0,6,02,07,F2,FF,FF,FF,00,00,
56641680,00000100,false,Rx,0,8,00,00,00,00,9A,01,C8,00,
56641925,00000101,false,Rx,0,8,00,FF,FE,00,00,00,00,00,
56642180,00000102,false,Rx,0,8,01,90,01,00,00,01,00,00,
56673763,00000526,false,Rx,0,6,05,09,02,00,00,00,00,00,
56741679,00000100,false,Rx,0,8,00,00,00,00,9A,01,C8,00,
56741925,00000101,false,Rx,0,8,00,FF,FE,00,00,00,00,00,
56742172,00000102,false,Rx,0,8,01,90,01,00,00,01,00,00,
56756413,00000527,false,Rx,0,6,06,05,CB,73,01,00,00,00,
56841675,00000100,false,Rx,0,8,00,00,00,00,9A,01,C8,00,
56841921,00000101,false,Rx,0,8,00,FF,FE,00,00,00,00,00,
56842169,00000102,false,Rx,0,8,01,90,01,00,00,01,00,00,
56941668,00000100,false,Rx,0,8,00,00,00,00,9A,01,C8,00,
56941921,00000101,false,Rx,0,8,00,FF,FE,00,00,00,00,00,
56942169,00000102,false,Rx,0,8,01,90,01,00,00,01,00,00,
56986438,00000524,false,Rx,0,6,03,01,E5,FF,FF,FF,00,00,
57018748,00000525,false,Rx,0,6,04,08,66,00,00,00,00,00,
57041673,00000100,false,Rx,0,8,00,00,00,00,9A,01,C8,00,
57041921,00000101,false,Rx,0,8,00,FF,FE,00,00,00,00,00,
57042169,00000102,false,Rx,0,8,01,90,01,00,00,01,00,00,
57108512,00000521,false,Rx,0,6,00,0C,F8,FF,FF,FF,00,00,
57125740,00000528,false,Rx,0,6,07,0B,05,26,00,00,00,00,
57141667,00000100,false,Rx,0,8,00,00,00,00,9A,01,C8,00,
57141918,00000101,false,Rx,0,8,00,FF,FE,00,00,00,00,00,
57142173,00000102,false,Rx,0,8,01,90,01,00,00,01,00,00,
57153920,00000522,false,Rx,0,6,01,0B,4A,AD,05,00,00,00,
57241667,00000100,false,Rx,0,8,00,00,00,00,9A,01,C8,00,
57241919,00000101,false,Rx,0,8,00,FF,FE,00,00,00,00,00,
57242173,00000102,false,Rx,0,8,01,90,01,00,00,01,00,00,
57244735,00000523,false,Rx,0,6,02,08,E8,FF,FF,FF,00,00,
57341664,00000100,false,Rx,0,8,00,00,00,00,9A,01,C8,00,
57341910,00000101,false,Rx,0,8,00,FF,FE,00,00,00,00,00,
57342170,00000102,false,Rx,0,8,01,90,01,00,00,01,00,00,
57378271,00000526,false,Rx,0,6,05,0A,02,00,00,00,00,00,
57441664,00000100,false,Rx,0,8,00,00,00,00,9A,01,C8,00,
57441910,00000101,false,Rx,0,8,00,FF,FE,00,00,00,00,00,
57442168,00000102,false,Rx,0,8,01,90,01,00,00,01,00,00,
57479125,00000527,false,Rx,0,6,06,06,CB,73,01,00,00,00,
57541660,00000100,false,Rx,0,8,00,00,00,00,9A,01,C8,00,
57541906,00000101,false,Rx,0,8,00,FF,FE,00,00,00,00,00,
57542154,00000102,false,Rx,0,8,01,90,01,00,00,01,00,00,
57641664,00000100,false,Rx,0,8,00,00,00,00,9A,01,C8,00,
57641910,00000101,false,Rx,0,8,00,FF,FE,00,00,00,00,00,
57642152,00000102,false,Rx,0,8,01,90,01,00,00,01,00,00,
57654436,00000524,false,Rx,0,6,03,02,E7,FF,FF,FF,00,00,
57704888,00000525,false,Rx,0,6,04,09,66,00,00,00,00,00,
57722021,00000521,false,Rx,0,6,00,0D,F7,FF,FF,FF,00,00,
57741655,00000100,false,Rx,0,8,00,00,00,00,9A,01,C8,00,
57741906,00000101,false,Rx,0,8,00,FF,FE,00,00,00,00,00,
57742156,00000102,false,Rx,0,8,01,90,01,00,00,01,00,00,
57785584,00000522,false,Rx,0,6,01,0C,39,AD,05,00,00,00,
57841653,00000100,false,Rx,0,8,00,00,00,00,9A,01,C8,00,
57841905,00000101,false,Rx,0,8,00,FF,FE,00,00,00,00,00,
57842156,00000102,false,Rx,0,8,01,90,01,00,00,01,00,00,
57866670,00000528,false,Rx,0,6,07,0C,05,26,00,00,00,00,
57894579,00000523,false,Rx,0,6,02,09,F4,FF,FF,FF,00,00,
57941648,00000100,false,Rx,0,8,00,00,00,00,9A,01,C8,00,
57941900,00000101,false,Rx,0,8,00,FF,FE,00,00,00,00,00,
57942153,00000102,false,Rx,0,8,01,90,01,00,00,01,00,00,
58041649,00000100,false,Rx,0,8,00,00,00,00,9A,01,C8,00,
58041901,00000101,false,Rx,0,8,00,FF,FE,00,00,00,00,00,
58042154,00000102,false,Rx,0,8,01,90,01,00,00,01,00,00,
58082591,00000526,false,Rx,0,6,05,0B,08,00,00,00,00,00,
58141648,00000100,false,Rx,0,8,00,00,00,00,9A,01,C8,00,
58141894,00000101,false,Rx,0,8,00,FF,FE,00,00,00,00,00,
58142154,00000102,false,Rx,0,8,01,90,01,00,00,01,00,00,
58201721,00000527,false,Rx,0,6,06,07,CB,73,01,00,00,00,
58241644,00000100,false,Rx,0,8,00,00,00,00,9A,01,C8,00,
58241897,00000101,false,Rx,0,8,00,FF,FE,00,00,00,00,00,
58242151,00000102,false,Rx,0,8,01,90,01,00,00,01,00,00,
58322921,00000524,false,Rx,0,6,03,03,00,00,00,00,00,00,
58335543,00000521,false,Rx,0,6,00,0E,F9,FF,FF,FF,00,00,
58341643,00000100,false,Rx,0,8,00,00,00,00,9A,01,C8,00,
58341889,00000101,false,Rx,0,8,00,FF,FE,00,00,00,00,00,
58342149,00000102,false,Rx,0,8,01,90,01,00,00,01,00,00,
58391063,00000525,false,Rx,0,6,04,0A,66,00,00,00,00,00,
58417268,00000522,false,Rx,0,6,01,0D,52,AD,05,00,00,00,
58441641,00000100,false,Rx,0,8,00,00,00,00,9A,01,C8,00,
58441894,00000101,false,Rx,0,8,00,FF,FE,00,00,00,00,00,
58442148,00000102,false,Rx,0,8,01,90,01,00,00,01,00,00,
58541639,00000100,false,Rx,0,8,00,00,00,00,9A,01,C8,00,
58541891,00000101,false,Rx,0,8,00,FF,FE,00,00,00,00,00,
58542145,00000102,false,Rx,0,8,01,90,01,00,00,01,00,00,
58544417,00000523,false,Rx,0,6,02,0A,F4,FF,FF,FF,00,00,
58607121,00000528,false,Rx,0,6,07,0D,05,26,00,00,00,00,
58641632,00000100,false,Rx,0,8,00,00,00,00,9A,01,C8,00,
58641887,00000101,false,Rx,0,8,00,FF,FE,00,00,00,00,00,
58642133,00000102,false,Rx,0,8,01,90,01,00,00,01,00,00,
58741633,00000100,false,Rx,0,8,00,00,00,00,9A,01,C8,00,
58741885,00000101,false,Rx,0,8,00,FF,FE,00,00,00,00,00,
58742132,00000102,false,Rx,0,8,01,90,01,00,00,01,00,00,
58786897,00000526,false,Rx,0,6,05,0C,06,00,00,00,00,00,
58841629,00000100,false,Rx,0,8,00,00,00,00,9A,01,C8,00,
58841882,00000101,false,Rx,0,8,00,FF,FE,00,00,00,00,00,
58842128,00000102,false,Rx,0,8,01,90,01,00,00,01,00,00,
58924129,00000527,false,Rx,0,6,06,08,CB,73,01,00,00,00,
58941631,00000100,false,Rx,0,8,00,00,00,00,9A,01,C8,00,
58941880,00000101,false,Rx,0,8,00,FF,FE,00,00,00,00,00,
58942127,00000102,false,Rx,0,8,01,90,01,00,00,01,00,00,
58949036,00000521,false,Rx,0,6,00,0F,F6,FF,FF,FF,00,00,
58990443,00000524,false,Rx,0,6,03,04,F4,FF,FF,FF,00,00,
59041630,00000100,false,Rx,0,8,00,00,00,00,9A,01,C8,00,
59041876,00000101,false,Rx,0,8,00,FF,FE,00,00,00,00,00,
59042129,00000102,false,Rx,0,8,01,90,01,00,00,01,00,00,
