Time Stamp,ID,Extended,Dir,Bus,LEN,D1,D2,D3,D4,D5,D6,D7,D8
21079019,000001D6,false,Rx,1,7,00,30,A8,57,57,0F,D3,00,
21103829,000001D6,false,Rx,1,7,00,30,A8,57,57,0F,DB,00,
21129011,000001D6,false,Rx,1,7,00,30,A8,57,57,0F,E0,00,
21153821,000001D6,false,Rx,1,7,00,30,A8,57,57,0F,EC,00,
88994,000001D6,false,Rx,1,7,00,30,A8,57,57,0F,F0,00,
113815,000001D6,false,Rx,1,7,00,30,A8,57,57,0F,FB,00,
138989,000001D6,false,Rx,1,7,00,30,A8,57,57,0F,02,00,
163811,000001D6,false,Rx,1,7,00,30,A8,57,57,0F,0A,00,
188986,000001D6,false,Rx,1,7,00,30,A8,57,57,0F,10,00,
213804,000001D6,false,Rx,1,7,00,30,A8,57,57,0F,1A,00,
214038,00000495,false,Rx,1,8,10,00,00,41,01,72,33,8E,
238981,000001D6,false,Rx,1,7,00,30,A8,57,57,0F,22,00,
263795,000001D6,false,Rx,1,7,00,30,A8,57,57,0F,2A,00,
288971,000001D6,false,Rx,1,7,00,30,A8,57,57,0F,32,00,
313794,000001D6,false,Rx,1,7,00,30,A8,57,57,0F,38,00,
338964,000001D6,false,Rx,1,7,00,30,A8,57,57,0F,42,00,
363777,000001D6,false,Rx,1,7,00,30,A8,57,57,0F,4A,00,
388957,000001D6,false,Rx,1,7,00,30,A8,57,57,0F,52,00,
413769,000001D6,false,Rx,1,7,00,30,A8,57,57,0F,5A,00,
438943,000001D6,false,Rx,1,7,00,30,A8,57,57,0F,62,00,
463766,000001D6,false,Rx,1,7,00,30,A8,57,57,0F,6A,00,
488935,000001D6,false,Rx,1,7,00,30,A8,57,57,0F,72,00,
513754,000001D6,false,Rx,1,7,00,30,A8,57,57,0F,78,00,
538935,000001D6,false,Rx,1,7,00,30,A8,57,57,0F,82,00,
563762,000001D6,false,Rx,1,7,00,30,A8,57,57,0F,8B,00,
588929,000001D6,false,Rx,1,7,00,30,A8,57,57,0F,92,00,
613748,000001D6,false,Rx,1,7,00,30,A8,57,57,0F,9A,00,
638919,000001D6,false,Rx,1,7,00,30,A8,57,57,0F,A2,00,
663743,000001D6,false,Rx,1,7,00,30,A8,57,57,0F,AA,00,
688915,000001D6,false,Rx,1,7,00,30,A8,57,57,0F,B0,00,
713740,000001D6,false,Rx,1,7,00,30,A7,57,57,0F,BA,00,
738913,000001D6,false,Rx,1,7,00,30,A8,57,57,0F,C0,00,
763727,000001D6,false,Rx,1,7,00,30,A8,57,57,0F,C8,00,
788898,000001D6,false,Rx,1,7,00,30,A8,57,57,0F,D3,00,
813723,000001D6,false,Rx,1,7,00,30,A8,57,57,0F,DB,00,
838909,000001D6,false,Rx,1,7,00,30,A8,57,57,0F,E0,00,
863718,000001D6,false,Rx,1,7,00,30,A8,57,57,0F,EC,00,
888895,000001D6,false,Rx,1,7,00,30,A8,57,57,0F,F0,00,
913721,000001D6,false,Rx,1,7,00,30,A8,57,57,0F,FB,00,
938896,000001D6,false,Rx,1,7,00,30,A8,57,57,0F,02,00,
963705,000001D6,false,Rx,1,7,00,30,A8,57,57,0F,0A,00,
988883,000001D6,false,Rx,1,7,00,30,A8,57,57,0F,10,00,
1013694,000001D6,false,Rx,1,7,00,30,A8,57,57,0F,1A,00,
1038879,000001D6,false,Rx,1,7,00,30,A8,57,57,0F,22,00,
1063689,000001D6,false,Rx,1,7,00,30,A8,57,57,0F,2A,00,
1088865,000001D6,false,Rx,1,7,00,30,A8,57,57,0F,32,00,
1113679,000001D6,false,Rx,1,7,00,30,A8,57,57,0F,38,00,
1138860,000001D6,false,Rx,1,7,00,30,A8,57,57,0F,42,00,
1163679,000001D6,false,Rx,1,7,00,30,A8,57,57,0F,4A,00,
1188848,000001D6,false,Rx,1,7,00,30,A8,57,57,0F,52,00,
1213662,000001D6,false,Rx,1,7,00,30,A8,57,57,0F,5A,00,
1213896,00000495,false,Rx,1,8,11,00,01,46,01,72,33,8E,
1238843,000001D6,false,Rx,1,7,00,30,A8,57,57,0F,62,00,
1263664,000001D6,false,Rx,1,7,00,30,A8,57,57,0F,6A,00,
1288842,000001D6,false,Rx,1,7,00,30,A8,57,57,0F,72,00,
1313649,000001D6,false,Rx,1,7,00,30,A8,57,57,0F,78,00,
1338834,000001D6,false,Rx,1,7,00,30,A8,57,57,0F,82,00,
1363658,000001D6,false,Rx,1,7,00,30,A8,57,57,0F,8B,00,
1388818,000001D6,false,Rx,1,7,00,30,A8,57,57,0F,92,00,
1413650,000001D6,false,Rx,1,7,00,30,A8,57,57,0F,9A,00,
1438820,000001D6,false,Rx,1,7,00,30,A8,57,57,0F,A2,00,
1463638,000001D6,false,Rx,1,7,00,30,A8,57,57,0F,AA,00,
1488805,000001D6,false,Rx,1,7,00,30,A8,57,57,0F,B0,00,
1513631,000001D6,false,Rx,1,7,00,30,A8,57,57,0F,BA,00,
1538807,000001D6,false,Rx,1,7,00,30,A8,57,57,0F,C0,00,
1563620,000001D6,false,Rx,1,7,00,30,A8,57,57,0F,C8,00,
1588784,000001D6,false,Rx,1,7,00,30,A8,57,57,0F,D3,00,
1613621,000001D6,false,Rx,1,7,00,30,A8,57,57,0F,DB,00,
1638796,000001D6,false,Rx,1,7,00,30,A8,57,57,0F,E0,00,
1663606,000001D6,false,Rx,1,7,00,30,A8,57,57,0F,EC,00,
1688781,000001D6,false,Rx,1,7,00,30,A8,57,57,0F,F0,00,
1713605,000001D6,false,Rx,1,7,00,30,A8,57,57,0F,FB,00,
1738781,000001D6,false,Rx,1,7,00,30,A8,57,57,0F,02,00,
1763592,000001D6,false,Rx,1,7,00,30,A8,57,57,0F,0A,00,
1788768,000001D6,false,Rx,1,7,00,30,A8,57,57,0F,10,00,
1813581,000001D6,false,Rx,1,7,00,30,A8,57,57,0F,1A,00,
1838763,000001D6,false,Rx,1,7,00,30,A8,57,57,0F,22,00,
1863575,000001D6,false,Rx,1,7,00,30,A8,57,57,0F,2A,00,
1888763,000001D6,false,Rx,1,7,00,30,A8,57,57,0F,32,00,
1913571,000001D6,false,Rx,1,7,00,30,A7,57,57,0F,38,00,
1938749,000001D6,false,Rx,1,7,00,30,A8,57,57,0F,42,00,
1963555,000001D6,false,Rx,1,7,00,30,A8,57,57,0F,4A,00,
1988747,000001D6,false,Rx,1,7,00,30,A8,57,57,0F,52,00,
2013557,000001D6,false,Rx,1,7,00,30,A8,57,57,0F,5A,00,
2038736,000001D6,false,Rx,1,7,00,30,A8,57,57,0F,62,00,
2063549,000001D6,false,Rx,1,7,00,30,A8,57,57,0F,6A,00,
2088731,000001D6,false,Rx,1,7,00,30,A8,57,57,0F,72,00,
2113550,000001D6,false,Rx,1,7,00,30,A8,57,57,0F,78,00,
2138728,000001D6,false,Rx,1,7,00,30,A8,57,57,0F,82,00,
2163538,000001D6,false,Rx,1,7,00,30,A8,57,57,0F,8B,00,
2188725,000001D6,false,Rx,1,7,00,30,A8,57,57,0F,92,00,
2213531,000001D6,false,Rx,1,7,00,30,A8,57,57,0F,9A,00,
2213765,00000495,false,Rx,1,8,12,00,02,31,01,72,33,8E,
2238722,000001D6,false,Rx,1,7,00,30,A7,57,57,0F,A2,00,
2263524,000001D6,false,Rx,1,7,00,30,A8,57,57,0F,AA,00,
2288698,000001D6,false,Rx,1,7,00,30,A8,57,57,0F,B0,00,
2313519,000001D6,false,Rx,1,7,00,30,A8,57,57,0F,BA,00,
2338691,000001D6,false,Rx,1,7,00,30,A8,57,57,0F,C0,00,
2363517,000001D6,false,Rx,1,7,00,30,A8,57,57,0F,C8,00,
2388693,000001D6,false,Rx,1,7,00,30,A8,57,57,0F,D3,00,
2413504,000001D6,false,Rx,1,7,00,30,A8,57,57,0F,DB,00,
2438692,000001D6,false,Rx,1,7,00,30,A8,57,57,0F,E0,00,
2463496,000001D6,false,Rx,1,7,00,30,A8,57,57,0F,EC,00,
2488681,000001D6,false,Rx,1,7,00,30,A8,57,57,0F,F0,00,
2513500,000001D6,false,Rx,1,7,00,30,A8,57,57,0F,FB,00,
2538674,000001D6,false,Rx,1,7,00,30,A8,57,57,0F,02,00,
2563489,000001D6,false,Rx,1,7,00,30,A8,57,57,0F,0A,00,
2588667,000001D6,false,Rx,1,7,00,30,A8,57,57,0F,10,00,
2613480,000001D6,false,Rx,1,7,00,30,A8,57,57,0F,1A,00,
2638642,000001D6,false,Rx,1,7,00,30,A8,57,57,0F,22,00,
2663471,000001D6,false,Rx,1,7,00,30,A8,57,57,0F,2A,00,
2688641,000001D6,false,Rx,1,7,00,30,A8,57,57,0F,32,00,
2713468,000001D6,false,Rx,1,7,00,30,A8,57,57,0F,38,00,
2738640,000001D6,false,Rx,1,7,00,30,A8,57,57,0F,42,00,
2763450,000001D6,false,Rx,1,7,00,30,A8,57,57,0F,4A,00,
2788627,000001D6,false,Rx,1,7,00,30,A8,57,57,0F,52,00,
2813456,000001D6,false,Rx,1,7,00,30,A8,57,57,0F,5A,00,
2838625,000001D6,false,Rx,1,7,00,30,A8,57,57,0F,62,00,
2863439,000001D6,false,Rx,1,7,00,30,A8,57,57,0F,6A,00,
2888610,000001D6,false,Rx,1,7,00,30,A8,57,57,0F,72,00,
2913430,000001D6,false,Rx,1,7,00,30,A8,57,57,0F,78,00,
2938616,000001D6,false,Rx,1,7,00,30,A8,57,57,0F,82,00,
2963430,000001D6,false,Rx,1,7,00,30,A8,57,57,0F,8B,00,
2988606,000001D6,false,Rx,1,7,00,30,A8,57,57,0F,92,00,
3013425,000001D6,false,Rx,1,7,00,30,A8,57,57,0F,9A,00,
3038599,000001D6,false,Rx,1,7,00,30,A8,57,57,0F,A2,00,
3063409,000001D6,false,Rx,1,7,00,30,A8,57,57,0F,AA,00,
3088587,000001D6,false,Rx,1,7,00,30,A8,57,57,0F,B0,00,
3113411,000001D6,false,Rx,1,7,00,30,A8,57,57,0F,BA,00,
3138578,000001D6,false,Rx,1,7,00,30,A8,57,57,0F,C0,00,
3163418,000001D6,false,Rx,1,7,00,30,A8,57,57,0F,C8,00,
3188579,000001D6,false,Rx,1,7,00,30,A8,57,57,0F,D3,00,
3213396,000001D6,false,Rx,1,7,00,30,A8,57,57,0F,DB,00,
3213623,00000495,false,Rx,1,8,13,00,03,35,01,72,33,8E,
3238575,000001D6,false,Rx,1,7,00,30,A8,57,57,0F,E0,00,
3263388,000001D6,false,Rx,1,7,00,30,A8,57,57,0F,EC,00,
3288566,000001D6,false,Rx,1,7,00,30,A8,57,57,0F,F0,00,
3313383,000001D6,false,Rx,1,7,00,30,A8,57,57,0F,FB,00,
3338561,000001D6,false,Rx,1,7,00,30,A8,57,57,0F,02,00,
3363373,000001D6,false,Rx,1,7,00,30,A8,57,57,0F,0A,00,
3388550,000001D6,false,Rx,1,7,00,30,A8,57,57,0F,10,00,
3413365,000001D6,false,Rx,1,7,00,30,A8,57,57,0F,1A,00,
3438536,000001D6,false,Rx,1,7,00,30,A8,57,57,0F,22,00,
3463357,000001D6,false,Rx,1,7,00,30,A8,57,57,0F,2A,00,
3488529,000001D6,false,Rx,1,7,00,30,A8,57,57,0F,32,00,
3513346,000001D6,false,Rx,1,7,00,30,A8,57,57,0F,38,00,
3538537,000001D6,false,Rx,1,7,00,30,A8,57,57,0F,42,00,
3563350,000001D6,false,Rx,1,7,00,30,A8,57,57,0F,4A,00,
3588524,000001D6,false,Rx,1,7,00,30,A8,57,57,0F,52,00,
3613334,000001D6,false,Rx,1,7,00,30,A8,57,57,0F,5A,00,
3638514,000001D6,false,Rx,1,7,00,30,A8,57,57,0F,62,00,
3663328,000001D6,false,Rx,1,7,00,30,A8,57,57,0F,6A,00,
3688504,000001D6,false,Rx,1,7,00,30,A8,57,57,0F,72,00,
3713319,000001D6,false,Rx,1,7,00,30,A8,57,57,0F,78,00,
3738505,000001D6,false,Rx,1,7,00,30,A8,57,57,0F,82,00,
3763318,000001D6,false,Rx,1,7,00,30,A8,57,57,0F,8B,00,
3788494,000001D6,false,Rx,1,7,00,30,A8,57,57,0F,92,00,
3813315,000001D6,false,Rx,1,7,00,30,A8,57,57,0F,9A,00,
3838492,000001D6,false,Rx,1,7,00,30,A8,57,57,0F,A2,00,
3863314,000001D6,false,Rx,1,7,00,30,A8,57,57,0F,AA,00,
3888493,000001D6,false,Rx,1,7,00,30,A8,57,57,0F,B0,00,
3913306,000001D6,false,Rx,1,7,00,30,A8,57,57,0F,BA,00,
3938486,000001D6,false,Rx,1,7,00,30,A8,57,57,0F,C0,00,
3963296,000001D6,false,Rx,1,7,00,30,A8,57,57,0F,C8,00,
3988469,000001D6,false,Rx,1,7,00,30,A8,57,57,0F,D3,00,
4013284,000001D6,false,Rx,1,7,00,30,A8,57,57,0F,DB,00,
4038459,000001D6,false,Rx,1,7,00,30,A8,57,57,0F,E0,00,
4063277,000001D6,false,Rx,1,7,00,30,A8,57,57,0F,EC,00,
4088451,000001D6,false,Rx,1,7,00,30,A8,57,57,0F,F0,00,
4113277,000001D6,false,Rx,1,7,00,30,A8,57,57,0F,FB,00,
4138453,000001D6,false,Rx,1,7,00,30,A8,57,57,0F,02,00,
4163266,000001D6,false,Rx,1,7,00,30,A8,57,57,0F,0A,00,
4188444,000001D6,false,Rx,1,7,00,30,A8,57,57,0F,10,00,
4213262,000001D6,false,Rx,1,7,00,30,A8,57,57,0F,1A,00,
4213498,00000495,false,Rx,1,8,14,00,04,31,01,72,33,8E,
4238440,000001D6,false,Rx,1,7,00,30,A8,57,57,0F,22,00,
4263252,000001D6,false,Rx,1,7,00,30,A8,57,57,0F,2A,00,
4288434,000001D6,false,Rx,1,7,00,30,A8,57,57,0F,32,00,
4313233,000001D6,false,Rx,1,7,00,30,A8,57,57,0F,38,00,
4338413,000001D6,false,Rx,1,7,00,30,A8,57,57,0F,42,00,
4363245,000001D6,false,Rx,1,7,00,30,A8,57,57,0F,4A,00,
4388408,000001D6,false,Rx,1,7,00,30,A8,57,57,0F,52,00,
4413232,000001D6,false,Rx,1,7,00,30,A8,57,57,0F,5A,00,
4438401,000001D6,false,Rx,1,7,00,30,A8,57,57,0F,62,00,
4463217,000001D6,false,Rx,1,7,00,30,A8,57,57,0F,6A,00,
4488403,000001D6,false,Rx,1,7,00,30,A8,57,57,0F,72,00,
4513218,000001D6,false,Rx,1,7,00,30,A8,57,57,0F,78,00,
4538407,000001D6,false,Rx,1,7,00,30,A8,57,57,0F,82,00,
4563217,000001D6,false,Rx,1,7,00,30,A8,57,57,0F,8B,00,
4588399,000001D6,false,Rx,1,7,00,30,A8,57,57,0F,92,00,
4613211,000001D6,false,Rx,1,7,00,30,A8,57,57,0F,9A,00,
4638375,000001D6,false,Rx,1,7,00,30,A8,57,57,0F,A2,00,
4663205,000001D6,false,Rx,1,7,00,30,A8,57,57,0F,AA,00,
4688370,000001D6,false,Rx,1,7,00,30,A8,57,57,0F,B0,00,
4713200,000001D6,false,Rx,1,7,00,30,A8,57,57,0F,BA,00,
4738374,000001D6,false,Rx,1,7,00,30,A8,57,57,0F,C0,00,
4763181,000001D6,false,Rx,1,7,00,30,A8,57,57,0F,C8,00,
4788367,000001D6,false,Rx,1,7,00,30,A8,57,57,0F,D3,00,
4813191,000001D6,false,Rx,1,7,00,30,A8,57,57,0F,DB,00,
4838359,000001D6,false,Rx,1,7,00,30,A8,57,57,0F,E0,00,
4863180,000001D6,false,Rx,1,7,00,30,A8,57,57,0F,EC,00,
4888351,000001D6,false,Rx,1,7,00,30,A8,57,57,0F,F0,00,
4913183,000001D6,false,Rx,1,7,00,30,A8,57,57,0F,FB,00,
4938343,000001D6,false,Rx,1,7,00,30,A8,57,57,0F,02,00,
4963166,000001D6,false,Rx,1,7,00,30,A8,57,57,0F,0A,00,
4988334,000001D6,false,Rx,1,7,00,30,A8,57,57,0F,10,00,
5013146,000001D6,false,Rx,1,7,00,30,A8,57,57,0F,1A,00,
5038319,000001D6,false,Rx,1,7,00,30,A8,57,57,0F,22,00,
5063141,000001D6,false,Rx,1,7,00,30,A8,57,57,0F,2A,00,
5088315,000001D6,false,Rx,1,7,00,30,A8,57,57,0F,32,00,
5113146,000001D6,false,Rx,1,7,00,30,A8,57,57,0F,38,00,
5138313,000001D6,false,Rx,1,7,00,30,A8,57,57,0F,42,00,
5163132,000001D6,false,Rx,1,7,00,30,A8,57,57,0F,4A,00,
5188309,000001D6,false,Rx,1,7,00,30,A8,57,57,0F,52,00,
5213121,000001D6,false,Rx,1,7,00,30,A8,57,57,0F,5A,00,
5213355,00000495,false,Rx,1,8,15,00,05,38,01,72,33,8E,
5238304,000001D6,false,Rx,1,7,00,30,A8,57,57,0F,62,00,
5263115,000001D6,false,Rx,1,7,00,30,A8,57,57,0F,6A,00,
5288301,000001D6,false,Rx,1,7,00,30,A8,57,57,0F,72,00,
5313110,000001D6,false,Rx,1,7,00,30,A8,57,57,0F,78,00,
5338293,000001D6,false,Rx,1,7,00,30,A8,57,57,0F,82,00,
5363105,000001D6,false,Rx,1,7,00,30,A8,57,57,0F,8B,00,
5388273,000001D6,false,Rx,1,7,00,30,A8,57,57,0F,92,00,
5413094,000001D6,false,Rx,1,7,00,30,A8,57,57,0F,9A,00,
5438273,000001D6,false,Rx,1,7,00,30,A8,57,57,0F,A2,00,
5463091,000001D6,false,Rx,1,7,00,30,A8,57,57,0F,AA,00,
5488264,000001D6,false,Rx,1,7,00,30,A8,57,57,0F,B0,00,
5513079,000001D6,false,Rx,1,7,00,30,A8,57,57,0F,BA,00,
5538260,000001D6,false,Rx,1,7,00,30,A8,57,57,0F,C0,00,
5563074,000001D6,false,Rx,1,7,00,30,A8,57,57,0F,C8,00,
5588253,000001D6,false,Rx,1,7,00,30,A8,57,57,0F,D3,00,
5613066,000001D6,false,Rx,1,7,00,30,A8,57,57,0F,DB,00,
5638251,000001D6,false,Rx,1,7,00,30,A8,57,57,0F,E0,00,
5663066,000001D6,false,Rx,1,7,00,30,A8,57,57,0F,EC,00,
5688243,000001D6,false,Rx,1,7,00,30,A8,57,57,0F,F0,00,
5713053,000001D6,false,Rx,1,7,00,30,A8,57,57,0F,FB,00,
5738240,000001D6,false,Rx,1,7,00,30,A8,57,57,0F,02,00,
5763054,000001D6,false,Rx,1,7,00,30,A8,57,57,0F,0A,00,
5788223,000001D6,false,Rx,1,7,00,30,A8,57,57,0F,10,00,
5813038,000001D6,false,Rx,1,7,00,30,A8,57,57,0F,1A,00,
5838218,000001D6,false,Rx,1,7,00,30,A8,57,57,0F,22,00,
5863028,000001D6,false,Rx,1,7,00,30,A8,57,57,0F,2A,00,
5888214,000001D6,false,Rx,1,7,00,30,A8,57,57,0F,32,00,
5913024,000001D6,false,Rx,1,7,00,30,A8,57,57,0F,38,00,
5938203,000001D6,false,Rx,1,7,00,30,A8,57,57,0F,42,00,
5963026,000001D6,false,Rx,1,7,00,30,A8,57,57,0F,4A,00,
5988205,000001D6,false,Rx,1,7,00,30,A8,57,57,0F,52,00,
6013015,000001D6,false,Rx,1,7,00,30,A8,57,57,0F,5A,00,
6038192,000001D6,false,Rx,1,7,00,30,A8,57,57,0F,62,00,
6063003,000001D6,false,Rx,1,7,00,30,A8,57,57,0F,6A,00,
6088181,000001D6,false,Rx,1,7,00,30,A8,57,57,0F,72,00,
6112997,000001D6,false,Rx,1,7,00,30,A8,57,57,0F,78,00,
6138178,000001D6,false,Rx,1,7,00,30,A8,57,57,0F,82,00,
6163000,000001D6,false,Rx,1,7,00,30,A8,57,57,0F,8B,00,
6188166,000001D6,false,Rx,1,7,00,30,A8,57,57,0F,92,00,
6212991,000001D6,false,Rx,1,7,00,30,A8,57,57,0F,9A,00,
6213225,00000495,false,Rx,1,8,16,00,06,41,01,72,33,8E,
6238183,000001D6,false,Rx,1,7,00,30,A8,57,57,0F,A2,00,
6262993,000001D6,false,Rx,1,7,00,30,AB,57,57,0F,AA,00,
6288161,000001D6,false,Rx,1,7,00,30,AE,57,57,0F,B0,00,
6312990,000001D6,false,Rx,1,7,00,30,B1,57,57,0E,BA,00,
29069161,000001C2,false,Rx,1,1,50,00,00,00,00,00,00,00,
29079248,000001C2,false,Rx,1,1,51,00,00,00,00,00,00,00,
29089277,000001C2,false,Rx,1,1,52,00,00,00,00,00,00,00,
29097683,000001DB,false,Rx,1,8,7F,E0,FF,C6,00,00,00,DE,
29097926,000001DC,false,Rx,1,8,FF,FF,FF,FF,1F,FF,FC,6B,
29099297,000001C2,false,Rx,1,1,53,00,00,00,00,00,00,00,
29107814,000001DB,false,Rx,1,8,00,00,FF,C6,00,00,01,91,
29108056,000001DC,false,Rx,1,8,FF,FF,FF,FF,01,21,0D,30,
29108315,18CC07BB,true,Rx,1,7,18,CC,07,BB,D0,00,00,00,
29109320,000001C2,false,Rx,1,1,54,00,00,00,00,00,00,00,
29117816,000001DB,false,Rx,1,8,00,00,FF,C6,00,00,02,9B,
29118051,000001DC,false,Rx,1,8,FF,FF,FF,FF,05,34,C6,62,
29119346,000001C2,false,Rx,1,1,55,00,00,00,00,00,00,00,
29127884,000001DB,false,Rx,1,8,00,00,FF,C6,00,00,03,1E,
29128126,000001DC,false,Rx,1,8,FF,FF,FF,FF,08,C0,CF,3B,
29129369,000001C2,false,Rx,1,1,56,00,00,00,00,00,00,00,
29137870,000001DB,false,Rx,1,8,00,00,FF,C6,00,00,00,14,
29138112,000001DC,false,Rx,1,8,FF,FF,FF,FF,0C,C4,D0,CF,
29139392,000001C2,false,Rx,1,1,57,00,00,00,00,00,00,00,
29147962,000001DB,false,Rx,1,8,00,00,AA,C6,00,00,01,2F,
29148204,000001DC,false,Rx,1,8,FF,FF,FF,FF,01,21,0D,30,
29149417,000001C2,false,Rx,1,1,58,00,00,00,00,00,00,00,
29157916,000001DB,false,Rx,1,8,00,00,AA,C6,00,00,02,25,
29158159,000001DC,false,Rx,1,8,FF,FF,FF,FF,05,34,C6,62,
29159440,000001C2,false,Rx,1,1,59,00,00,00,00,00,00,00,
29168032,000001DB,false,Rx,1,8,00,00,AA,C6,00,00,03,A0,
29168274,000001DC,false,Rx,1,8,FF,FF,FF,FF,08,C0,CF,3B,
29169456,000001C2,false,Rx,1,1,5A,00,00,00,00,00,00,00,
29177979,000001DB,false,Rx,1,8,00,00,AA,C6,00,00,00,AA,
29178214,000001DC,false,Rx,1,8,FF,FF,FF,FF,0C,C4,D0,CF,
29179479,000001C2,false,Rx,1,1,5B,00,00,00,00,00,00,00,
29188125,000001DB,false,Rx,1,8,00,00,AA,C6,00,00,01,2F,
29188368,000001DC,false,Rx,1,8,FF,FF,FF,FF,01,21,0D,30,
29188606,0000055B,false,Rx,1,8,40,00,00,00,FF,C0,10,5C,
29188849,000005BC,false,Rx,1,8,FF,C0,FF,FF,BA,00,1F,FF,
29189506,000001C2,false,Rx,1,1,5C,00,00,00,00,00,00,00,
29198030,000001DB,false,Rx,1,8,00,00,AA,C2,00,00,02,7D,
29198265,000001DC,false,Rx,1,8,7D,11,8F,FD,05,34,C6,32,
29199531,000001C2,false,Rx,1,1,5D,00,00,00,00,00,00,00,
29208106,000001DB,false,Rx,1,8,00,00,AA,C2,00,00,03,F8,
29208341,000001DC,false,Rx,1,8,7D,11,8F,FD,08,C0,CF,6B,
29209553,000001C2,false,Rx,1,1,5E,00,00,00,00,00,00,00,
29218090,000001DB,false,Rx,1,8,00,00,AA,C2,00,00,00,F2,
29218325,000001DC,false,Rx,1,8,7D,11,8F,FD,0C,C4,D0,9F,
29219577,000001C2,false,Rx,1,1,5F,00,00,00,00,00,00,00,
29228199,000001DB,false,Rx,1,8,00,00,AA,E2,00,00,01,38,
29228436,000001DC,false,Rx,1,8,7D,11,8F,FD,01,21,0D,60,
29229601,000001C2,false,Rx,1,1,50,00,00,00,00,00,00,00,
29238146,000001DB,false,Rx,1,8,00,00,AA,E2,00,00,02,32,
29238374,000001DC,false,Rx,1,8,7D,11,8F,FD,05,34,C6,32,
29239738,000001C2,false,Rx,1,1,51,00,00,00,00,00,00,00,
29248201,000001DB,false,Rx,1,8,00,00,AA,E2,00,00,03,B7,
29248438,000001DC,false,Rx,1,8,7D,11,8F,FD,08,C0,CF,6B,
29249650,000001C2,false,Rx,1,1,52,00,00,00,00,00,00,00,
29258197,000001DB,false,Rx,1,8,00,00,AA,E2,00,00,00,BD,
29258434,000001DC,false,Rx,1,8,7D,11,8F,FD,0C,C4,D0,9F,
29259789,000001C2,false,Rx,1,1,53,00,00,00,00,00,00,00,
29268259,000001DB,false,Rx,1,8,00,00,AA,E2,00,00,01,38,
29268488,000001DC,false,Rx,1,8,7D,11,8F,FD,01,21,0D,60,
29269699,000001C2,false,Rx,1,1,54,00,00,00,00,00,00,00,
29278251,000001DB,false,Rx,1,8,00,00,AA,E2,00,00,02,32,
29278488,000001DC,false,Rx,1,8,7D,11,8F,FD,05,34,C6,32,
29279744,000001C2,false,Rx,1,1,55,00,00,00,00,00,00,00,
29288409,000001DB,false,Rx,1,8,00,00,AA,E2,00,00,03,B7,
29288644,000001DC,false,Rx,1,8,7D,11,8F,FD,08,C0,CF,6B,
29288887,0000055B,false,Rx,1,8,40,00,00,00,FF,C0,11,D9,
29289116,000005BC,false,Rx,1,8,7D,00,F0,8C,BB,10,20,00,
29289741,000001C2,false,Rx,1,1,56,00,00,00,00,00,00,00,
29298306,000001DB,false,Rx,1,8,00,00,AA,E2,00,00,00,BD,
29298542,000001DC,false,Rx,1,8,7D,11,8F,FD,0C,C4,D0,9F,
29299783,000001C2,false,Rx,1,1,57,00,00,00,00,00,00,00,
29308367,000001DB,false,Rx,1,8,00,00,AA,E2,00,00,01,38,
29308603,000001DC,false,Rx,1,8,7D,11,8F,FD,01,21,0D,60,
29309792,000001C2,false,Rx,1,1,58,00,00,00,00,00,00,00,
29318369,000001DB,false,Rx,1,8,00,00,AA,E2,00,00,02,32,
29318597,000001DC,false,Rx,1,8,7D,11,8F,FD,05,34,C6,32,
29319816,000001C2,false,Rx,1,1,59,00,00,00,00,00,00,00,
29328442,000001DB,false,Rx,1,8,00,00,AA,E2,00,00,03,B7,
29328669,000001DC,false,Rx,1,8,7D,11,8F,FD,08,C0,CF,6B,
29329835,000001C2,false,Rx,1,1,5A,00,00,00,00,00,00,00,
29338418,000001DB,false,Rx,1,8,00,00,AA,E2,00,00,00,BD,
29338653,000001DC,false,Rx,1,8,7D,11,8F,FD,0C,C4,D0,9F,
29339857,000001C2,false,Rx,1,1,5B,00,00,00,00,00,00,00,
29348509,000001DB,false,Rx,1,8,00,00,AA,E2,00,00,01,38,
29348744,000001DC,false,Rx,1,8,7D,11,8F,FD,01,21,0D,60,
29349879,000001C2,false,Rx,1,1,5C,00,00,00,00,00,00,00,
29358478,000001DB,false,Rx,1,8,00,00,AA,EA,00,00,02,82,
29358713,000001DC,false,Rx,1,8,7D,11,8F,FD,05,34,C6,32,
29359902,000001C2,false,Rx,1,1,5D,00,00,00,00,00,00,00,
29368555,000001DB,false,Rx,1,8,00,00,AA,EA,00,00,03,07,
29368782,000001DC,false,Rx,1,8,7D,11,8F,FD,08,C0,CF,6B,
29369933,000001C2,false,Rx,1,1,5E,00,00,00,00,00,00,00,
29378532,000001DB,false,Rx,1,8,00,00,AA,EA,00,00,00,0D,
29378766,000001DC,false,Rx,1,8,7D,11,8F,FD,0C,C4,D0,9F,
29379948,000001C2,false,Rx,1,1,5F,00,00,00,00,00,00,00,
29388708,000001DB,false,Rx,1,8,00,00,AA,EA,00,00,01,88,
29388944,000001DC,false,Rx,1,8,7D,11,8F,FD,01,21,0D,60,
29389187,0000055B,false,Rx,1,8,40,00,00,00,FF,C0,12,D3,
29389424,000005BC,false,Rx,1,8,14,00,F0,8C,BB,00,40,12,
29389973,000001C2,false,Rx,1,1,50,00,00,00,00,00,00,00,
29398592,000001DB,false,Rx,1,8,00,00,AA,EA,00,00,02,82,
29398827,000001DC,false,Rx,1,8,7D,11,8F,FD,05,34,C6,32,
29399993,000001C2,false,Rx,1,1,51,00,00,00,00,00,00,00,
29408670,000001DB,false,Rx,1,8,00,00,AA,EA,00,00,03,07,
29408906,000001DC,false,Rx,1,8,7D,11,8F,FD,08,C0,CF,6B,
29410019,000001C2,false,Rx,1,1,52,00,00,00,00,00,00,00,
29418641,000001DB,false,Rx,1,8,00,00,AA,EA,00,00,00,0D,
29418877,000001DC,false,Rx,1,8,7D,11,8F,FD,0C,C4,D0,9F,
29420035,000001C2,false,Rx,1,1,53,00,00,00,00,00,00,00,
29428772,000001DB,false,Rx,1,8,00,00,AA,EA,00,00,01,88,
29429008,000001DC,false,Rx,1,8,7D,11,8F,FD,01,21,0D,60,
29430059,000001C2,false,Rx,1,1,54,00,00,00,00,00,00,00,
29438698,000001DB,false,Rx,1,8,00,00,AA,EA,00,00,02,82,
29438934,000001DC,false,Rx,1,8,7D,11,8F,FD,05,34,C6,32,
29440091,000001C2,false,Rx,1,1,55,00,00,00,00,00,00,00,
29448790,000001DB,false,Rx,1,8,00,00,AA,EA,00,00,03,07,
29449026,000001DC,false,Rx,1,8,7D,11,8F,FD,08,C0,CF,6B,
29450107,000001C2,false,Rx,1,1,56,00,00,00,00,00,00,00,
29458751,000001DB,false,Rx,1,8,00,00,AA,EA,00,00,00,0D,
29458987,000001DC,false,Rx,1,8,7D,11,8F,FD,0C,C4,D0,9F,
29460137,000001C2,false,Rx,1,1,57,00,00,00,00,00,00,00,
29468790,000001DB,false,Rx,1,8,00,00,AA,EA,00,00,01,88,
29469025,000001DC,false,Rx,1,8,7D,11,8F,FD,01,21,0D,60,
29470160,000001C2,false,Rx,1,1,58,00,00,00,00,00,00,00,
29478814,000001DB,false,Rx,1,8,00,00,AA,EA,00,00,02,82,
29479049,000001DC,false,Rx,1,8,7D,11,8F,FD,05,34,C6,32,
29480176,000001C2,false,Rx,1,1,59,00,00,00,00,00,00,00,
29488998,000001DB,false,Rx,1,8,00,00,AA,EA,00,00,03,07,
29489232,000001DC,false,Rx,1,8,7D,11,8F,FD,08,C0,CF,6B,
29489470,0000055B,false,Rx,1,8,40,00,00,00,FF,C0,13,56,
29489707,000005BC,false,Rx,1,8,7D,00,F0,8C,BB,10,60,1F,
29490209,000001C2,false,Rx,1,1,5A,00,00,00,00,00,00,00,
29498868,000001DB,false,Rx,1,8,00,00,AA,EA,00,00,00,0D,
29499095,000001DC,false,Rx,1,8,7D,11,8F,FD,0C,C4,D0,9F,
29500222,000001C2,false,Rx,1,1,5B,00,00,00,00,00,00,00,
29508989,000001DB,false,Rx,1,8,00,00,AA,EA,00,00,01,88,
29509224,000001DC,false,Rx,1,8,7D,11,8F,FD,01,21,0D,60,
29510246,000001C2,false,Rx,1,1,5C,00,00,00,00,00,00,00,
29518920,000001DB,false,Rx,1,8,00,00,AA,EA,00,00,02,82,
29519154,000001DC,false,Rx,1,8,7D,11,8F,FD,05,34,C6,32,
29520275,000001C2,false,Rx,1,1,5D,00,00,00,00,00,00,00,
29528990,000001DB,false,Rx,1,8,00,00,AA,EA,00,00,03,07,
29529225,000001DC,false,Rx,1,8,7D,11,8F,FD,08,C0,CF,6B,
29530301,000001C2,false,Rx,1,1,5E,00,00,00,00,00,00,00,
29538977,000001DB,false,Rx,1,8,00,00,AA,EA,00,00,00,0D,
29539212,000001DC,false,Rx,1,8,7D,11,8F,FD,0C,C4,D0,9F,
29540317,000001C2,false,Rx,1,1,5F,00,00,00,00,00,00,00,
29549041,000001DB,false,Rx,1,8,00,00,AA,EA,00,00,01,88,
29549276,000001DC,false,Rx,1,8,7D,11,8F,FD,01,21,0D,60,
29550344,000001C2,false,Rx,1,1,50,00,00,00,00,00,00,00,
29559033,000001DB,false,Rx,1,8,00,00,AA,EA,00,00,02,82,
29559268,000001DC,false,Rx,1,8,7D,11,8F,FD,05,34,C6,32,
29560365,000001C2,false,Rx,1,1,51,00,00,00,00,00,00,00,
29569102,000001DB,false,Rx,1,8,00,00,AA,EA,00,00,03,07,
29569337,000001DC,false,Rx,1,8,7D,11,8F,FD,08,C0,CF,6B,
29570389,000001C2,false,Rx,1,1,52,00,00,00,00,00,00,00,
29579090,000001DB,false,Rx,1,8,00,00,AA,EA,00,00,00,0D,
29579317,000001DC,false,Rx,1,8,7D,11,8F,FD,0C,C4,D0,9F,
29580408,000001C2,false,Rx,1,1,53,00,00,00,00,00,00,00,
29589250,000001DB,false,Rx,1,8,00,00,AA,EA,00,00,01,88,
29589487,000001DC,false,Rx,1,8,7D,11,8F,FD,01,21,0D,60,
29589722,0000055B,false,Rx,1,8,40,00,00,00,FF,C0,10,5C,
29589966,000005BC,false,Rx,1,8,14,00,F0,8C,BB,00,80,5D,
29590432,000001C2,false,Rx,1,1,54,00,00,00,00,00,00,00,
29599254,000001DB,false,Rx,1,8,00,00,AA,EA,00,00,02,82,
29599483,000001DC,false,Rx,1,8,7D,11,8F,FD,05,34,C6,32,
29599734,0000059E,false,Rx,1,8,00,00,17,01,F0,00,00,20,
29599978,000005C0,false,Rx,1,8,00,FE,FF,FF,F9,FF,E2,00,
29600207,000005EB,false,Rx,1,8,FF,0D,E8,E9,0D,3A,80,0D,
29600460,000001C2,false,Rx,1,1,55,00,00,00,00,00,00,00,
29609271,000001DB,false,Rx,1,8,00,00,AA,EA,00,00,03,07,
29609501,000001DC,false,Rx,1,8,7D,11,8F,FD,08,C0,CF,6B,
29610483,000001C2,false,Rx,1,1,56,00,00,00,00,00,00,00,
29619202,000001DB,false,Rx,1,8,00,00,AA,EA,00,00,00,0D,
29619431,000001DC,false,Rx,1,8,7D,11,8F,FD,0C,C4,D0,9F,
29620506,000001C2,false,Rx,1,1,57,00,00,00,00,00,00,00,
29629287,000001DB,false,Rx,1,8,00,00,AA,EA,00,00,01,88,
29629523,000001DC,false,Rx,1,8,7D,11,8F,FD,01,21,0D,60,
29630536,000001C2,false,Rx,1,1,58,00,00,00,00,00,00,00,
29639257,000001DB,false,Rx,1,8,00,00,AA,EA,00,00,02,82,
29639485,000001DC,false,Rx,1,8,7D,11,8F,FD,05,34,C6,32,
29640552,000001C2,false,Rx,1,1,59,00,00,00,00,00,00,00,
29641982,000001D4,false,Rx,1,8,00,00,00,00,04,00,00,E6,
29642233,000001DA,false,Rx,1,8,00,00,00,00,00,00,00,00,
29642486,000001F2,false,Rx,1,8,00,00,00,00,00,00,00,00,
29642737,00000390,false,Rx,1,8,00,00,00,00,00,01,F4,00,
29642981,0000050B,false,Rx,1,8,00,00,00,C0,00,00,00,00,
29643233,0000079B,false,Rx,1,8,30,01,00,FF,FF,FF,FF,FF,
29643487,0000079B,false,Rx,1,8,30,01,00,FF,FF,FF,FF,FF,
29643738,0000006F,false,Rx,1,8,00,00,00,00,00,00,00,00,
29643975,00000001,false,Rx,1,8,47,03,00,00,50,00,90,C9,
29644226,00000288,false,Rx,1,8,00,30,00,00,00,00,00,00,
29644478,00000280,false,Rx,1,8,00,00,00,00,00,00,00,00,
29644723,00000480,false,Rx,1,8,94,00,00,00,1A,00,00,8E,
29644966,000001DA,false,Rx,1,8,00,00,00,00,00,00,02,8F,
29645217,000001F2,false,Rx,1,8,00,00,00,00,00,00,02,00,
29645462,000001D4,false,Rx,1,8,00,00,00,00,44,00,00,21,
29645713,0000054C,false,Rx,1,8,00,00,00,00,00,00,00,78,
29645964,0000050C,false,Rx,1,8,00,00,00,00,B2,A6,00,00,
29646208,0000050B,false,Rx,1,8,00,00,00,C0,00,00,00,00,
29646460,00000390,false,Rx,1,8,00,00,00,00,00,01,F4,00,
29646704,0000079B,false,Rx,1,8,02,21,02,FF,FF,FF,FF,FF,
29646956,0000006F,false,Rx,1,8,00,00,00,00,00,00,00,00,
29647192,00000001,false,Rx,1,8,44,03,00,00,50,00,90,C9,
29647443,00000288,false,Rx,1,8,00,30,00,00,00,00,00,00,
29647694,00000280,false,Rx,1,8,00,00,00,00,00,00,00,00,
29647938,00000480,false,Rx,1,8,68,00,00,00,1A,00,00,72,
29648189,0000079B,false,Rx,1,8,30,01,00,FF,FF,FF,FF,FF,
29649325,000001DB,false,Rx,1,8,00,00,AA,EA,00,00,03,07,
29649562,000001DC,false,Rx,1,8,7D,11,8F,FD,08,C0,CF,6B,
29650575,000001C2,false,Rx,1,1,5A,00,00,00,00,00,00,00,
29652363,000007BB,false,Rx,1,8,10,C6,61,02,0D,EC,0D,EC,
29659309,000001DB,false,Rx,1,8,00,00,AA,EA,00,00,00,0D,
29659537,000001DC,false,Rx,1,8,7D,11,8F,FD,0C,C4,D0,9F,
29660595,000001C2,false,Rx,1,1,5B,00,00,00,00,00,00,00,
29663031,000001D4,false,Rx,1,8,00,00,00,00,84,00,00,ED,
29663268,000001DA,false,Rx,1,8,AA,00,00,00,00,00,04,C7,
29663514,0000006F,false,Rx,1,8,0C,B8,05,00,00,00,00,00,
29663757,00000001,false,Rx,1,8,4C,03,00,00,50,00,90,C9,
29664009,000001F2,false,Rx,1,8,00,00,00,00,00,00,04,00,
29664260,00000280,false,Rx,1,8,00,00,00,00,00,00,00,00,
29664513,00000288,false,Rx,1,8,00,30,00,00,00,00,00,00,
29664757,00000480,false,Rx,1,8,C0,00,00,00,1A,00,00,DA,
29669374,000001DB,false,Rx,1,8,00,00,AA,EA,00,00,01,88,
29669602,000001DC,false,Rx,1,8,7D,11,8F,FD,01,21,0D,60,
29670631,000001C2,false,Rx,1,1,5C,00,00,00,00,00,00,00,
29673028,000001D4,false,Rx,1,8,00,00,00,00,C4,00,00,2A,
29673273,000001DA,false,Rx,1,8,AA,00,00,00,00,00,06,48,
29673518,0000006F,false,Rx,1,8,12,B8,05,00,00,00,00,00,
29673754,00000001,false,Rx,1,8,4C,03,00,00,50,00,90,C9,
29674006,000001F2,false,Rx,1,8,00,00,00,00,00,00,06,00,
29674257,00000280,false,Rx,1,8,00,00,00,00,00,00,00,00,
29674509,00000288,false,Rx,1,8,00,30,00,00,00,00,00,00,
29674754,00000480,false,Rx,1,8,10,00,00,00,1A,00,00,0A,
29679363,000001DB,false,Rx,1,8,00,00,AA,EA,00,00,02,82,
29679599,000001DC,false,Rx,1,8,7D,11,8F,FD,05,34,C6,32,
29680642,000001C2,false,Rx,1,1,5D,00,00,00,00,00,00,00,
29683033,000001D4,false,Rx,1,8,00,00,00,00,04,00,00,E6,
29683269,000001DA,false,Rx,1,8,AA,00,00,00,00,00,00,5C,
29683515,0000006F,false,Rx,1,8,18,B8,05,00,00,00,00,00,
29683758,00000001,false,Rx,1,8,4D,03,00,00,50,00,90,C9,
29684010,000001F2,false,Rx,1,8,00,00,00,00,00,00,00,00,
29684261,00000280,false,Rx,1,8,00,00,00,00,00,00,00,00,
29684506,00000288,false,Rx,1,8,00,30,00,00,00,00,00,00,
29684750,00000480,false,Rx,1,8,68,00,00,00,1A,00,00,72,
29687643,0000079B,false,Rx,1,8,30,01,00,FF,FF,FF,FF,FF,
29687892,00000390,false,Rx,1,8,00,00,00,00,00,01,F4,00,
29688136,0000050B,false,Rx,1,8,00,00,00,C0,00,00,00,00,
29688379,0000050C,false,Rx,1,8,00,00,00,03,B2,9A,00,00,
29688633,0000054C,false,Rx,1,8,00,00,00,00,00,00,00,78,
29689547,000001DB,false,Rx,1,8,00,00,AA,EA,00,00,03,07,
29689775,000001DC,false,Rx,1,8,7D,11,8F,FD,08,C0,CF,6B,
29690019,0000055B,false,Rx,1,8,40,00,00,00,FF,C0,11,D9,
29690255,000005BC,false,Rx,1,8,7D,00,28,8C,BA,10,A0,11,
29690675,000001C2,false,Rx,1,1,5E,00,00,00,00,00,00,00,
29693033,000001D4,false,Rx,1,8,00,00,00,00,44,00,00,21,
29693269,000001DA,false,Rx,1,8,AA,00,00,00,00,00,02,D3,
29693513,0000006F,false,Rx,1,8,1E,B8,05,00,00,00,00,00,
29693752,00000001,false,Rx,1,8,4C,03,00,00,50,00,90,C9,
29694005,000001F2,false,Rx,1,8,00,00,00,00,00,00,02,00,
29694256,00000280,false,Rx,1,8,00,00,00,00,00,00,00,00,
29694508,00000288,false,Rx,1,8,00,30,00,00,00,00,00,00,
29694745,00000480,false,Rx,1,8,94,00,00,00,1A,00,00,8E,
29696253,000007BB,false,Rx,1,8,21,0D,EB,0D,EC,0D,EC,0D,
29699422,000001DB,false,Rx,1,8,00,00,AA,EA,00,00,00,0D,
29699650,000001DC,false,Rx,1,8,7D,11,8F,FD,0C,C4,D0,9F,
29700695,000001C2,false,Rx,1,1,5F,00,00,00,00,00,00,00,
29703023,000001D4,false,Rx,1,8,00,00,00,00,84,00,00,ED,
29703267,000001DA,false,Rx,1,8,AA,00,00,00,00,00,04,C7,
29703511,0000006F,false,Rx,1,8,23,B8,05,00,00,00,00,00,
29703747,00000001,false,Rx,1,8,4D,03,00,00,50,00,90,C9,
29703998,000001F2,false,Rx,1,8,00,00,00,00,00,00,04,00,
29704249,00000280,false,Rx,1,8,00,00,00,00,00,00,00,00,
29704501,00000288,false,Rx,1,8,00,30,00,00,00,00,00,00,
29704746,00000480,false,Rx,1,8,C0,00,00,00,1A,00,00,DA,
29709525,000001DB,false,Rx,1,8,00,00,AA,EA,00,00,01,88,
29709759,000001DC,false,Rx,1,8,7D,11,8F,FD,01,21,0D,60,
29710713,000001C2,false,Rx,1,1,50,00,00,00,00,00,00,00,
29713026,000001D4,false,Rx,1,8,00,00,00,00,C4,00,00,2A,
29713270,000001DA,false,Rx,1,8,AA,00,00,00,00,00,06,48,
29713514,0000006F,false,Rx,1,8,28,B8,05,00,00,00,00,00,
29713746,00000001,false,Rx,1,8,4D,03,00,00,50,00,90,C9,
29713998,000001F2,false,Rx,1,8,00,00,00,00,00,00,06,00,
29714249,00000280,false,Rx,1,8,00,00,00,00,00,00,00,00,
29714501,00000288,false,Rx,1,8,00,30,00,00,00,00,00,00,
29714753,00000480,false,Rx,1,8,10,00,00,00,1A,00,00,0A,
29719483,000001DB,false,Rx,1,8,00,00,AA,EA,00,00,02,82,
29719710,000001DC,false,Rx,1,8,7D,11,8F,FD,05,34,C6,32,
29720732,000001C2,false,Rx,1,1,51,00,00,00,00,00,00,00,
29723023,000001D4,false,Rx,1,8,00,00,00,00,04,00,00,E6,
29723266,000001DA,false,Rx,1,8,AA,00,00,00,00,00,00,5C,
29723511,0000006F,false,Rx,1,8,2D,B8,05,00,00,00,00,00,
29723751,00000001,false,Rx,1,8,4D,03,00,00,50,00,90,C9,
29724002,000001F2,false,Rx,1,8,00,00,00,00,00,00,00,00,
29724253,00000280,false,Rx,1,8,00,00,00,00,00,00,00,00,
29724507,00000288,false,Rx,1,8,00,30,00,00,00,00,00,00,
29724750,00000480,false,Rx,1,8,68,00,00,00,1A,00,00,72,
29729603,000001DB,false,Rx,1,8,00,00,AA,EA,00,00,03,07,
29729838,000001DC,false,Rx,1,8,7D,11,8F,FD,08,C0,CF,6B,
29730761,000001C2,false,Rx,1,1,52,00,00,00,00,00,00,00,
29733022,000001D4,false,Rx,1,8,00,00,00,00,44,00,00,21,
29733265,000001DA,false,Rx,1,8,AA,00,00,00,00,00,02,D3,
29733509,0000006F,false,Rx,1,8,32,B8,05,00,00,00,00,00,
29733750,00000001,false,Rx,1,8,4D,03,00,00,50,00,90,C9,
29734001,000001F2,false,Rx,1,8,00,00,00,00,00,00,02,00,
29734252,00000280,false,Rx,1,8,00,00,00,00,00,00,00,00,
29734505,00000288,false,Rx,1,8,00,30,00,00,00,00,00,00,
29734741,00000480,false,Rx,1,8,94,00,00,00,1A,00,00,8E,
29739532,000001DB,false,Rx,1,8,00,00,AA,EA,00,00,00,0D,
29739759,000001DC,false,Rx,1,8,7D,11,8F,FD,0C,C4,D0,9F,
29740781,000001C2,false,Rx,1,1,53,00,00,00,00,00,00,00,
29743019,000001D4,false,Rx,1,8,00,00,00,00,84,00,00,ED,
29743262,000001DA,false,Rx,1,8,AA,00,00,00,00,00,04,C7,
29743507,0000006F,false,Rx,1,8,37,B8,05,00,00,00,00,00,
29743747,00000001,false,Rx,1,8,4D,03,00,00,50,00,90,C9,
29743998,000001F2,false,Rx,1,8,00,00,00,00,00,00,04,00,
29744249,00000280,false,Rx,1,8,00,00,00,00,00,00,00,00,
29744494,00000288,false,Rx,1,8,00,30,00,00,00,00,00,00,
29744745,00000480,false,Rx,1,8,C0,00,00,00,1A,00,00,DA,
29749606,000001DB,false,Rx,1,8,00,00,AA,EA,00,00,01,88,
29749840,000001DC,false,Rx,1,8,7D,11,8F,FD,01,21,0D,60,
29750809,000001C2,false,Rx,1,1,54,00,00,00,00,00,00,00,
29753024,000001D4,false,Rx,1,8,00,00,00,00,C4,00,00,2A,
29753267,000001DA,false,Rx,1,8,AA,00,00,00,00,00,06,48,
29753512,0000006F,false,Rx,1,8,3C,B8,05,00,00,00,00,00,
29753752,00000001,false,Rx,1,8,4D,03,00,00,50,00,90,C9,
29754003,000001F2,false,Rx,1,8,00,00,00,00,00,00,06,00,
29754254,00000280,false,Rx,1,8,00,00,00,00,00,00,00,00,
29754500,00000288,false,Rx,1,8,00,30,00,00,00,00,00,00,
29754751,00000480,false,Rx,1,8,10,00,00,00,1A,00,00,0A,
29759588,000001DB,false,Rx,1,8,00,00,AA,EA,00,00,02,82,
29759823,000001DC,false,Rx,1,8,7D,11,8F,FD,05,34,C6,32,
29760830,000001C2,false,Rx,1,1,55,00,00,00,00,00,00,00,
29763024,000001D4,false,Rx,1,8,00,00,00,00,04,00,00,E6,
29763259,000001DA,false,Rx,1,8,AA,00,00,00,00,00,00,5C,
29763511,0000006F,false,Rx,1,8,40,B8,05,00,00,00,00,00,
29763751,00000001,false,Rx,1,8,4C,03,00,00,50,00,90,C9,
29764002,000001F2,false,Rx,1,8,00,00,00,00,00,00,00,00,
29764254,00000280,false,Rx,1,8,00,00,00,00,00,00,00,00,
29764507,00000288,false,Rx,1,8,00,30,00,00,00,00,00,00,
29764750,00000480,false,Rx,1,8,68,00,00,00,1A,00,00,72,
29769627,000001DB,false,Rx,1,8,00,00,AA,EA,00,00,03,07,
29769855,000001DC,false,Rx,1,8,7D,11,8F,FD,08,C0,CF,6B,
29770852,000001C2,false,Rx,1,1,56,00,00,00,00,00,00,00,
29773016,000001D4,false,Rx,1,8,00,00,00,00,44,00,00,21,
29773259,000001DA,false,Rx,1,8,AA,00,00,00,00,00,02,D3,
29773504,0000006F,false,Rx,1,8,45,B8,05,00,00,00,00,00,
29773736,00000001,false,Rx,1,8,4D,03,00,00,50,00,90,C9,
29773987,000001F2,false,Rx,1,8,00,00,00,00,00,00,02,00,
29774246,00000280,false,Rx,1,8,00,00,00,00,00,00,00,00,
29774492,00000288,false,Rx,1,8,00,30,00,00,00,00,00,00,
29774735,00000480,false,Rx,1,8,94,00,00,00,1A,00,00,8E,
29779640,000001DB,false,Rx,1,8,00,00,AA,EA,00,00,00,0D,
29779876,000001DC,false,Rx,1,8,7D,11,8F,FD,0C,C4,D0,9F,
29780874,000001C2,false,Rx,1,1,57,00,00,00,00,00,00,00,
29783013,000001D4,false,Rx,1,8,00,00,00,00,84,00,00,ED,
29783257,000001DA,false,Rx,1,8,AA,00,00,00,00,00,04,C7,
29783501,0000006F,false,Rx,1,8,49,B8,05,00,00,00,00,00,
29783741,00000001,false,Rx,1,8,4D,03,00,00,50,00,90,C9,
29783992,000001F2,false,Rx,1,8,00,00,00,00,00,00,04,00,
29784243,00000280,false,Rx,1,8,00,00,00,00,00,00,00,00,
29784489,00000288,false,Rx,1,8,00,30,00,00,00,00,00,00,
29784740,00000480,false,Rx,1,8,C0,00,00,00,1A,00,00,DA,
29787628,0000079B,false,Rx,1,8,30,01,00,FF,FF,FF,FF,FF,
29787878,00000390,false,Rx,1,8,00,00,00,00,00,01,F4,00,
29788129,0000050B,false,Rx,1,8,00,00,00,C0,00,00,00,00,
29788373,0000050C,false,Rx,1,8,00,00,00,00,B2,A6,00,00,
29788625,0000054C,false,Rx,1,8,00,00,00,00,00,00,00,78,
29789857,000001DB,false,Rx,1,8,00,00,AA,EA,00,00,01,88,
29790086,000001DC,false,Rx,1,8,7D,11,8F,FD,01,21,0D,60,
29790329,0000055B,false,Rx,1,8,40,00,00,00,FF,C0,12,D3,
29790567,000005BC,false,Rx,1,8,14,00,28,8C,BA,00,C0,72,
29790902,000001C2,false,Rx,1,1,58,00,00,00,00,00,00,00,
29793017,000001D4,false,Rx,1,8,00,00,00,00,C4,00,00,2A,
29793260,000001DA,false,Rx,1,8,AA,00,00,00,00,00,06,48,
29793506,0000006F,false,Rx,1,8,4D,B8,05,00,00,00,00,00,
29793743,00000001,false,Rx,1,8,4C,03,00,00,50,00,90,C9,
29793991,000001F2,false,Rx,1,8,00,00,00,00,00,00,06,00,
29794250,00000280,false,Rx,1,8,00,00,00,00,00,00,00,00,
29794496,00000288,false,Rx,1,8,00,30,00,00,00,00,00,00,
29794747,00000480,false,Rx,1,8,10,00,00,00,1A,00,00,0A,
29796062,000007BB,false,Rx,1,8,22,EA,0D,E9,0D,E9,0D,E9,
29799702,000001DB,false,Rx,1,8,00,00,AA,EA,00,00,02,82,
29799937,000001DC,false,Rx,1,8,7D,11,8F,FD,05,34,C6,32,
29800920,000001C2,false,Rx,1,1,59,00,00,00,00,00,00,00,
29803014,000001D4,false,Rx,1,8,00,00,00,00,04,00,00,E6,
29803257,000001DA,false,Rx,1,8,AA,00,00,00,00,00,00,5C,
29803502,0000006F,false,Rx,1,8,51,B8,05,00,00,00,00,00,
29803739,00000001,false,Rx,1,8,4D,03,00,00,50,00,90,C9,
29803995,000001F2,false,Rx,1,8,00,00,00,00,00,00,00,00,
29804246,00000280,false,Rx,1,8,00,00,00,00,00,00,00,00,
29804493,00000288,false,Rx,1,8,00,30,00,00,00,00,00,00,
29804737,00000480,false,Rx,1,8,68,00,00,00,1A,00,00,72,
29809809,000001DB,false,Rx,1,8,00,00,AA,EA,00,00,03,07,
29810044,000001DC,false,Rx,1,8,7D,11,8F,FD,08,C0,CF,6B,
29810943,000001C2,false,Rx,1,1,5A,00,00,00,00,00,00,00,
29813014,000001D4,false,Rx,1,8,00,00,00,00,44,00,00,21,
29813257,000001DA,false,Rx,1,8,AA,00,00,00,00,00,02,D3,
29813502,0000006F,false,Rx,1,8,55,B8,05,00,00,00,00,00,
29813739,00000001,false,Rx,1,8,4C,03,00,00,50,00,90,C9,
29813987,000001F2,false,Rx,1,8,00,00,00,00,00,00,02,00,
29814246,00000280,false,Rx,1,8,00,00,00,00,00,00,00,00,
29814491,00000288,false,Rx,1,8,00,30,00,00,00,00,00,00,
29814735,00000480,false,Rx,1,8,94,00,00,00,1A,00,00,8E,
29819752,000001DB,false,Rx,1,8,00,00,AA,EA,00,00,00,0D,
29819979,000001DC,false,Rx,1,8,7D,11,8F,FD,0C,C4,D0,9F,
29820970,000001C2,false,Rx,1,1,5B,00,00,00,00,00,00,00,
29823011,000001D4,false,Rx,1,8,00,00,00,00,84,00,00,ED,
29823254,000001DA,false,Rx,1,8,AA,00,00,00,00,00,04,C7,
29823499,0000006F,false,Rx,1,8,59,B8,05,00,00,00,00,00,
29823736,00000001,false,Rx,1,8,4D,03,00,00,50,00,90,C9,
29823984,000001F2,false,Rx,1,8,00,00,00,00,00,00,04,00,
29824236,00000280,false,Rx,1,8,00,00,00,00,00,00,00,00,
29824489,00000288,false,Rx,1,8,00,30,00,00,00,00,00,00,
29824732,00000480,false,Rx,1,8,C0,00,00,00,1A,00,00,DA,
29829857,000001DB,false,Rx,1,8,00,00,AA,EA,00,00,01,88,
29830092,000001DC,false,Rx,1,8,7D,11,8F,FD,01,21,0D,60,
29830991,000001C2,false,Rx,1,1,5C,00,00,00,00,00,00,00,
29833016,000001D4,false,Rx,1,8,00,00,00,00,C4,00,00,2A,
29833260,000001DA,false,Rx,1,8,AA,00,00,00,00,00,06,48,
29833504,0000006F,false,Rx,1,8,5C,B8,05,00,00,00,00,00,
29833741,00000001,false,Rx,1,8,4D,03,00,00,50,00,90,C9,
29833990,000001F2,false,Rx,1,8,00,00,00,00,00,00,06,00,
29834241,00000280,false,Rx,1,8,00,00,00,00,00,00,00,00,
29834494,00000288,false,Rx,1,8,00,30,00,00,00,00,00,00,
29834738,00000480,false,Rx,1,8,10,00,00,00,1A,00,00,0A,
29839808,000001DB,false,Rx,1,8,00,00,AA,EA,00,00,02,82,
29840043,000001DC,false,Rx,1,8,7D,11,8F,FD,05,34,C6,32,
29841018,000001C2,false,Rx,1,1,5D,00,00,00,00,00,00,00,
29843013,000001D4,false,Rx,1,8,00,00,00,00,04,00,00,E6,
29843256,000001DA,false,Rx,1,8,AA,00,00,00,00,00,00,5C,
29843501,0000006F,false,Rx,1,8,60,B8,05,00,00,00,00,00,
29843738,00000001,false,Rx,1,8,4D,03,00,00,50,00,90,C9,
29843986,000001F2,false,Rx,1,8,00,00,00,00,00,00,00,00,
29844237,00000280,false,Rx,1,8,00,00,00,00,00,00,00,00,
29844491,00000288,false,Rx,1,8,00,30,00,00,00,00,00,00,
29844734,00000480,false,Rx,1,8,68,00,00,00,1A,00,00,72,
29849914,000001DB,false,Rx,1,8,00,00,AA,EA,00,00,03,07,
29850148,000001DC,false,Rx,1,8,7D,11,8F,FD,08,C0,CF,6B,
29851040,000001C2,false,Rx,1,1,5E,00,00,00,00,00,00,00,
29853012,000001D4,false,Rx,1,8,00,00,00,00,44,00,00,21,
29853255,000001DA,false,Rx,1,8,AA,00,00,00,00,00,02,D3,
29853493,0000006F,false,Rx,1,8,63,B8,05,00,00,00,00,00,
29853737,00000001,false,Rx,1,8,4C,03,00,00,50,00,90,C9,
29853986,000001F2,false,Rx,1,8,00,00,00,00,00,00,02,00,
29854237,00000280,false,Rx,1,8,00,00,00,00,00,00,00,00,
29854490,00000288,false,Rx,1,8,00,30,00,00,00,00,00,00,
29854734,00000480,false,Rx,1,8,94,00,00,00,1A,00,00,8E,
29859866,000001DB,false,Rx,1,8,00,00,AA,EA,00,00,00,0D,
29860101,000001DC,false,Rx,1,8,7D,11,8F,FD,0C,C4,D0,9F,
29861061,000001C2,false,Rx,1,1,5F,00,00,00,00,00,00,00,
29863010,000001D4,false,Rx,1,8,00,00,00,00,84,00,00,ED,
29863254,000001DA,false,Rx,1,8,AA,00,00,00,00,00,04,C7,
29863491,0000006F,false,Rx,1,8,66,B8,05,00,00,00,00,00,
29863735,00000001,false,Rx,1,8,4D,03,00,00,50,00,90,C9,
29863984,000001F2,false,Rx,1,8,00,00,00,00,00,00,04,00,
29864235,00000280,false,Rx,1,8,00,00,00,00,00,00,00,00,
29864481,00000288,false,Rx,1,8,00,30,00,00,00,00,00,00,
29864732,00000480,false,Rx,1,8,C0,00,00,00,1A,00,00,DA,
29869978,000001DB,false,Rx,1,8,00,00,AA,EA,00,00,01,88,
29870212,000001DC,false,Rx,1,8,7D,11,8F,FD,01,21,0D,60,
29871081,000001C2,false,Rx,1,1,50,00,00,00,00,00,00,00,
29873008,000001D4,false,Rx,1,8,00,00,00,00,C4,00,00,2A,
29873251,000001DA,false,Rx,1,8,AA,00,00,00,00,00,06,48,
29873497,0000006F,false,Rx,1,8,69,B8,05,00,00,00,00,00,
29873733,00000001,false,Rx,1,8,4C,03,00,00,50,00,90,C9,
29873984,000001F2,false,Rx,1,8,00,00,00,00,00,00,06,00,
29874235,00000280,false,Rx,1,8,00,00,00,00,00,00,00,00,
29874488,00000288,false,Rx,1,8,00,30,00,00,00,00,00,00,
29874739,00000480,false,Rx,1,8,10,00,00,00,1A,00,00,0A,
29879921,000001DB,false,Rx,1,8,00,00,AA,EA,00,00,02,82,
29880155,000001DC,false,Rx,1,8,7D,11,8F,FD,05,34,C6,32,
29881107,000001C2,false,Rx,1,1,51,00,00,00,00,00,00,00,
29883011,000001D4,false,Rx,1,8,00,00,00,00,04,00,00,E6,
29883247,000001DA,false,Rx,1,8,AA,00,00,00,00,00,00,5C,
29883493,0000006F,false,Rx,1,8,6D,B8,05,00,00,00,00,00,
29883728,00000001,false,Rx,1,8,5E,03,00,00,50,00,90,C9,
29883985,000001F2,false,Rx,1,8,00,00,00,00,00,00,00,00,
29884236,00000280,false,Rx,1,8,00,00,00,00,00,00,00,00,
29884489,00000288,false,Rx,1,8,00,30,00,00,00,00,00,00,
29884733,00000480,false,Rx,1,8,68,00,00,00,1A,00,00,72,
29887618,0000079B,false,Rx,1,8,30,01,00,FF,FF,FF,FF,FF,
29887869,00000390,false,Rx,1,8,00,00,00,00,00,01,F4,00,
29888115,0000050B,false,Rx,1,8,00,00,00,C0,00,00,00,00,
29888366,0000050C,false,Rx,1,8,00,00,00,01,B2,31,00,00,
29888618,0000054C,false,Rx,1,8,00,00,00,00,00,00,00,78,
29890129,000001DB,false,Rx,1,8,00,00,AA,EA,00,00,03,07,
29890357,000001DC,false,Rx,1,8,7D,11,8F,FD,08,C0,CF,6B,
29890595,0000055B,false,Rx,1,8,40,00,00,00,FF,C0,13,56,
29890831,000005BC,false,Rx,1,8,7D,00,28,8C,BA,10,E0,DA,
29891128,000001C2,false,Rx,1,1,52,00,00,00,00,00,00,00,
29893008,000001D4,false,Rx,1,8,00,00,00,00,44,00,00,21,
29893251,000001DA,false,Rx,1,8,AA,00,00,00,00,00,02,D3,
29893490,0000006F,false,Rx,1,8,70,B8,05,00,00,00,00,00,
29893733,00000001,false,Rx,1,8,46,03,00,00,50,00,90,C9,
29893984,000001F2,false,Rx,1,8,00,00,00,00,00,00,02,00,
29894236,00000280,false,Rx,1,8,00,00,00,00,00,00,00,00,
29894488,00000288,false,Rx,1,8,00,30,00,00,00,00,00,00,
29894724,00000480,false,Rx,1,8,94,00,00,00,1A,00,00,8E,
29896303,000007BB,false,Rx,1,8,23,0D,E9,0D,E9,0D,E6,0D,
29899983,000001DB,false,Rx,1,8,00,00,AA,EA,00,00,00,0D,
29900210,000001DC,false,Rx,1,8,7D,11,8F,FD,0C,C4,D0,9F,
29901155,000001C2,false,Rx,1,1,53,00,00,00,00,00,00,00,
29903005,000001D4,false,Rx,1,8,00,00,00,00,84,00,00,ED,
29903249,000001DA,false,Rx,1,8,AA,00,00,00,00,00,04,C7,
29903487,0000006F,false,Rx,1,8,72,B8,05,00,00,00,00,00,
29903731,00000001,false,Rx,1,8,4A,03,00,00,50,00,90,C9,
29903981,000001F2,false,Rx,1,8,00,00,00,00,00,00,04,00,
29904233,00000280,false,Rx,1,8,00,00,00,00,00,00,00,00,
29904485,00000288,false,Rx,1,8,00,30,00,00,00,00,00,00,
29904729,00000480,false,Rx,1,8,C0,00,00,00,1A,00,00,DA,
29910087,000001DB,false,Rx,1,8,00,00,AA,EA,00,00,01,88,
29910322,000001DC,false,Rx,1,8,7D,11,8F,FD,01,21,0D,60,
29911176,000001C2,false,Rx,1,1,54,00,00,00,00,00,00,00,
29913003,000001D4,false,Rx,1,8,00,00,00,00,C4,00,00,2A,
29913246,000001DA,false,Rx,1,8,AA,00,00,00,00,00,06,48,
29913492,0000006F,false,Rx,1,8,75,B8,05,00,00,00,00,00,
29913728,00000001,false,Rx,1,8,4C,03,00,00,50,00,90,C9,
29913979,000001F2,false,Rx,1,8,00,00,00,00,00,00,06,00,
29914231,00000280,false,Rx,1,8,00,00,00,00,00,00,00,00,
29914483,00000288,false,Rx,1,8,00,30,00,00,00,00,00,00,
29914734,00000480,false,Rx,1,8,10,00,00,00,1A,00,00,0A,
29920031,000001DB,false,Rx,1,8,00,00,AA,EA,00,00,02,82,
29920266,000001DC,false,Rx,1,8,7D,11,8F,FD,05,34,C6,32,
29921204,000001C2,false,Rx,1,1,55,00,00,00,00,00,00,00,
29923001,000001D4,false,Rx,1,8,00,00,00,00,04,00,00,E6,
29923244,000001DA,false,Rx,1,8,AA,00,00,00,00,00,00,5C,
29923490,0000006F,false,Rx,1,8,78,B8,05,00,00,00,00,00,
29923726,00000001,false,Rx,1,8,4D,03,00,00,50,00,90,C9,
29923977,000001F2,false,Rx,1,8,00,00,00,00,00,00,00,00,
29924229,00000280,false,Rx,1,8,00,00,00,00,00,00,00,00,
29924481,00000288,false,Rx,1,8,00,30,00,00,00,00,00,00,
29924724,00000480,false,Rx,1,8,68,00,00,00,1A,00,00,72,
29930120,000001DB,false,Rx,1,8,00,00,AA,EA,00,00,03,07,
29930348,000001DC,false,Rx,1,8,7D,11,8F,FD,08,C0,CF,6B,
29931224,000001C2,false,Rx,1,1,56,00,00,00,00,00,00,00,
29933005,000001D4,false,Rx,1,8,00,00,00,00,44,00,00,21,
29933241,000001DA,false,Rx,1,8,AA,00,00,00,00,00,02,D3,
29933487,0000006F,false,Rx,1,8,7B,B8,05,00,00,00,00,00,
29933723,00000001,false,Rx,1,8,4D,03,00,00,50,00,90,C9,
29933974,000001F2,false,Rx,1,8,00,00,00,00,00,00,02,00,
29934226,00000280,false,Rx,1,8,00,00,00,00,00,00,00,00,
29934478,00000288,false,Rx,1,8,00,30,00,00,00,00,00,00,
29934721,00000480,false,Rx,1,8,94,00,00,00,1A,00,00,8E,
29940087,000001DB,false,Rx,1,8,00,00,AA,EA,00,00,00,0D,
29940315,000001DC,false,Rx,1,8,7D,11,8F,FD,0C,C4,D0,9F,
29941245,000001C2,false,Rx,1,1,57,00,00,00,00,00,00,00,
29943003,000001D4,false,Rx,1,8,00,00,00,00,84,00,00,ED,
29943246,000001DA,false,Rx,1,8,AA,00,00,00,00,00,04,C7,
29943493,0000006F,false,Rx,1,8,7D,B8,05,00,00,00,00,00,
29943729,00000001,false,Rx,1,8,4C,03,00,00,50,00,90,C9,
29943980,000001F2,false,Rx,1,8,00,00,00,00,00,00,04,00,
29944232,00000280,false,Rx,1,8,00,00,00,00,00,00,00,00,
29944484,00000288,false,Rx,1,8,00,30,00,00,00,00,00,00,
29944727,00000480,false,Rx,1,8,C0,00,00,00,1A,00,00,DA,
29950109,000001DB,false,Rx,1,8,00,00,AA,EA,00,00,01,88,
29950345,000001DC,false,Rx,1,8,7D,11,8F,FD,01,21,0D,60,
29951274,000001C2,false,Rx,1,1,58,00,00,00,00,00,00,00,
29953002,000001D4,false,Rx,1,8,00,00,00,00,C4,00,00,2A,
29953245,000001DA,false,Rx,1,8,AA,00,00,00,00,00,06,48,
29953491,0000006F,false,Rx,1,8,80,B8,05,00,00,00,00,00,
29953727,00000001,false,Rx,1,8,4B,03,00,00,50,00,90,C9,
29953978,000001F2,false,Rx,1,8,00,00,00,00,00,00,06,00,
29954230,00000280,false,Rx,1,8,00,00,00,00,00,00,00,00,
29954483,00000288,false,Rx,1,8,00,30,00,00,00,00,00,00,
29954726,00000480,false,Rx,1,8,10,00,00,00,1A,00,00,0A,
29960144,000001DB,false,Rx,1,8,00,00,AA,EA,00,00,02,82,
29960380,000001DC,false,Rx,1,8,7D,11,8F,FD,05,34,C6,32,
29961294,000001C2,false,Rx,1,1,59,00,00,00,00,00,00,00,
29962999,000001D4,false,Rx,1,8,00,00,00,00,04,00,00,E6,
29963243,000001DA,false,Rx,1,8,AA,00,00,00,00,00,00,5C,
29963488,0000006F,false,Rx,1,8,82,B8,05,00,00,00,00,00,
29963724,00000001,false,Rx,1,8,4C,03,00,00,50,00,90,C9,
29963983,000001F2,false,Rx,1,8,00,00,00,00,00,00,00,00,
29964235,00000280,false,Rx,1,8,00,00,00,00,00,00,00,00,
29964479,00000288,false,Rx,1,8,00,30,00,00,00,00,00,00,
29964723,00000480,false,Rx,1,8,68,00,00,00,1A,00,00,72,
29970217,000001DB,false,Rx,1,8,00,00,AA,EA,00,00,03,07,
29970455,000001DC,false,Rx,1,8,7D,11,8F,FD,08,C0,CF,6B,
29971315,000001C2,false,Rx,1,1,5A,00,00,00,00,00,00,00,
29972998,000001D4,false,Rx,1,8,00,00,00,00,44,00,00,21,
29973241,000001DA,false,Rx,1,8,AA,00,00,00,00,00,02,D3,
29973487,0000006F,false,Rx,1,8,84,B8,05,00,00,00,00,00,
29973723,00000001,false,Rx,1,8,4D,03,00,00,50,00,90,C9,
29973974,000001F2,false,Rx,1,8,00,00,00,00,00,00,02,00,
29974226,00000280,false,Rx,1,8,00,00,00,00,00,00,00,00,
29974480,00000288,false,Rx,1,8,00,30,00,00,00,00,00,00,
29974716,00000480,false,Rx,1,8,94,00,00,00,1A,00,00,8E,
29980199,000001DB,false,Rx,1,8,00,00,AA,EA,00,00,00,0D,
29980429,000001DC,false,Rx,1,8,7D,11,8F,FD,0C,C4,D0,9F,
29981342,000001C2,false,Rx,1,1,5B,00,00,00,00,00,00,00,
29982996,000001D4,false,Rx,1,8,00,00,00,00,84,00,00,ED,
29983239,000001DA,false,Rx,1,8,AA,00,00,00,00,00,04,C7,
29983478,0000006F,false,Rx,1,8,87,B8,05,00,00,00,00,00,
29983721,00000001,false,Rx,1,8,4D,03,00,00,50,00,90,C9,
29983972,000001F2,false,Rx,1,8,00,00,00,00,00,00,04,00,
29984224,00000280,false,Rx,1,8,00,00,00,00,00,00,00,00,
29984471,00000288,false,Rx,1,8,00,30,00,00,00,00,00,00,
29984721,00000480,false,Rx,1,8,C0,00,00,00,1A,00,00,DA,
29987610,0000079B,false,Rx,1,8,30,01,00,FF,FF,FF,FF,FF,
29987861,00000390,false,Rx,1,8,00,00,00,00,00,01,F4,00,
29988105,0000050B,false,Rx,1,8,00,00,00,C0,00,00,00,00,
29988359,0000050C,false,Rx,1,8,00,00,00,02,B2,0D,00,00,
29988604,0000054C,false,Rx,1,8,00,00,00,00,00,00,00,78,
29990442,000001DB,false,Rx,1,8,00,00,AA,EA,00,00,01,88,
29990670,000001DC,false,Rx,1,8,7D,11,8F,FD,01,21,0D,60,
29990913,0000055B,false,Rx,1,8,40,00,00,00,FF,C0,10,5C,
29991150,000005BC,false,Rx,1,8,14,00,28,8C,BA,01,01,79,
29991363,000001C2,false,Rx,1,1,5C,00,00,00,00,00,00,00,
29993001,000001D4,false,Rx,1,8,00,00,00,00,C4,00,00,2A,
29993244,000001DA,false,Rx,1,8,AA,00,00,00,00,00,06,48,
29993482,0000006F,false,Rx,1,8,89,B8,05,00,00,00,00,00,
29993718,00000001,false,Rx,1,8,4B,03,00,00,50,00,90,C9,
29993969,000001F2,false,Rx,1,8,00,00,00,00,00,00,06,00,
29994222,00000280,false,Rx,1,8,00,00,00,00,00,00,00,00,
29994476,00000288,false,Rx,1,8,00,30,00,00,00,00,00,00,
29994727,00000480,false,Rx,1,8,10,00,00,00,1A,00,00,0A,
29997111,000007BB,false,Rx,1,8,24,EA,0D,E6,0D,E9,0D,E8,
30000257,000001DB,false,Rx,1,8,00,00,AA,EA,00,00,02,82,
30000485,000001DC,false,Rx,1,8,7D,11,8F,FD,05,34,C6,32,
30001383,000001C2,false,Rx,1,1,5D,00,00,00,00,00,00,00,
30002998,000001D4,false,Rx,1,8,00,00,00,00,04,00,00,E6,
30003241,000001DA,false,Rx,1,8,AA,00,00,00,00,00,00,5C,
30003479,0000006F,false,Rx,1,8,8B,B8,05,00,00,00,00,00,
30003723,00000001,false,Rx,1,8,4C,03,00,00,50,00,90,C9,
30003974,000001F2,false,Rx,1,8,00,00,00,00,00,00,00,00,
30004226,00000280,false,Rx,1,8,00,00,00,00,00,00,00,00,
30004473,00000288,false,Rx,1,8,00,30,00,00,00,00,00,00,
30004724,00000480,false,Rx,1,8,68,00,00,00,1A,00,00,72,
30010384,000001DB,false,Rx,1,8,00,00,AA,EA,00,00,03,07,
30010612,000001DC,false,Rx,1,8,7D,11,8F,FD,08,C0,CF,6B,
30011420,000001C2,false,Rx,1,1,5E,00,00,00,00,00,00,00,
30012996,000001D4,false,Rx,1,8,00,00,00,00,44,00,00,21,
30013239,000001DA,false,Rx,1,8,AA,00,00,00,00,00,02,D3,
30013477,0000006F,false,Rx,1,8,8D,B8,05,00,00,00,00,00,
30013721,00000001,false,Rx,1,8,4C,03,00,00,50,00,90,C9,
30013972,000001F2,false,Rx,1,8,00,00,00,00,00,00,02,00,
30014224,00000280,false,Rx,1,8,00,00,00,00,00,00,00,00,
30014471,00000288,false,Rx,1,8,00,30,00,00,00,00,00,00,
30014714,00000480,false,Rx,1,8,94,00,00,00,1A,00,00,8E,
30020312,000001DB,false,Rx,1,8,00,00,AA,EA,00,00,00,0D,
30020541,000001DC,false,Rx,1,8,7D,11,8F,FD,0C,C4,D0,9F,
30021432,000001C2,false,Rx,1,1,5F,00,00,00,00,00,00,00,
30022992,000001D4,false,Rx,1,8,00,00,00,00,84,00,00,ED,
30023235,000001DA,false,Rx,1,8,AA,00,00,00,00,00,04,C7,
30023481,0000006F,false,Rx,1,8,8F,B8,05,00,00,00,00,00,
30023724,00000001,false,Rx,1,8,4C,03,00,00,50,00,90,C9,
30023975,000001F2,false,Rx,1,8,00,00,00,00,00,00,04,00,
30024227,00000280,false,Rx,1,8,00,00,00,00,00,00,00,00,
30024474,00000288,false,Rx,1,8,00,30,00,00,00,00,00,00,
30024717,00000480,false,Rx,1,8,C0,00,00,00,1A,00,00,DA,
30030379,000001DB,false,Rx,1,8,00,00,AA,EA,00,00,01,88,
30030615,000001DC,false,Rx,1,8,7D,11,8F,FD,01,21,0D,60,
30031453,000001C2,false,Rx,1,1,50,00,00,00,00,00,00,00,
30032997,000001D4,false,Rx,1,8,00,00,00,00,C4,00,00,2A,
30033233,000001DA,false,Rx,1,8,AA,00,00,00,00,00,06,48,
30033479,0000006F,false,Rx,1,8,91,B8,05,00,00,00,00,00,
30033715,00000001,false,Rx,1,8,4C,03,00,00,50,00,90,C9,
30033966,000001F2,false,Rx,1,8,00,00,00,00,00,00,06,00,
30034218,00000280,false,Rx,1,8,00,00,00,00,00,00,00,00,
30034472,00000288,false,Rx,1,8,00,30,00,00,00,00,00,00,
30034723,00000480,false,Rx,1,8,10,00,00,00,1A,00,00,0A,
30040368,000001DB,false,Rx,1,8,00,00,AA,EA,00,00,02,82,
30040604,000001DC,false,Rx,1,8,7D,11,8F,FD,05,34,C6,32,
30041480,000001C2,false,Rx,1,1,51,00,00,00,00,00,00,00,
30042994,000001D4,false,Rx,1,8,00,00,00,00,04,00,00,E6,
30043239,000001DA,false,Rx,1,8,AA,00,00,00,00,00,00,5C,
30043476,0000006F,false,Rx,1,8,93,B8,05,00,00,00,00,00,
30043719,00000001,false,Rx,1,8,4D,03,00,00,50,00,90,C9,
30043970,000001F2,false,Rx,1,8,00,00,00,00,00,00,00,00,
30044222,00000280,false,Rx,1,8,00,00,00,00,00,00,00,00,
30044470,00000288,false,Rx,1,8,00,30,00,00,00,00,00,00,
30044713,00000480,false,Rx,1,8,68,00,00,00,1A,00,00,72,
30050407,000001DB,false,Rx,1,8,00,00,AA,EA,00,00,03,07,
30050641,000001DC,false,Rx,1,8,7D,11,8F,FD,08,C0,CF,6B,
30051510,000001C2,false,Rx,1,1,52,00,00,00,00,00,00,00,
30052994,000001D4,false,Rx,1,8,00,00,00,00,44,00,00,21,
30053231,000001DA,false,Rx,1,8,AA,00,00,00,00,00,02,D3,
30053475,0000006F,false,Rx,1,8,94,B8,05,00,00,00,00,00,
30053711,00000001,false,Rx,1,8,4C,03,00,00,50,00,90,C9,
30053970,000001F2,false,Rx,1,8,00,00,00,00,00,00,02,00,
30054222,00000280,false,Rx,1,8,00,00,00,00,00,00,00,00,
30054468,00000288,false,Rx,1,8,00,30,00,00,00,00,00,00,
30054712,00000480,false,Rx,1,8,94,00,00,00,1A,00,00,8E,
30060418,000001DB,false,Rx,1,8,00,00,AA,EA,00,00,00,0D,
30060653,000001DC,false,Rx,1,8,7D,11,8F,FD,0C,C4,D0,9F,
30061521,000001C2,false,Rx,1,1,53,00,00,00,00,00,00,00,
30062990,000001D4,false,Rx,1,8,00,00,00,00,84,00,00,ED,
30063235,000001DA,false,Rx,1,8,AA,00,00,00,00,00,04,C7,
30063472,0000006F,false,Rx,1,8,96,B8,05,00,00,00,00,00,
30063715,00000001,false,Rx,1,8,4C,03,00,00,50,00,90,C9,
30063967,000001F2,false,Rx,1,8,00,00,00,00,00,00,04,00,
30064218,00000280,false,Rx,1,8,00,00,00,00,00,00,00,00,
30064480,00000288,false,Rx,1,8,00,30,00,00,00,00,00,00,
30064716,00000480,false,Rx,1,8,C0,00,00,00,1A,00,00,DA,
30070506,000001DB,false,Rx,1,8,00,00,AA,EA,00,00,01,88,
30070741,000001DC,false,Rx,1,8,7D,11,8F,FD,01,21,0D,60,
30071550,000001C2,false,Rx,1,1,54,00,00,00,00,00,00,00,
30072988,000001D4,false,Rx,1,8,00,00,00,00,C4,00,00,2A,
30073232,000001DA,false,Rx,1,8,AA,00,00,00,00,00,06,48,
30073478,0000006F,false,Rx,1,8,98,B8,05,00,00,00,00,00,
30073713,00000001,false,Rx,1,8,4D,03,00,00,50,00,90,C9,
30073966,000001F2,false,Rx,1,8,00,00,00,00,00,00,06,00,
30074217,00000280,false,Rx,1,8,00,00,00,00,00,00,00,00,
30074461,00000288,false,Rx,1,8,00,30,00,00,00,00,00,00,
30074717,00000480,false,Rx,1,8,10,00,00,00,1A,00,00,0A,
30080474,000001DB,false,Rx,1,8,00,00,AA,EA,00,00,02,82,
30080709,000001DC,false,Rx,1,8,7D,11,8F,FD,05,34,C6,32,
30081570,000001C2,false,Rx,1,1,55,00,00,00,00,00,00,00,
30082985,000001D4,false,Rx,1,8,00,00,00,00,04,00,00,E6,
30083230,000001DA,false,Rx,1,8,AA,00,00,00,00,00,00,5C,
30083475,0000006F,false,Rx,1,8,99,B8,05,00,00,00,00,00,
30083711,00000001,false,Rx,1,8,4C,03,00,00,50,00,90,C9,
30083963,000001F2,false,Rx,1,8,00,00,00,00,00,00,00,00,
30084214,00000280,false,Rx,1,8,00,00,00,00,00,00,00,00,
30084468,00000288,false,Rx,1,8,00,30,00,00,00,00,00,00,
30084709,00000480,false,Rx,1,8,68,00,00,00,1A,00,00,72,
30087601,0000079B,false,Rx,1,8,30,01,00,FF,FF,FF,FF,FF,
30087853,00000390,false,Rx,1,8,00,00,00,00,00,01,F4,00,
30088097,0000050B,false,Rx,1,8,00,00,00,C0,00,00,00,00,
30088340,0000050C,false,Rx,1,8,00,00,00,03,B2,9A,00,00,
30088591,0000054C,false,Rx,1,8,00,00,00,00,00,00,00,78,
30090684,000001DB,false,Rx,1,8,00,00,AA,EA,00,00,03,07,
30090913,000001DC,false,Rx,1,8,7D,11,8F,FD,08,C0,CF,6B,
30091157,0000055B,false,Rx,1,8,40,00,00,00,FF,C0,11,D9,
30091392,000005BC,false,Rx,1,8,7D,00,28,8C,BA,11,20,1C,
30091591,000001C2,false,Rx,1,1,56,00,00,00,00,00,00,00,
30092990,000001D4,false,Rx,1,8,00,00,00,00,44,00,00,21,
30093228,000001DA,false,Rx,1,8,AA,00,00,00,00,00,02,D3,
30093472,0000006F,false,Rx,1,8,9B,B8,05,00,00,00,00,00,
30093708,00000001,false,Rx,1,8,4C,03,00,00,50,00,90,C9,
30093960,000001F2,false,Rx,1,8,00,00,00,00,00,00,02,00,
30094211,00000280,false,Rx,1,8,00,00,00,00,00,00,00,00,
30094463,00000288,false,Rx,1,8,00,30,00,00,00,00,00,00,
30094704,00000480,false,Rx,1,8,94,00,00,00,1A,00,00,8E,
30096995,000007BB,false,Rx,1,8,25,0D,E8,0D,E7,0D,E9,0D,
30100642,000001DB,false,Rx,1,8,00,00,AA,EA,00,00,00,0D,
30100870,000001DC,false,Rx,1,8,7D,11,8F,FD,0C,C4,D0,9F,
30101114,0000059E,false,Rx,1,8,00,00,17,01,F0,00,00,20,
30101365,000005C0,false,Rx,1,8,00,FE,FF,FF,F9,FF,E2,00,
30101595,000005EB,false,Rx,1,8,FF,0D,E8,E9,0D,3A,80,0D,
30101709,000001C2,false,Rx,1,1,57,00,00,00,00,00,00,00,
30102986,000001D4,false,Rx,1,8,00,00,00,00,84,00,00,ED,
30103230,000001DA,false,Rx,1,8,AA,00,00,00,00,00,04,C7,
30103468,0000006F,false,Rx,1,8,9D,B8,05,00,00,00,00,00,
30103711,00000001,false,Rx,1,8,4C,03,00,00,50,00,90,C9,
30103956,000001F2,false,Rx,1,8,00,00,00,00,00,00,04,00,
30104215,00000280,false,Rx,1,8,00,00,00,00,00,00,00,00,
30104460,00000288,false,Rx,1,8,00,30,00,00,00,00,00,00,
30104716,00000480,false,Rx,1,8,C0,00,00,00,1A,00,00,DA,
30110634,000001DB,false,Rx,1,8,00,00,AA,EA,00,00,01,88,
30110870,000001DC,false,Rx,1,8,7D,11,8F,FD,01,21,0D,60,
30111640,000001C2,false,Rx,1,1,58,00,00,00,00,00,00,00,
30112987,000001D4,false,Rx,1,8,00,00,00,00,C4,00,00,2A,
30113232,000001DA,false,Rx,1,8,AA,00,00,00,00,00,06,48,
30113476,0000006F,false,Rx,1,8,9E,B8,05,00,00,00,00,00,
30113712,00000001,false,Rx,1,8,4D,03,00,00,50,00,90,C9,
30113964,000001F2,false,Rx,1,8,00,00,00,00,00,00,06,00,
30114215,00000280,false,Rx,1,8,00,00,00,00,00,00,00,00,
30114467,00000288,false,Rx,1,8,00,30,00,00,00,00,00,00,
30114716,00000480,false,Rx,1,8,10,00,00,00,1A,00,00,0A,
30120587,000001DB,false,Rx,1,8,00,00,AA,EA,00,00,02,82,
30120823,000001DC,false,Rx,1,8,7D,11,8F,FD,05,34,C6,32,
30121661,000001C2,false,Rx,1,1,59,00,00,00,00,00,00,00,
30122984,000001D4,false,Rx,1,8,00,00,00,00,04,00,00,E6,
30123229,000001DA,false,Rx,1,8,AA,00,00,00,00,00,00,5C,
30123473,0000006F,false,Rx,1,8,9F,B8,05,00,00,00,00,00,
30123709,00000001,false,Rx,1,8,4D,03,00,00,50,00,90,C9,
30123961,000001F2,false,Rx,1,8,00,00,00,00,00,00,00,00,
30124212,00000280,false,Rx,1,8,00,00,00,00,00,00,00,00,
30124464,00000288,false,Rx,1,8,00,30,00,00,00,00,00,00,
30124705,00000480,false,Rx,1,8,68,00,00,00,1A,00,00,72,
30130700,000001DB,false,Rx,1,8,00,00,AA,EA,00,00,03,07,
30130928,000001DC,false,Rx,1,8,7D,11,8F,FD,08,C0,CF,6B,
30131684,000001C2,false,Rx,1,1,5A,00,00,00,00,00,00,00,
30132984,000001D4,false,Rx,1,8,00,00,00,00,44,00,00,21,
30133221,000001DA,false,Rx,1,8,AA,00,00,00,00,00,02,D3,
30133466,0000006F,false,Rx,1,8,A1,B8,05,00,00,00,00,00,
30133709,00000001,false,Rx,1,8,4C,03,00,00,50,00,90,C9,
30133962,000001F2,false,Rx,1,8,00,00,00,00,00,00,02,00,
30134213,00000280,false,Rx,1,8,00,00,00,00,00,00,00,00,
30134465,00000288,false,Rx,1,8,00,30,00,00,00,00,00,00,
30134702,00000480,false,Rx,1,8,94,00,00,00,1A,00,00,8E,
30140640,000001DB,false,Rx,1,8,00,00,AA,EA,00,00,00,0D,
30140868,000001DC,false,Rx,1,8,7D,11,8F,FD,0C,C4,D0,9F,
30141707,000001C2,false,Rx,1,1,5B,00,00,00,00,00,00,00,
30142984,000001D4,false,Rx,1,8,00,00,00,00,84,00,00,ED,
30143221,000001DA,false,Rx,1,8,AA,00,00,00,00,00,04,C7,
30143466,0000006F,false,Rx,1,8,A2,B8,05,00,00,00,00,00,
30143701,00000001,false,Rx,1,8,4D,03,00,00,50,00,90,C9,
30143954,000001F2,false,Rx,1,8,00,00,00,00,00,00,04,00,
30144205,00000280,false,Rx,1,8,00,00,00,00,00,00,00,00,
30144457,00000288,false,Rx,1,8,00,30,00,00,00,00,00,00,
30144705,00000480,false,Rx,1,8,C0,00,00,00,1A,00,00,DA,
30150760,000001DB,false,Rx,1,8,00,00,AA,EA,00,00,01,88,
30150987,000001DC,false,Rx,1,8,7D,11,8F,FD,01,21,0D,60,
30151735,000001C2,false,Rx,1,1,5C,00,00,00,00,00,00,00,
30152982,000001D4,false,Rx,1,8,00,00,00,00,C4,00,00,2A,
30153226,000001DA,false,Rx,1,8,AA,00,00,00,00,00,06,48,
30153471,0000006F,false,Rx,1,8,A4,B8,05,00,00,00,00,00,
30153714,00000001,false,Rx,1,8,4C,03,00,00,50,00,90,C9,
30153967,000001F2,false,Rx,1,8,00,00,00,00,00,00,06,00,
30154218,00000280,false,Rx,1,8,00,00,00,00,00,00,00,00,
30154462,00000288,false,Rx,1,8,00,30,00,00,00,00,00,00,
30154714,00000480,false,Rx,1,8,10,00,00,00,1A,00,00,0A,
30160701,000001DB,false,Rx,1,8,00,00,AA,EA,00,00,02,82,
30160936,000001DC,false,Rx,1,8,7D,11,8F,FD,05,34,C6,32,
30161760,000001C2,false,Rx,1,1,5D,00,00,00,00,00,00,00,
30162984,000001D4,false,Rx,1,8,00,00,00,00,04,00,00,E6,
30163221,000001DA,false,Rx,1,8,AA,00,00,00,00,00,00,5C,
30163466,0000006F,false,Rx,1,8,A5,B8,05,00,00,00,00,00,
30163709,00000001,false,Rx,1,8,4C,03,00,00,50,00,90,C9,
30163961,000001F2,false,Rx,1,8,00,00,00,00,00,00,00,00,
30164212,00000280,false,Rx,1,8,00,00,00,00,00,00,00,00,
30164457,00000288,false,Rx,1,8,00,30,00,00,00,00,00,00,
30164702,00000480,false,Rx,1,8,68,00,00,00,1A,00,00,72,
30170817,000001DB,false,Rx,1,8,00,00,AA,EA,00,00,03,07,
30171044,000001DC,false,Rx,1,8,7D,11,8F,FD,08,C0,CF,6B,
30171776,000001C2,false,Rx,1,1,5E,00,00,00,00,00,00,00,
30172978,000001D4,false,Rx,1,8,00,00,00,00,44,00,00,21,
30173222,000001DA,false,Rx,1,8,AA,00,00,00,00,00,02,D3,
30173460,0000006F,false,Rx,1,8,A6,B8,05,00,00,00,00,00,
30173704,00000001,false,Rx,1,8,4C,03,00,00,50,00,90,C9,
30173956,000001F2,false,Rx,1,8,00,00,00,00,00,00,02,00,
30174207,00000280,false,Rx,1,8,00,00,00,00,00,00,00,00,
30174453,00000288,false,Rx,1,8,00,30,00,00,00,00,00,00,
30174697,00000480,false,Rx,1,8,94,00,00,00,1A,00,00,8E,
30180751,000001DB,false,Rx,1,8,00,00,AA,EA,00,00,00,0D,
30180986,000001DC,false,Rx,1,8,7D,11,8F,FD,0C,C4,D0,9F,
30181801,000001C2,false,Rx,1,1,5F,00,00,00,00,00,00,00,
30182979,000001D4,false,Rx,1,8,00,00,00,00,84,00,00,ED,
30183216,000001DA,false,Rx,1,8,AA,00,00,00,00,00,04,C7,
30183461,0000006F,false,Rx,1,8,A7,B8,05,00,00,00,00,00,
30183697,00000001,false,Rx,1,8,4D,03,00,00,50,00,90,C9,
30183949,000001F2,false,Rx,1,8,00,00,00,00,00,00,04,00,
30184200,00000280,false,Rx,1,8,00,00,00,00,00,00,00,00,
30184452,00000288,false,Rx,1,8,00,30,00,00,00,00,00,00,
30184697,00000480,false,Rx,1,8,C0,00,00,00,1A,00,00,DA,
30187587,0000079B,false,Rx,1,8,30,01,00,FF,FF,FF,FF,FF,
30187838,00000390,false,Rx,1,8,00,00,00,00,00,01,F4,00,
30188089,0000050B,false,Rx,1,8,00,00,00,C0,00,00,00,00,
30188333,0000050C,false,Rx,1,8,00,00,00,00,B2,A6,00,00,
30188586,0000054C,false,Rx,1,8,00,00,00,00,00,00,00,78,
30191013,000001DB,false,Rx,1,8,00,00,AA,EA,00,00,01,88,
30191249,000001DC,false,Rx,1,8,7D,11,8F,FD,01,21,0D,60,
30191495,0000055B,false,Rx,1,8,40,00,00,00,FF,C0,12,D3,
30191733,000005BC,false,Rx,1,8,14,00,F0,8C,BB,01,40,C5,
30191848,000001C2,false,Rx,1,1,50,00,00,00,00,00,00,00,
30192981,000001D4,false,Rx,1,8,00,00,00,00,C4,00,00,2A,
30193225,000001DA,false,Rx,1,8,AA,00,00,00,00,00,06,48,
30193462,0000006F,false,Rx,1,8,A8,B8,05,00,00,00,00,00,
30193705,00000001,false,Rx,1,8,4C,03,00,00,50,00,90,C9,
30193957,000001F2,false,Rx,1,8,00,00,00,00,00,00,06,00,
30194208,00000280,false,Rx,1,8,00,00,00,00,00,00,00,00,
30194452,00000288,false,Rx,1,8,00,30,00,00,00,00,00,00,
30194705,00000480,false,Rx,1,8,10,00,00,00,1A,00,00,0A,
30197860,000007BB,false,Rx,1,8,26,E9,0D,E7,0D,E8,0D,E4,
30200814,000001DB,false,Rx,1,8,00,00,AA,EA,00,00,02,82,
30201041,000001DC,false,Rx,1,8,7D,11,8F,FD,05,34,C6,32,
30201848,000001C2,false,Rx,1,1,51,00,00,00,00,00,00,00,
30202982,000001D4,false,Rx,1,8,00,00,00,00,04,00,00,E6,
30203218,000001DA,false,Rx,1,8,AA,00,00,00,00,00,00,5C,
30203463,0000006F,false,Rx,1,8,AA,B8,05,00,00,00,00,00,
30203698,00000001,false,Rx,1,8,4C,03,00,00,50,00,90,C9,
30203951,000001F2,false,Rx,1,8,00,00,00,00,00,00,00,00,
30204209,00000280,false,Rx,1,8,00,00,00,00,00,00,00,00,
30204454,00000288,false,Rx,1,8,00,30,00,00,00,00,00,00,
30204699,00000480,false,Rx,1,8,68,00,00,00,1A,00,00,72,
30210893,000001DB,false,Rx,1,8,00,00,AA,EA,00,00,03,07,
30211128,000001DC,false,Rx,1,8,7D,11,8F,FD,08,C0,CF,6B,
30211882,000001C2,false,Rx,1,1,52,00,00,00,00,00,00,00,
30212979,000001D4,false,Rx,1,8,00,00,00,00,44,00,00,21,
30213214,000001DA,false,Rx,1,8,AA,00,00,00,00,00,02,D3,
30213460,0000006F,false,Rx,1,8,AB,B8,05,00,00,00,00,00,
30213704,00000001,false,Rx,1,8,4C,03,00,00,50,00,90,C9,
30213956,000001F2,false,Rx,1,8,00,00,00,00,00,00,02,00,
30214207,00000280,false,Rx,1,8,00,00,00,00,00,00,00,00,
30214453,00000288,false,Rx,1,8,00,30,00,00,00,00,00,00,
30214697,00000480,false,Rx,1,8,94,00,00,00,1A,00,00,8E,
30220865,000001DB,false,Rx,1,8,00,00,AA,EA,00,00,00,0D,
30221099,000001DC,false,Rx,1,8,7D,11,8F,FD,0C,C4,D0,9F,
30221892,000001C2,false,Rx,1,1,53,00,00,00,00,00,00,00,
30222973,000001D4,false,Rx,1,8,00,00,00,00,84,00,00,ED,
30223217,000001DA,false,Rx,1,8,AA,00,00,00,00,00,04,C7,
30223461,0000006F,false,Rx,1,8,AC,B8,05,00,00,00,00,00,
30223697,00000001,false,Rx,1,8,4D,03,00,00,50,00,90,C9,
30223949,000001F2,false,Rx,1,8,00,00,00,00,00,00,04,00,
30224200,00000280,false,Rx,1,8,00,00,00,00,00,00,00,00,
30224445,00000288,false,Rx,1,8,00,30,00,00,00,00,00,00,
30224697,00000480,false,Rx,1,8,C0,00,00,00,1A,00,00,DA,
30230888,000001DB,false,Rx,1,8,00,00,AA,EA,00,00,01,88,
30231123,000001DC,false,Rx,1,8,7D,11,8F,FD,01,21,0D,60,
30231923,000001C2,false,Rx,1,1,54,00,00,00,00,00,00,00,
30232974,000001D4,false,Rx,1,8,00,00,00,00,C4,00,00,2A,
30233217,000001DA,false,Rx,1,8,AA,00,00,00,00,00,06,48,
30233455,0000006F,false,Rx,1,8,AD,B8,05,00,00,00,00,00,
30233699,00000001,false,Rx,1,8,4C,03,00,00,50,00,90,C9,
30233950,000001F2,false,Rx,1,8,00,00,00,00,00,00,06,00,
30234201,00000280,false,Rx,1,8,00,00,00,00,00,00,00,00,
30234453,00000288,false,Rx,1,8,00,30,00,00,00,00,00,00,
30234698,00000480,false,Rx,1,8,10,00,00,00,1A,00,00,0A,
30240927,000001DB,false,Rx,1,8,00,00,AA,EA,00,00,02,82,
30241161,000001DC,false,Rx,1,8,7D,11,8F,FD,05,34,C6,32,
30241946,000001C2,false,Rx,1,1,55,00,00,00,00,00,00,00,
30242974,000001D4,false,Rx,1,8,00,00,00,00,04,00,00,E6,
30243218,000001DA,false,Rx,1,8,AA,00,00,00,00,00,00,5C,
30243455,0000006F,false,Rx,1,8,AE,B8,05,00,00,00,00,00,
30243699,00000001,false,Rx,1,8,4D,03,00,00,50,00,90,C9,
30243950,000001F2,false,Rx,1,8,00,00,00,00,00,00,00,00,
30244201,00000280,false,Rx,1,8,00,00,00,00,00,00,00,00,
30244447,00000288,false,Rx,1,8,00,30,00,00,00,00,00,00,
30244690,00000480,false,Rx,1,8,68,00,00,00,1A,00,00,72,
30250959,000001DB,false,Rx,1,8,00,00,AA,EA,00,00,03,07,
30251193,000001DC,false,Rx,1,8,7D,11,8F,FD,08,C0,CF,6B,
30251964,000001C2,false,Rx,1,1,56,00,00,00,00,00,00,00,
30252970,000001D4,false,Rx,1,8,00,00,00,00,44,00,00,21,
30253216,000001DA,false,Rx,1,8,AA,00,00,00,00,00,02,D3,
30253460,0000006F,false,Rx,1,8,AF,B8,05,00,00,00,00,00,
30253697,00000001,false,Rx,1,8,4C,03,00,00,50,00,90,C9,
30253948,000001F2,false,Rx,1,8,00,00,00,00,00,00,02,00,
30254207,00000280,false,Rx,1,8,00,00,00,00,00,00,00,00,
30254453,00000288,false,Rx,1,8,00,30,00,00,00,00,00,00,
30254697,00000480,false,Rx,1,8,94,00,00,00,1A,00,00,8E,
30260977,000001DB,false,Rx,1,8,00,00,AA,EA,00,00,00,0D,
30261212,000001DC,false,Rx,1,8,7D,11,8F,FD,0C,C4,D0,9F,
30261989,000001C2,false,Rx,1,1,57,00,00,00,00,00,00,00,
30262971,000001D4,false,Rx,1,8,00,00,00,00,84,00,00,ED,
30263209,000001DA,false,Rx,1,8,AA,00,00,00,00,00,04,C7,
30263455,0000006F,false,Rx,1,8,AF,B8,05,00,00,00,00,00,
30263700,00000001,false,Rx,1,8,4C,03,00,00,50,00,90,C9,
30263951,000001F2,false,Rx,1,8,00,00,00,00,00,00,04,00,
30264202,00000280,false,Rx,1,8,00,00,00,00,00,00,00,00,
30264449,00000288,false,Rx,1,8,00,30,00,00,00,00,00,00,
30264699,00000480,false,Rx,1,8,C0,00,00,00,1A,00,00,DA,
30271079,000001DB,false,Rx,1,8,00,00,AA,EA,00,00,01,88,
30271314,000001DC,false,Rx,1,8,7D,11,8F,FD,01,21,0D,60,
30272015,000001C2,false,Rx,1,1,58,00,00,00,00,00,00,00,
30272975,000001D4,false,Rx,1,8,00,00,00,00,C4,00,00,2A,
30273213,000001DA,false,Rx,1,8,AA,00,00,00,00,00,06,48,
30273457,0000006F,false,Rx,1,8,B0,B8,05,00,00,00,00,00,
30273694,00000001,false,Rx,1,8,4C,03,00,00,50,00,90,C9,
30273945,000001F2,false,Rx,1,8,00,00,00,00,00,00,06,00,
30274196,00000280,false,Rx,1,8,00,00,00,00,00,00,00,00,
30274450,00000288,false,Rx,1,8,00,30,00,00,00,00,00,00,
30274701,00000480,false,Rx,1,8,10,00,00,00,1A,00,00,0A,
30281034,000001DB,false,Rx,1,8,00,00,AA,EA,00,00,02,82,
30281269,000001DC,false,Rx,1,8,7D,11,8F,FD,05,34,C6,32,
30282039,000001C2,false,Rx,1,1,59,00,00,00,00,00,00,00,
30282968,000001D4,false,Rx,1,8,00,00,00,00,04,00,00,E6,
30283213,000001DA,false,Rx,1,8,AA,00,00,00,00,00,00,5C,
30283458,0000006F,false,Rx,1,8,B1,B8,05,00,00,00,00,00,
30283695,00000001,false,Rx,1,8,4C,03,00,00,50,00,90,C9,
30283946,000001F2,false,Rx,1,8,00,00,00,00,00,00,00,00,
30284197,00000280,false,Rx,1,8,00,00,00,00,00,00,00,00,
30284450,00000288,false,Rx,1,8,00,30,00,00,00,00,00,00,
30284694,00000480,false,Rx,1,8,68,00,00,00,1A,00,00,72,
30287581,0000079B,false,Rx,1,8,30,01,00,FF,FF,FF,FF,FF,
30287831,00000390,false,Rx,1,8,00,00,00,00,00,01,F4,00,
30288082,0000050B,false,Rx,1,8,00,00,00,C0,00,00,00,00,
30288319,0000050C,false,Rx,1,8,00,00,00,01,B2,31,00,00,
30288571,0000054C,false,Rx,1,8,00,00,00,00,00,00,00,78,
30291310,000001DB,false,Rx,1,8,00,00,AA,EA,00,00,03,07,
30291547,000001DC,false,Rx,1,8,7D,11,8F,FD,08,C0,CF,6B,
30291784,0000055B,false,Rx,1,8,40,00,00,00,FF,C0,13,56,
30292012,000005BC,false,Rx,1,8,7D,00,F0,8C,BB,11,61,80,
30292128,000001C2,false,Rx,1,1,5A,00,00,00,00,00,00,00,
30292973,000001D4,false,Rx,1,8,00,00,00,00,44,00,00,21,
30293209,000001DA,false,Rx,1,8,AA,00,00,00,00,00,02,D3,
30293453,0000006F,false,Rx,1,8,B2,B8,05,00,00,00,00,00,
30293691,00000001,false,Rx,1,8,4C,03,00,00,50,00,90,C9,
30293950,000001F2,false,Rx,1,8,00,00,00,00,00,00,02,00,
30294201,00000280,false,Rx,1,8,00,00,00,00,00,00,00,00,
30294447,00000288,false,Rx,1,8,00,30,00,00,00,00,00,00,
30294691,00000480,false,Rx,1,8,94,00,00,00,1A,00,00,8E,
30298244,000007BB,false,Rx,1,8,27,0D,E7,0D,E9,0D,E9,0D,
30301090,000001DB,false,Rx,1,8,00,00,AA,EA,00,00,00,0D,
30301318,000001DC,false,Rx,1,8,7D,11,8F,FD,0C,C4,D0,9F,
30302080,000001C2,false,Rx,1,1,5B,00,00,00,00,00,00,00,
30302970,000001D4,false,Rx,1,8,00,00,00,00,84,00,00,ED,
30303208,000001DA,false,Rx,1,8,AA,00,00,00,00,00,04,C7,
30303453,0000006F,false,Rx,1,8,B3,B8,05,00,00,00,00,00,
30303690,00000001,false,Rx,1,8,4C,03,00,00,50,00,90,C9,
30303941,000001F2,false,Rx,1,8,00,00,00,00,00,00,04,00,
30304192,00000280,false,Rx,1,8,00,00,00,00,00,00,00,00,
30304445,00000288,false,Rx,1,8,00,30,00,00,00,00,00,00,
30304689,00000480,false,Rx,1,8,C0,00,00,00,1A,00,00,DA,
30311161,000001DB,false,Rx,1,8,00,00,AA,EA,00,00,01,88,
30311398,000001DC,false,Rx,1,8,7D,11,8F,FD,01,21,0D,60,
30312106,000001C2,false,Rx,1,1,5C,00,00,00,00,00,00,00,
30312965,000001D4,false,Rx,1,8,00,00,00,00,C4,00,00,2A,
30313211,000001DA,false,Rx,1,8,AA,00,00,00,00,00,06,48,
30313448,0000006F,false,Rx,1,8,B4,B8,05,00,00,00,00,00,
30313693,00000001,false,Rx,1,8,4C,03,00,00,50,00,90,C9,
30313944,000001F2,false,Rx,1,8,00,00,00,00,00,00,06,00,
30314195,00000280,false,Rx,1,8,00,00,00,00,00,00,00,00,
30314441,00000288,false,Rx,1,8,00,30,00,00,00,00,00,00,
30314692,00000480,false,Rx,1,8,10,00,00,00,1A,00,00,0A,
30321147,000001DB,false,Rx,1,8,00,00,AA,EA,00,00,02,82,
30321375,000001DC,false,Rx,1,8,7D,11,8F,FD,05,34,C6,32,
30322130,000001C2,false,Rx,1,1,5D,00,00,00,00,00,00,00,
30322967,000001D4,false,Rx,1,8,00,00,00,00,04,00,00,E6,
30323205,000001DA,false,Rx,1,8,AA,00,00,00,00,00,00,5C,
30323450,0000006F,false,Rx,1,8,B4,B8,05,00,00,00,00,00,
30323687,00000001,false,Rx,1,8,4C,03,00,00,50,00,90,C9,
30323945,000001F2,false,Rx,1,8,00,00,00,00,00,00,00,00,
30324196,00000280,false,Rx,1,8,00,00,00,00,00,00,00,00,
30324442,00000288,false,Rx,1,8,00,30,00,00,00,00,00,00,
30324685,00000480,false,Rx,1,8,68,00,00,00,1A,00,00,72,
30331179,000001DB,false,Rx,1,8,00,00,AA,EA,00,00,03,07,
30331415,000001DC,false,Rx,1,8,7D,11,8F,FD,08,C0,CF,6B,
30332154,000001C2,false,Rx,1,1,5E,00,00,00,00,00,00,00,
30332968,000001D4,false,Rx,1,8,00,00,00,00,44,00,00,21,
30333204,000001DA,false,Rx,1,8,AA,00,00,00,00,00,02,D3,
30333445,0000006F,false,Rx,1,8,B5,B8,05,00,00,00,00,00,
30333690,00000001,false,Rx,1,8,4C,03,00,00,50,00,90,C9,
30333941,000001F2,false,Rx,1,8,00,00,00,00,00,00,02,00,
30334192,00000280,false,Rx,1,8,00,00,00,00,00,00,00,00,
30334445,00000288,false,Rx,1,8,00,30,00,00,00,00,00,00,
30334681,00000480,false,Rx,1,8,94,00,00,00,1A,00,00,8E,
30341194,000001DB,false,Rx,1,8,00,00,AA,EA,00,00,00,0D,
30341432,000001DC,false,Rx,1,8,7D,11,8F,FD,0C,C4,D0,9F,
30342178,000001C2,false,Rx,1,1,5F,00,00,00,00,00,00,00,
30342963,000001D4,false,Rx,1,8,00,00,00,00,84,00,00,ED,
30343206,000001DA,false,Rx,1,8,AA,00,00,00,00,00,04,C7,
30343447,0000006F,false,Rx,1,8,B6,B8,05,00,00,00,00,00,
30343684,00000001,false,Rx,1,8,4C,03,00,00,50,00,90,C9,
30343935,000001F2,false,Rx,1,8,00,00,00,00,00,00,04,00,
30344186,00000280,false,Rx,1,8,00,00,00,00,00,00,00,00,
30344440,00000288,false,Rx,1,8,00,30,00,00,00,00,00,00,
30344683,00000480,false,Rx,1,8,C0,00,00,00,1A,00,00,DA,
30351289,000001DB,false,Rx,1,8,00,00,AA,EA,00,00,01,88,
30351525,000001DC,false,Rx,1,8,7D,11,8F,FD,01,21,0D,60,
30352203,000001C2,false,Rx,1,1,50,00,00,00,00,00,00,00,
30352963,000001D4,false,Rx,1,8,00,00,00,00,C4,00,00,2A,
30353207,000001DA,false,Rx,1,8,AA,00,00,00,00,00,06,48,
30353448,0000006F,false,Rx,1,8,B7,B8,05,00,00,00,00,00,
30353685,00000001,false,Rx,1,8,4C,03,00,00,50,00,90,C9,
30353936,000001F2,false,Rx,1,8,00,00,00,00,00,00,06,00,
30354187,00000280,false,Rx,1,8,00,00,00,00,00,00,00,00,
30354441,00000288,false,Rx,1,8,00,30,00,00,00,00,00,00,
30354692,00000480,false,Rx,1,8,10,00,00,00,1A,00,00,0A,
30361251,000001DB,false,Rx,1,8,00,00,AA,EA,00,00,02,82,
30361487,000001DC,false,Rx,1,8,7D,11,8F,FD,05,34,C6,32,
30362225,000001C2,false,Rx,1,1,51,00,00,00,00,00,00,00,
30362963,000001D4,false,Rx,1,8,00,00,00,00,04,00,00,E6,
30363206,000001DA,false,Rx,1,8,AA,00,00,00,00,00,00,5C,
30363448,0000006F,false,Rx,1,8,B7,B8,05,00,00,00,00,00,
30363685,00000001,false,Rx,1,8,4D,03,00,00,50,00,90,C9,
30363936,000001F2,false,Rx,1,8,00,00,00,00,00,00,00,00,
30364187,00000280,false,Rx,1,8,00,00,00,00,00,00,00,00,
30364440,00000288,false,Rx,1,8,00,30,00,00,00,00,00,00,
30364683,00000480,false,Rx,1,8,68,00,00,00,1A,00,00,72,
30371359,000001DB,false,Rx,1,8,00,00,AA,EA,00,00,03,07,
30371594,000001DC,false,Rx,1,8,7D,11,8F,FD,08,C0,CF,6B,
30372249,000001C2,false,Rx,1,1,52,00,00,00,00,00,00,00,
30372958,000001D4,false,Rx,1,8,00,00,00,00,44,00,00,21,
30373201,000001DA,false,Rx,1,8,AA,00,00,00,00,00,02,D3,
30373443,0000006F,false,Rx,1,8,B8,B8,05,00,00,00,00,00,
30373687,00000001,false,Rx,1,8,4C,03,00,00,50,00,90,C9,
30373938,000001F2,false,Rx,1,8,00,00,00,00,00,00,02,00,
30374189,00000280,false,Rx,1,8,00,00,00,00,00,00,00,00,
30374435,00000288,false,Rx,1,8,00,30,00,00,00,00,00,00,
30374678,00000480,false,Rx,1,8,94,00,00,00,1A,00,00,8E,
30381308,000001DB,false,Rx,1,8,00,00,AA,EA,00,00,00,0D,
30381544,000001DC,false,Rx,1,8,7D,11,8F,FD,0C,C4,D0,9F,
30382267,000001C2,false,Rx,1,1,53,00,00,00,00,00,00,00,
30382959,000001D4,false,Rx,1,8,00,00,00,00,84,00,00,ED,
30383202,000001DA,false,Rx,1,8,AA,00,00,00,00,00,04,C7,
30383445,0000006F,false,Rx,1,8,B9,B8,05,00,00,00,00,00,
30383682,00000001,false,Rx,1,8,4D,03,00,00,50,00,90,C9,
30383933,000001F2,false,Rx,1,8,00,00,00,00,00,00,04,00,
30384184,00000280,false,Rx,1,8,00,00,00,00,00,00,00,00,
30384438,00000288,false,Rx,1,8,00,30,00,00,00,00,00,00,
30384681,00000480,false,Rx,1,8,C0,00,00,00,1A,00,00,DA,
30387572,0000079B,false,Rx,1,8,30,01,00,FF,FF,FF,FF,FF,
30387822,00000390,false,Rx,1,8,00,00,00,00,00,01,F4,00,
30388074,0000050B,false,Rx,1,8,00,00,00,C0,00,00,00,00,
30388317,0000050C,false,Rx,1,8,00,00,00,02,B2,0D,00,00,
30388569,0000054C,false,Rx,1,8,00,00,00,00,00,00,00,78,
30391516,000001DB,false,Rx,1,8,00,00,AA,EA,00,00,01,88,
30391750,000001DC,false,Rx,1,8,7D,11,8F,FD,01,21,0D,60,
30391995,0000055B,false,Rx,1,8,40,00,00,00,FF,C0,10,5C,
30392231,000005BC,false,Rx,1,8,14,00,F0,8C,BB,01,82,82,
30392345,000001C2,false,Rx,1,1,54,00,00,00,00,00,00,00,
30392961,000001D4,false,Rx,1,8,00,00,00,00,C4,00,00,2A,
30393205,000001DA,false,Rx,1,8,AA,00,00,00,00,00,06,48,
30393450,0000006F,false,Rx,1,8,B9,B8,05,00,00,00,00,00,
30393689,00000001,false,Rx,1,8,4C,03,00,00,50,00,90,C9,
30393940,000001F2,false,Rx,1,8,00,00,00,00,00,00,06,00,
30394191,00000280,false,Rx,1,8,00,00,00,00,00,00,00,00,
30394437,00000288,false,Rx,1,8,00,30,00,00,00,00,00,00,
30394688,00000480,false,Rx,1,8,10,00,00,00,1A,00,00,0A,
30398050,000007BB,false,Rx,1,8,28,E7,0D,E7,0D,E7,0D,E9,
30401364,000001DB,false,Rx,1,8,00,00,AA,EA,00,00,02,82,
30401599,000001DC,false,Rx,1,8,7D,11,8F,FD,05,34,C6,32,
30402315,000001C2,false,Rx,1,1,55,00,00,00,00,00,00,00,
30402955,000001D4,false,Rx,1,8,00,00,00,00,04,00,00,E6,
30403198,000001DA,false,Rx,1,8,AA,00,00,00,00,00,00,5C,
30403441,0000006F,false,Rx,1,8,BA,B8,05,00,00,00,00,00,
30403684,00000001,false,Rx,1,8,4C,03,00,00,50,00,90,C9,
30403935,000001F2,false,Rx,1,8,00,00,00,00,00,00,00,00,
30404188,00000280,false,Rx,1,8,00,00,00,00,00,00,00,00,
30404440,00000288,false,Rx,1,8,00,30,00,00,00,00,00,00,
30404683,00000480,false,Rx,1,8,68,00,00,00,1A,00,00,72,
30411480,000001DB,false,Rx,1,8,00,00,AA,EA,00,00,03,07,
30411715,000001DC,false,Rx,1,8,7D,11,8F,FD,08,C0,CF,6B,
30412340,000001C2,false,Rx,1,1,56,00,00,00,00,00,00,00,
30412956,000001D4,false,Rx,1,8,00,00,00,00,44,00,00,21,
30413200,000001DA,false,Rx,1,8,AA,00,00,00,00,00,02,D3,
30413438,0000006F,false,Rx,1,8,BA,B8,05,00,00,00,00,00,
30413681,00000001,false,Rx,1,8,4C,03,00,00,50,00,90,C9,
30413932,000001F2,false,Rx,1,8,00,00,00,00,00,00,02,00,
30414184,00000280,false,Rx,1,8,00,00,00,00,00,00,00,00,
30414437,00000288,false,Rx,1,8,00,30,00,00,00,00,00,00,
30414673,00000480,false,Rx,1,8,94,00,00,00,1A,00,00,8E,
30421416,000001DB,false,Rx,1,8,00,00,AA,EA,00,00,00,0D,
30421650,000001DC,false,Rx,1,8,7D,11,8F,FD,0C,C4,D0,9F,
30422358,000001C2,false,Rx,1,1,57,00,00,00,00,00,00,00,
30422952,000001D4,false,Rx,1,8,00,00,00,00,84,00,00,ED,
30423195,000001DA,false,Rx,1,8,AA,00,00,00,00,00,04,C7,
30423441,0000006F,false,Rx,1,8,BB,B8,05,00,00,00,00,00,
30423676,00000001,false,Rx,1,8,4C,03,00,00,50,00,90,C9,
30423927,000001F2,false,Rx,1,8,00,00,00,00,00,00,04,00,
30424179,00000280,false,Rx,1,8,00,00,00,00,00,00,00,00,
30424432,00000288,false,Rx,1,8,00,30,00,00,00,00,00,00,
30424676,00000480,false,Rx,1,8,C0,00,00,00,1A,00,00,DA,
30431532,000001DB,false,Rx,1,8,00,00,AA,EA,00,00,01,88,
30431766,000001DC,false,Rx,1,8,7D,11,8F,FD,01,21,0D,60,
30432383,000001C2,false,Rx,1,1,58,00,00,00,00,00,00,00,
30432955,000001D4,false,Rx,1,8,00,00,00,00,C4,00,00,2A,
30433199,000001DA,false,Rx,1,8,AA,00,00,00,00,00,06,48,
30433437,0000006F,false,Rx,1,8,BB,B8,05,00,00,00,00,00,
30433679,00000001,false,Rx,1,8,4D,03,00,00,50,00,90,C9,
30433930,000001F2,false,Rx,1,8,00,00,00,00,00,00,06,00,
30434183,00000280,false,Rx,1,8,00,00,00,00,00,00,00,00,
30434427,00000288,false,Rx,1,8,00,30,00,00,00,00,00,00,
30434678,00000480,false,Rx,1,8,10,00,00,00,1A,00,00,0A,
30441475,000001DB,false,Rx,1,8,00,00,AA,EA,00,00,02,82,
30441710,000001DC,false,Rx,1,8,7D,11,8F,FD,05,34,C6,32,
30442405,000001C2,false,Rx,1,1,59,00,00,00,00,00,00,00,
30442952,000001D4,false,Rx,1,8,00,00,00,00,04,00,00,E6,
30443196,000001DA,false,Rx,1,8,AA,00,00,00,00,00,00,5C,
30443441,0000006F,false,Rx,1,8,BC,B8,05,00,00,00,00,00,
30443676,00000001,false,Rx,1,8,4C,03,00,00,50,00,90,C9,
30443935,000001F2,false,Rx,1,8,00,00,00,00,00,00,00,00,
30444187,00000280,false,Rx,1,8,00,00,00,00,00,00,00,00,
30444432,00000288,false,Rx,1,8,00,30,00,00,00,00,00,00,
30444675,00000480,false,Rx,1,8,68,00,00,00,1A,00,00,72,
30451593,000001DB,false,Rx,1,8,00,00,AA,EA,00,00,03,07,
30451829,000001DC,false,Rx,1,8,7D,11,8F,FD,08,C0,CF,6B,
30452431,000001C2,false,Rx,1,1,5A,00,00,00,00,00,00,00,
30452955,000001D4,false,Rx,1,8,00,00,00,00,44,00,00,21,
30453191,000001DA,false,Rx,1,8,AA,00,00,00,00,00,02,D3,
30453437,0000006F,false,Rx,1,8,BC,B8,05,00,00,00,00,00,
30453680,00000001,false,Rx,1,8,4C,03,00,00,50,00,90,C9,
30453931,000001F2,false,Rx,1,8,00,00,00,00,00,00,02,00,
30454183,00000280,false,Rx,1,8,00,00,00,00,00,00,00,00,
30454435,00000288,false,Rx,1,8,00,30,00,00,00,00,00,00,
30454671,00000480,false,Rx,1,8,94,00,00,00,1A,00,00,8E,
30461534,000001DB,false,Rx,1,8,00,00,AA,EA,00,00,00,0D,
30461761,000001DC,false,Rx,1,8,7D,11,8F,FD,0C,C4,D0,9F,
30462455,000001C2,false,Rx,1,1,5B,00,00,00,00,00,00,00,
30462949,000001D4,false,Rx,1,8,00,00,00,00,84,00,00,ED,
30463192,000001DA,false,Rx,1,8,AA,00,00,00,00,00,04,C7,
30463430,0000006F,false,Rx,1,8,BD,B8,05,00,00,00,00,00,
30463673,00000001,false,Rx,1,8,4C,03,00,00,50,00,90,C9,
30463924,000001F2,false,Rx,1,8,00,00,00,00,00,00,04,00,
30464176,00000280,false,Rx,1,8,00,00,00,00,00,00,00,00,
30464428,00000288,false,Rx,1,8,00,30,00,00,00,00,00,00,
30464671,00000480,false,Rx,1,8,C0,00,00,00,1A,00,00,DA,
30471626,000001DB,false,Rx,1,8,00,00,AA,EA,00,00,01,88,
30471854,000001DC,false,Rx,1,8,7D,11,8F,FD,01,21,0D,60,
30472478,000001C2,false,Rx,1,1,5C,00,00,00,00,00,00,00,
30472949,000001D4,false,Rx,1,8,00,00,00,00,C4,00,00,2A,
30473193,000001DA,false,Rx,1,8,AA,00,00,00,00,00,06,48,
30473432,0000006F,false,Rx,1,8,BD,B8,05,00,00,00,00,00,
30473675,00000001,false,Rx,1,8,4C,03,00,00,50,00,90,C9,
30473926,000001F2,false,Rx,1,8,00,00,00,00,00,00,06,00,
30474178,00000280,false,Rx,1,8,00,00,00,00,00,00,00,00,
30474430,00000288,false,Rx,1,8,00,30,00,00,00,00,00,00,
30474681,00000480,false,Rx,1,8,10,00,00,00,1A,00,00,0A,
30481590,000001DB,false,Rx,1,8,00,00,AA,EA,00,00,02,82,
30481826,000001DC,false,Rx,1,8,7D,11,8F,FD,05,34,C6,32,
30482504,000001C2,false,Rx,1,1,5D,00,00,00,00,00,00,00,
30482952,000001D4,false,Rx,1,8,00,00,00,00,04,00,00,E6,
30483195,000001DA,false,Rx,1,8,AA,00,00,00,00,00,00,5C,
30483441,0000006F,false,Rx,1,8,BE,B8,05,00,00,00,00,00,
30483683,00000001,false,Rx,1,8,4C,03,00,00,50,00,90,C9,
30483934,000001F2,false,Rx,1,8,00,00,00,00,00,00,00,00,
30484187,00000280,false,Rx,1,8,00,00,00,00,00,00,00,00,
30484432,00000288,false,Rx,1,8,00,30,00,00,00,00,00,00,
30484676,00000480,false,Rx,1,8,68,00,00,00,1A,00,00,72,
30487564,0000079B,false,Rx,1,8,30,01,00,FF,FF,FF,FF,FF,
30487814,00000390,false,Rx,1,8,00,00,00,00,00,01,F4,00,
30488058,0000050B,false,Rx,1,8,00,00,00,C0,00,00,00,00,
30488302,0000050C,false,Rx,1,8,00,00,00,03,B2,9A,00,00,
30488554,0000054C,false,Rx,1,8,00,00,00,00,00,00,00,78,
30491769,000001DB,false,Rx,1,8,00,00,AA,EA,00,00,03,07,
30491996,000001DC,false,Rx,1,8,7D,11,8F,FD,08,C0,CF,6B,
30492239,0000055B,false,Rx,1,8,40,00,00,00,FF,C0,11,D9,
30492468,000005BC,false,Rx,1,8,7D,00,F0,8C,BB,11,A0,5E,
30492584,000001C2,false,Rx,1,1,5E,00,00,00,00,00,00,00,
30492947,000001D4,false,Rx,1,8,00,00,00,00,44,00,00,21,
30493191,000001DA,false,Rx,1,8,AA,00,00,00,00,00,02,D3,
30493437,0000006F,false,Rx,1,8,BE,B8,05,00,00,00,00,00,
30493680,00000001,false,Rx,1,8,4C,03,00,00,50,00,90,C9,
30493929,000001F2,false,Rx,1,8,00,00,00,00,00,00,02,00,
30494182,00000280,false,Rx,1,8,00,00,00,00,00,00,00,00,
30494434,00000288,false,Rx,1,8,00,30,00,00,00,00,00,00,
30494670,00000480,false,Rx,1,8,94,00,00,00,1A,00,00,8E,
30498827,000007BB,false,Rx,1,8,29,0D,EA,0D,E8,0D,E7,0D,
30501642,000001DB,false,Rx,1,8,00,00,AA,EA,00,00,00,0D,
30501877,000001DC,false,Rx,1,8,7D,11,8F,FD,0C,C4,D0,9F,
30502548,000001C2,false,Rx,1,1,5F,00,00,00,00,00,00,00,
30502950,000001D4,false,Rx,1,8,00,00,00,00,84,00,00,ED,
30503186,000001DA,false,Rx,1,8,AA,00,00,00,00,00,04,C7,
30503432,0000006F,false,Rx,1,8,BF,B8,05,00,00,00,00,00,
30503690,00000001,false,Rx,1,8,4C,03,00,00,50,00,90,C9,
30503925,000001F2,false,Rx,1,8,00,00,00,00,00,00,04,00,
30504178,00000280,false,Rx,1,8,00,00,00,00,00,00,00,00,
30504422,00000288,false,Rx,1,8,00,30,00,00,00,00,00,00,
30504673,00000480,false,Rx,1,8,C0,00,00,00,1A,00,00,DA,
30511667,000001DB,false,Rx,1,8,00,00,AA,EA,00,00,01,88,
30511903,000001DC,false,Rx,1,8,7D,11,8F,FD,01,21,0D,60,
30512574,000001C2,false,Rx,1,1,50,00,00,00,00,00,00,00,
30512945,000001D4,false,Rx,1,8,00,00,00,00,C4,00,00,2A,
30513188,000001DA,false,Rx,1,8,AA,00,00,00,00,00,06,48,
30513434,0000006F,false,Rx,1,8,BF,B8,05,00,00,00,00,00,
30513670,00000001,false,Rx,1,8,4C,03,00,00,50,00,90,C9,
30513922,000001F2,false,Rx,1,8,00,00,00,00,00,00,06,00,
30514174,00000280,false,Rx,1,8,00,00,00,00,00,00,00,00,
30514426,00000288,false,Rx,1,8,00,30,00,00,00,00,00,00,
30514677,00000480,false,Rx,1,8,10,00,00,00,1A,00,00,0A,
30521699,000001DB,false,Rx,1,8,00,00,AA,EA,00,00,02,82,
30521933,000001DC,false,Rx,1,8,7D,11,8F,FD,05,34,C6,32,
30522591,000001C2,false,Rx,1,1,51,00,00,00,00,00,00,00,
30522946,000001D4,false,Rx,1,8,00,00,00,00,04,00,00,E6,
30523190,000001DA,false,Rx,1,8,AA,00,00,00,00,00,00,5C,
30523428,0000006F,false,Rx,1,8,C0,B8,05,00,00,00,00,00,
30523671,00000001,false,Rx,1,8,4D,03,00,00,50,00,90,C9,
30523923,000001F2,false,Rx,1,8,00,00,00,00,00,00,00,00,
30524176,00000280,false,Rx,1,8,00,00,00,00,00,00,00,00,
30524428,00000288,false,Rx,1,8,00,30,00,00,00,00,00,00,
30524671,00000480,false,Rx,1,8,68,00,00,00,1A,00,00,72,
30531753,000001DB,false,Rx,1,8,00,00,AA,EA,00,00,03,07,
30531980,000001DC,false,Rx,1,8,7D,11,8F,FD,08,C0,CF,6B,
30532621,000001C2,false,Rx,1,1,52,00,00,00,00,00,00,00,
30532947,000001D4,false,Rx,1,8,00,00,00,00,44,00,00,21,
30533182,000001DA,false,Rx,1,8,AA,00,00,00,00,00,02,D3,
30533428,0000006F,false,Rx,1,8,C0,B8,05,00,00,00,00,00,
30533671,00000001,false,Rx,1,8,4C,03,00,00,50,00,90,C9,
30533924,000001F2,false,Rx,1,8,00,00,00,00,00,00,02,00,
30534176,00000280,false,Rx,1,8,00,00,00,00,00,00,00,00,
30534420,00000288,false,Rx,1,8,00,30,00,00,00,00,00,00,
30534664,00000480,false,Rx,1,8,94,00,00,00,1A,00,00,8E,
30541748,000001DB,false,Rx,1,8,00,00,AA,EA,00,00,00,0D,
30541982,000001DC,false,Rx,1,8,7D,11,8F,FD,0C,C4,D0,9F,
30542638,000001C2,false,Rx,1,1,53,00,00,00,00,00,00,00,
30542941,000001D4,false,Rx,1,8,00,00,00,00,84,00,00,ED,
30543184,000001DA,false,Rx,1,8,AA,00,00,00,00,00,04,C7,
30543430,0000006F,false,Rx,1,8,C0,B8,05,00,00,00,00,00,
30543666,00000001,false,Rx,1,8,4C,03,00,00,50,00,90,C9,
30543918,000001F2,false,Rx,1,8,00,00,00,00,00,00,04,00,
30544170,00000280,false,Rx,1,8,00,00,00,00,00,00,00,00,
30544422,00000288,false,Rx,1,8,00,30,00,00,00,00,00,00,
30544666,00000480,false,Rx,1,8,C0,00,00,00,1A,00,00,DA,
30551865,000001DB,false,Rx,1,8,00,00,AA,EA,00,00,01,88,
30552099,000001DC,false,Rx,1,8,7D,11,8F,FD,01,21,0D,60,
30552664,000001C2,false,Rx,1,1,54,00,00,00,00,00,00,00,
30552944,000001D4,false,Rx,1,8,00,00,00,00,C4,00,00,2A,
30553188,000001DA,false,Rx,1,8,AA,00,00,00,00,00,06,48,
30553433,0000006F,false,Rx,1,8,C1,B8,05,00,00,00,00,00,
30553676,00000001,false,Rx,1,8,4D,03,00,00,50,00,90,C9,
30553921,000001F2,false,Rx,1,8,00,00,00,00,00,00,06,00,
30554173,00000280,false,Rx,1,8,00,00,00,00,00,00,00,00,
30554425,00000288,false,Rx,1,8,00,30,00,00,00,00,00,00,
30554676,00000480,false,Rx,1,8,10,00,00,00,1A,00,00,0A,
30561812,000001DB,false,Rx,1,8,00,00,AA,EA,00,00,02,82,
30562046,000001DC,false,Rx,1,8,7D,11,8F,FD,05,34,C6,32,
30562688,000001C2,false,Rx,1,1,55,00,00,00,00,00,00,00,
30562945,000001D4,false,Rx,1,8,00,00,00,00,04,00,00,E6,
30563182,000001DA,false,Rx,1,8,AA,00,00,00,00,00,00,5C,
30563434,0000006F,false,Rx,1,8,C1,B8,05,00,00,00,00,00,
30563670,00000001,false,Rx,1,8,4D,03,00,00,50,00,90,C9,
30563922,000001F2,false,Rx,1,8,00,00,00,00,00,00,00,00,
30564174,00000280,false,Rx,1,8,00,00,00,00,00,00,00,00,
30564426,00000288,false,Rx,1,8,00,30,00,00,00,00,00,00,
30564670,00000480,false,Rx,1,8,68,00,00,00,1A,00,00,72,
30571936,000001DB,false,Rx,1,8,00,00,AA,EA,00,00,03,07,
30572171,000001DC,false,Rx,1,8,7D,11,8F,FD,08,C0,CF,6B,
30572706,000001C2,false,Rx,1,1,56,00,00,00,00,00,00,00,
30572955,000001D4,false,Rx,1,8,00,00,00,00,44,00,00,21,
30573192,000001DA,false,Rx,1,8,AA,00,00,00,00,00,02,D3,
30573445,0000006F,false,Rx,1,8,C1,B8,05,00,00,00,00,00,
30573680,00000001,false,Rx,1,8,4D,03,00,00,50,00,90,C9,
30573933,000001F2,false,Rx,1,8,00,00,00,00,00,00,02,00,
30574187,00000280,false,Rx,1,8,00,00,00,00,00,00,00,00,
30574432,00000288,false,Rx,1,8,00,30,00,00,00,00,00,00,
30574676,00000480,false,Rx,1,8,94,00,00,00,1A,00,00,8E,
30581862,000001DB,false,Rx,1,8,00,00,AA,EA,00,00,00,0D,
30582097,000001DC,false,Rx,1,8,7D,11,8F,FD,0C,C4,D0,9F,
30582730,000001C2,false,Rx,1,1,57,00,00,00,00,00,00,00,
30582979,000001D4,false,Rx,1,8,00,00,00,00,84,00,00,ED,
30583216,000001DA,false,Rx,1,8,AA,00,00,00,00,00,04,C7,
30583461,0000006F,false,Rx,1,8,C2,B8,05,00,00,00,00,00,
30583704,00000001,false,Rx,1,8,4D,03,00,00,50,00,90,C9,
30583950,000001F2,false,Rx,1,8,00,00,00,00,00,00,04,00,
30584201,00000280,false,Rx,1,8,00,00,00,00,00,00,00,00,
30584453,00000288,false,Rx,1,8,00,30,00,00,00,00,00,00,
30584698,00000480,false,Rx,1,8,C0,00,00,00,1A,00,00,DA,
30587554,0000079B,false,Rx,1,8,30,01,00,FF,FF,FF,FF,FF,
30587799,00000390,false,Rx,1,8,00,00,00,00,00,01,F4,00,
30588051,0000050B,false,Rx,1,8,00,00,00,C0,00,00,00,00,
30588294,0000050C,false,Rx,1,8,00,00,00,00,B2,A6,00,00,
30588547,0000054C,false,Rx,1,8,00,00,00,00,00,00,00,78,
30592040,000001DB,false,Rx,1,8,00,00,AA,EA,00,00,01,88,
30592267,000001DC,false,Rx,1,8,7D,11,8F,FD,01,21,0D,60,
30592513,0000055B,false,Rx,1,8,40,00,00,00,FF,C0,12,D3,
30592749,000005BC,false,Rx,1,8,14,00,F0,8C,BB,01,C2,75,
30592863,000001C2,false,Rx,1,1,58,00,00,00,00,00,00,00,
30593114,000001D4,false,Rx,1,8,00,00,00,00,C4,00,00,2A,
30593350,000001DA,false,Rx,1,8,AA,00,00,00,00,00,06,48,
30593594,0000006F,false,Rx,1,8,C2,B8,05,00,00,00,00,00,
30593838,00000001,false,Rx,1,8,4C,03,00,00,50,00,90,C9,
30594095,000001F2,false,Rx,1,8,00,00,00,00,00,00,06,00,
30594339,00000280,false,Rx,1,8,00,00,00,00,00,00,00,00,
30594592,00000288,false,Rx,1,8,00,30,00,00,00,00,00,00,
30594836,00000480,false,Rx,1,8,10,00,00,00,1A,00,00,0A,
30598671,000007BB,false,Rx,1,8,2A,E6,0D,E9,0D,E8,0D,E8,
30602039,000001DB,false,Rx,1,8,00,00,AA,EA,00,00,02,82,
30602266,000001DC,false,Rx,1,8,7D,11,8F,FD,05,34,C6,32,
30602511,0000059E,false,Rx,1,8,00,00,17,01,F0,00,00,20,
30602762,000005C0,false,Rx,1,8,00,FE,FF,FF,F9,FF,E2,00,
30602876,000001C2,false,Rx,1,1,59,00,00,00,00,00,00,00,
30603120,000001D4,false,Rx,1,8,00,00,00,00,04,00,00,E6,
30603363,000001DA,false,Rx,1,8,AA,00,00,00,00,00,00,5C,
30603608,0000006F,false,Rx,1,8,C2,B8,05,00,00,00,00,00,
30603843,00000001,false,Rx,1,8,4B,03,00,00,50,00,90,C9,
30604093,000001F2,false,Rx,1,8,00,00,00,00,00,00,00,00,
30604344,00000280,false,Rx,1,8,00,00,00,00,00,00,00,00,
30604597,00000288,false,Rx,1,8,00,30,00,00,00,00,00,00,
30604841,00000480,false,Rx,1,8,68,00,00,00,1A,00,00,72,
30605069,000005EB,false,Rx,1,8,FF,0D,E8,E9,0D,3A,80,0D,
30612003,000001DB,false,Rx,1,8,00,00,AA,EA,00,00,03,07,
30612230,000001DC,false,Rx,1,8,7D,11,8F,FD,08,C0,CF,6B,
30612802,000001C2,false,Rx,1,1,5A,00,00,00,00,00,00,00,
30613044,000001D4,false,Rx,1,8,00,00,00,00,44,00,00,21,
30613289,000001DA,false,Rx,1,8,AA,00,00,00,00,00,02,D3,
30613533,0000006F,false,Rx,1,8,C3,B8,05,00,00,00,00,00,
30613769,00000001,false,Rx,1,8,4C,03,00,00,50,00,90,C9,
30614021,000001F2,false,Rx,1,8,00,00,00,00,00,00,02,00,
30614275,00000280,false,Rx,1,8,00,00,00,00,00,00,00,00,
30614528,00000288,false,Rx,1,8,00,30,00,00,00,00,00,00,
30614765,00000480,false,Rx,1,8,94,00,00,00,1A,00,00,8E,
30621975,000001DB,false,Rx,1,8,00,00,AA,EA,00,00,00,0D,
30622209,000001DC,false,Rx,1,8,7D,11,8F,FD,0C,C4,D0,9F,
30622933,000001D4,false,Rx,1,8,00,00,00,00,84,00,00,ED,
30623048,000001C2,false,Rx,1,1,5B,00,00,00,00,00,00,00,
30623291,0000006F,false,Rx,1,8,C3,B8,05,00,00,00,00,00,
30623535,000001DA,false,Rx,1,8,AA,00,00,00,00,00,04,C7,
30623771,00000001,false,Rx,1,8,52,03,00,00,50,00,90,C9,
30624025,000001F2,false,Rx,1,8,00,00,00,00,00,00,04,00,
30624276,00000280,false,Rx,1,8,00,00,00,00,00,00,00,00,
30624521,00000288,false,Rx,1,8,00,30,00,00,00,00,00,00,
30624773,00000480,false,Rx,1,8,C0,00,00,00,1A,00,00,DA,
30632068,000001DB,false,Rx,1,8,00,00,AA,EA,00,00,01,88,
30632304,000001DC,false,Rx,1,8,7D,11,8F,FD,01,21,0D,60,
30632936,000001D4,false,Rx,1,8,00,00,00,00,C4,00,00,2A,
30633051,000001C2,false,Rx,1,1,5C,00,00,00,00,00,00,00,
30633293,0000006F,false,Rx,1,8,C3,B8,05,00,00,00,00,00,
30633531,000001DA,false,Rx,1,8,AA,00,00,00,00,00,06,48,
30633775,00000001,false,Rx,1,8,4C,03,00,00,50,00,90,C9,
30634027,000001F2,false,Rx,1,8,00,00,00,00,00,00,06,00,
30634274,00000280,false,Rx,1,8,00,00,00,00,00,00,00,00,
30634526,00000288,false,Rx,1,8,00,30,00,00,00,00,00,00,
30634778,00000480,false,Rx,1,8,10,00,00,00,1A,00,00,0A,
30642032,000001DB,false,Rx,1,8,00,00,AA,EA,00,00,02,82,
30642268,000001DC,false,Rx,1,8,7D,11,8F,FD,05,34,C6,32,
30642938,000001D4,false,Rx,1,8,00,00,00,00,04,00,00,E6,
30643046,000001C2,false,Rx,1,1,5D,00,00,00,00,00,00,00,
30643288,0000006F,false,Rx,1,8,C4,B8,05,00,00,00,00,00,
30643533,000001DA,false,Rx,1,8,AA,00,00,00,00,00,00,5C,
30643776,00000001,false,Rx,1,8,4C,03,00,00,50,00,90,C9,
30644028,000001F2,false,Rx,1,8,00,00,00,00,00,00,00,00,
30644275,00000280,false,Rx,1,8,00,00,00,00,00,00,00,00,
30644529,00000288,false,Rx,1,8,00,30,00,00,00,00,00,00,
30644773,00000480,false,Rx,1,8,68,00,00,00,1A,00,00,72,
30652104,000001DB,false,Rx,1,8,00,00,AA,EA,00,00,03,07,
30652332,000001DC,false,Rx,1,8,7D,11,8F,FD,08,C0,CF,6B,
30652933,000001D4,false,Rx,1,8,00,00,00,00,44,00,00,21,
30653049,000001C2,false,Rx,1,1,5E,00,00,00,00,00,00,00,
30653291,0000006F,false,Rx,1,8,C4,B8,05,00,00,00,00,00,
30653528,000001DA,false,Rx,1,8,AA,00,00,00,00,00,02,D3,
30653771,00000001,false,Rx,1,8,4C,03,00,00,50,00,90,C9,
30654024,000001F2,false,Rx,1,8,00,00,00,00,00,00,02,00,
30654270,00000280,false,Rx,1,8,00,00,00,00,00,00,00,00,
30654523,00000288,false,Rx,1,8,00,30,00,00,00,00,00,00,
30654768,00000480,false,Rx,1,8,94,00,00,00,1A,00,00,8E,
30662084,000001DB,false,Rx,1,8,00,00,AA,EA,00,00,00,0D,
30662313,000001DC,false,Rx,1,8,7D,11,8F,FD,0C,C4,D0,9F,
30662929,000001D4,false,Rx,1,8,00,00,00,00,84,00,00,ED,
30663045,000001C2,false,Rx,1,1,5F,00,00,00,00,00,00,00,
30663287,0000006F,false,Rx,1,8,C4,B8,05,00,00,00,00,00,
30663532,000001DA,false,Rx,1,8,AA,00,00,00,00,00,04,C7,
30663769,00000001,false,Rx,1,8,4C,03,00,00,50,00,90,C9,
30664020,000001F2,false,Rx,1,8,00,00,00,00,00,00,04,00,
30664274,00000280,false,Rx,1,8,00,00,00,00,00,00,00,00,
30664518,00000288,false,Rx,1,8,00,30,00,00,00,00,00,00,
30664770,00000480,false,Rx,1,8,C0,00,00,00,1A,00,00,DA,
30672200,000001DB,false,Rx,1,8,00,00,AA,EA,00,00,01,88,
30672429,000001DC,false,Rx,1,8,7D,11,8F,FD,01,21,0D,60,
30672931,000001D4,false,Rx,1,8,00,00,00,00,C4,00,00,2A,
30673047,000001C2,false,Rx,1,1,50,00,00,00,00,00,00,00,
30673289,0000006F,false,Rx,1,8,C4,B8,05,00,00,00,00,00,
30673533,000001DA,false,Rx,1,8,AA,00,00,00,00,00,06,48,
30673770,00000001,false,Rx,1,8,4C,03,00,00,50,00,90,C9,
30674021,000001F2,false,Rx,1,8,00,00,00,00,00,00,06,00,
30674275,00000280,false,Rx,1,8,00,00,00,00,00,00,00,00,
30674522,00000288,false,Rx,1,8,00,30,00,00,00,00,00,00,
30674773,00000480,false,Rx,1,8,10,00,00,00,1A,00,00,0A,
30682148,000001DB,false,Rx,1,8,00,00,AA,EA,00,00,02,82,
30682376,000001DC,false,Rx,1,8,7D,11,8F,FD,05,34,C6,32,
30682934,000001D4,false,Rx,1,8,00,00,00,00,04,00,00,E6,
30683042,000001C2,false,Rx,1,1,51,00,00,00,00,00,00,00,
30683284,0000006F,false,Rx,1,8,C5,B8,05,00,00,00,00,00,
30683528,000001DA,false,Rx,1,8,AA,00,00,00,00,00,00,5C,
30683765,00000001,false,Rx,1,8,4C,03,00,00,50,00,90,C9,
30684016,000001F2,false,Rx,1,8,00,00,00,00,00,00,00,00,
30684271,00000280,false,Rx,1,8,00,00,00,00,00,00,00,00,
30684525,00000288,false,Rx,1,8,00,30,00,00,00,00,00,00,
30684768,00000480,false,Rx,1,8,68,00,00,00,1A,00,00,72,
30687544,0000079B,false,Rx,1,8,30,01,00,FF,FF,FF,FF,FF,
30687796,00000390,false,Rx,1,8,00,00,00,00,00,01,F4,00,
30688039,00000102,false,Rx,1,8,01,AE,01,00,00,00,33,00,
30688286,00000101,false,Rx,1,8,00,FF,FE,00,00,00,00,00,
30688532,00000100,false,Rx,1,8,00,00,00,00,B8,01,C8,00,
30688783,0000050B,false,Rx,1,8,00,00,00,C0,00,00,00,00,
30689026,0000050C,false,Rx,1,8,00,00,00,01,B2,31,00,00,
30689278,0000054C,false,Rx,1,8,00,00,00,00,00,00,00,78,
30692303,000001DB,false,Rx,1,8,00,00,AA,EA,00,00,03,07,
30692539,000001DC,false,Rx,1,8,7D,11,8F,FD,08,C0,CF,6B,
30692775,0000055B,false,Rx,1,8,40,00,00,00,FF,C0,13,56,
30693020,000001D4,false,Rx,1,8,00,00,00,00,44,40,00,BC,
30693134,000001C2,false,Rx,1,1,52,00,00,00,00,00,00,00,
30693376,000001DA,false,Rx,1,8,AA,00,00,00,00,00,02,D3,
30693620,000001F2,false,Rx,1,8,00,00,80,00,00,00,02,00,
30693857,000005BC,false,Rx,1,8,7D,00,28,8C,BA,11,E4,CB,
30698853,000007BB,false,Rx,1,8,2B,0D,E8,0D,EA,0D,EB,0D,
30702199,000001DB,false,Rx,1,8,00,00,AA,EA,00,00,00,0D,
30702427,000001DC,false,Rx,1,8,7D,11,8F,FD,0C,C4,D0,9F,
30702929,000001D4,false,Rx,1,8,00,00,00,00,84,40,00,70,
30703037,000001C2,false,Rx,1,1,53,00,00,00,00,00,00,00,
30703279,000001DA,false,Rx,1,8,AA,00,00,00,00,00,04,C7,
30703531,000001F2,false,Rx,1,8,00,00,80,00,00,00,04,00,
30712262,000001DB,false,Rx,1,8,00,00,AA,EA,00,00,01,88,
30712498,000001DC,false,Rx,1,8,7D,11,8F,FD,01,21,0D,60,
30712924,000001D4,false,Rx,1,8,00,00,00,00,C4,40,00,B7,
30713039,000001C2,false,Rx,1,1,54,00,00,00,00,00,00,00,
30713281,000001DA,false,Rx,1,8,AA,00,00,00,00,00,06,48,
30713525,000001F2,false,Rx,1,8,00,00,80,00,00,00,06,00,
30722254,000001DB,false,Rx,1,8,00,00,AA,EA,00,00,02,82,
30722490,000001DC,false,Rx,1,8,7D,11,8F,FD,05,34,C6,32,
30722933,000001D4,false,Rx,1,8,00,00,00,00,04,40,00,7B,
30723168,000001DA,false,Rx,1,8,AA,00,00,00,00,00,00,5C,
30723283,000001C2,false,Rx,1,1,55,00,00,00,00,00,00,00,
30723533,000001F2,false,Rx,1,8,00,00,80,00,00,00,00,00,
30732378,000001DB,false,Rx,1,8,00,00,AA,EA,00,00,03,07,
30732615,000001DC,false,Rx,1,8,7D,11,8F,FD,08,C0,CF,6B,
30732920,000001D4,false,Rx,1,8,00,00,00,00,44,40,00,BC,
30733164,000001DA,false,Rx,1,8,AA,00,00,00,00,00,02,D3,
30733278,000001C2,false,Rx,1,1,56,00,00,00,00,00,00,00,
30733521,000001F2,false,Rx,1,8,00,00,80,00,00,00,02,00,
30742310,000001DB,false,Rx,1,8,00,00,AA,EA,00,00,00,0D,
30742539,000001DC,false,Rx,1,8,7D,11,8F,FD,0C,C4,D0,9F,
30742928,000001D4,false,Rx,1,8,00,00,00,00,84,40,00,70,
30743163,000001DA,false,Rx,1,8,AA,00,00,00,00,00,04,C7,
30743278,000001C2,false,Rx,1,1,57,00,00,00,00,00,00,00,
30743528,000001F2,false,Rx,1,8,00,00,80,00,00,00,04,00,
30752411,000001DB,false,Rx,1,8,00,00,AA,EA,00,00,01,88,
30752645,000001DC,false,Rx,1,8,7D,11,8F,FD,01,21,0D,60,
30752920,000001D4,false,Rx,1,8,00,00,00,00,C4,40,00,B7,
30753164,000001DA,false,Rx,1,8,AA,00,00,00,00,00,06,48,
30753278,000001C2,false,Rx,1,1,58,00,00,00,00,00,00,00,
30753521,000001F2,false,Rx,1,8,00,00,80,00,00,00,06,00,
30762365,000001DB,false,Rx,1,8,00,00,AA,EA,00,00,02,82,
30762601,000001DC,false,Rx,1,8,7D,11,8F,FD,05,34,C6,32,
30762921,000001D4,false,Rx,1,8,00,00,00,00,04,40,00,7B,
30763165,000001DA,false,Rx,1,8,AA,00,00,00,00,00,00,5C,
30763279,000001C2,false,Rx,1,1,59,00,00,00,00,00,00,00,
30763529,000001F2,false,Rx,1,8,00,00,80,00,00,00,00,00,
30772450,000001DB,false,Rx,1,8,00,00,AA,EA,00,00,03,07,
30772685,000001DC,false,Rx,1,8,7D,11,8F,FD,08,C0,CF,6B,
30772929,000001D4,false,Rx,1,8,00,00,00,00,44,40,00,BC,
30773165,000001DA,false,Rx,1,8,AA,00,00,00,00,00,02,D3,
30773279,000001C2,false,Rx,1,1,5A,00,00,00,00,00,00,00,
30773523,000001F2,false,Rx,1,8,00,00,80,00,00,00,02,00,
30782415,000001DB,false,Rx,1,8,00,00,AA,EA,00,00,00,0D,
30782650,000001DC,false,Rx,1,8,7D,11,8F,FD,0C,C4,D0,9F,
30782925,000001D4,false,Rx,1,8,00,00,00,00,84,40,00,70,
30783160,000001DA,false,Rx,1,8,AA,00,00,00,00,00,04,C7,
30783275,000001C2,false,Rx,1,1,5B,00,00,00,00,00,00,00,
30783525,000001F2,false,Rx,1,8,00,00,80,00,00,00,04,00,
30787533,0000079B,false,Rx,1,8,30,01,00,FF,FF,FF,FF,FF,
30787783,00000390,false,Rx,1,8,00,00,00,00,40,01,F4,00,
30788026,00000102,false,Rx,1,8,01,AE,01,00,00,00,33,00,
30788271,00000101,false,Rx,1,8,00,FF,FE,00,00,00,00,00,
30788523,00000100,false,Rx,1,8,00,00,00,00,B8,01,C8,00,
30788766,0000050B,false,Rx,1,8,00,00,00,C0,00,00,00,00,
30789019,0000050C,false,Rx,1,8,00,00,00,02,B2,0D,00,00,
30789270,0000054C,false,Rx,1,8,00,00,00,00,00,00,00,78,
30792595,000001DB,false,Rx,1,8,00,00,AA,EA,00,00,01,88,
30792823,000001DC,false,Rx,1,8,7D,11,8F,FD,01,21,0D,60,
30793067,000001D4,false,Rx,1,8,00,00,00,00,C4,40,00,B7,
30793310,000001DA,false,Rx,1,8,AA,00,00,00,00,00,06,48,
30793425,000001C2,false,Rx,1,1,5C,00,00,00,00,00,00,00,
30793669,000001F2,false,Rx,1,8,00,00,80,00,00,00,06,00,
30793912,0000055B,false,Rx,1,8,40,00,00,00,FF,C0,10,5C,
30794148,000005BC,false,Rx,1,8,14,00,28,8C,BA,02,07,A9,
30799952,000007BB,false,Rx,1,8,2C,E8,0D,E6,0D,EC,0D,EC,
30802476,000001DB,false,Rx,1,8,00,00,AA,EA,00,00,02,82,
30802711,000001DC,false,Rx,1,8,7D,11,8F,FD,05,34,C6,32,
30802955,000001D4,false,Rx,1,8,00,00,00,00,04,40,00,7B,
30803199,000001DA,false,Rx,1,8,AA,00,00,00,00,00,00,5C,
30803313,000001C2,false,Rx,1,1,5D,00,00,00,00,00,00,00,
30803565,000001F2,false,Rx,1,8,00,00,80,00,00,00,00,00,
30812513,000001DB,false,Rx,1,8,00,00,AA,EA,00,00,03,07,
30812747,000001DC,false,Rx,1,8,7D,11,8F,FD,08,C0,CF,6B,
30812992,000001D4,false,Rx,1,8,00,00,00,00,44,40,00,BC,
